# MHz S DB R 50
1.0000000000000000e+00 -2.4959608438927347e-02 -9.5554082436349645e+00 -8.3219004411251817e+01 3.2878261814798812e+01 -7.6091101029209085e+01 -1.6129954016350514e+01 -1.0596690498685786e-01 -7.3158207986243768e+00
1.0100000000000000e+00 -2.5075032283732087e-02 -9.6522614092705279e+00 -8.0768969193357080e+01 1.0324141538597357e+02 -7.1537676518853914e+01 7.1728785545526108e+01 -1.0574111715201087e-01 -7.3847545795541212e+00
1.0200000000000000e+00 -2.6600106351126616e-02 -9.7577208639205271e+00 -7.5690646982578983e+01 1.0624423278906310e+02 -7.5069030279546226e+01 1.1349388400854005e+02 -1.0643294453995164e-01 -7.4511514217647790e+00
1.0300000000000000e+00 -2.6070480986511393e-02 -9.8337997112357645e+00 -8.0668467900444384e+01 -6.2118704772585547e+00 -7.2671221341012625e+01 4.8888743190687237e+01 -1.0625417967893538e-01 -7.5143530387560311e+00
1.0400000000000000e+00 -2.5820085193296302e-02 -9.9284413314154421e+00 -7.6515995753628545e+01 9.8780979411627840e+01 -7.4570034077663436e+01 5.3163755756084498e+01 -1.0684013335850258e-01 -7.5902795805588532e+00
1.0500000000000000e+00 -2.6886264999164546e-02 -1.0024491556518113e+01 -7.5831958628835224e+01 8.0420388058807504e+01 -7.9459092765266732e+01 1.1328323051399786e+02 -1.0591408173609997e-01 -7.6610808742717253e+00
1.0600000000000001e+00 -2.7425177046831464e-02 -1.0118190793927750e+01 -8.1627293063225892e+01 2.4618030785466040e+01 -7.6125452370374006e+01 9.9901513743373741e+01 -1.0684323650530890e-01 -7.7195006763184422e+00
1.0700000000000001e+00 -2.6895818027808702e-02 -1.0213950167336417e+01 -7.5345744495217687e+01 3.5906793944584727e+01 -7.2978704949066355e+01 5.8993882993231288e+01 -1.0651690521121415e-01 -7.7918440075731716e+00
1.0800000000000001e+00 -2.7803614450889393e-02 -1.0308181167047140e+01 -9.0387899754497226e+01 6.6637422994022202e+01 -7.2364069152882664e+01 3.8360877870681044e+01 -1.0657229819720299e-01 -7.8699220390769344e+00
1.0900000000000001e+00 -2.7218067705802054e-02 -1.0403858318909249e+01 -8.2268789925390308e+01 8.4789138884003307e+01 -7.2320306498991485e+01 8.5073640918832382e+01 -1.0646465376370806e-01 -7.9314780124251572e+00
1.1000000000000001e+00 -2.6618954231965718e-02 -1.0483899344279166e+01 -7.0671000445404914e+01 8.7012654331944589e+01 -8.3806197840615638e+01 -1.5377146524199938e+02 -1.0618597977332257e-01 -8.0007626156065541e+00
1.1100000000000001e+00 -2.7436714851978149e-02 -1.0586294003419463e+01 -7.1261034633113240e+01 5.8300782485679122e+01 -7.8391554213125175e+01 1.4174539844633486e+02 -1.0771386905242991e-01 -8.0682420128403436e+00
1.1200000000000001e+00 -2.8646523519332157e-02 -1.0683803694402648e+01 -7.6332899743682802e+01 5.3572362522923846e+01 -7.6928768228998223e+01 6.5398067799011642e+01 -1.0723371211422913e-01 -8.1343813384162189e+00
1.1299999999999999e+00 -2.7671457073163912e-02 -1.0765457403916891e+01 -7.8675748809320751e+01 1.0102233393497875e+02 -7.0464959300470056e+01 3.2422522598925845e+01 -1.0707984636243653e-01 -8.2105381158219206e+00
1.1399999999999999e+00 -2.8409033304603631e-02 -1.0865340982298584e+01 -7.3145519766379664e+01 9.3725335943596235e+01 -7.2977446208044967e+01 5.3993472631623156e+01 -1.0704204434850777e-01 -8.2850621303517364e+00
1.1499999999999999e+00 -2.7792160487183554e-02 -1.0970382316125200e+01 -7.2971064574607894e+01 4.1847526633923280e+01 -7.5093563410358001e+01 1.1096448668295114e+01 -1.0764958028303198e-01 -8.3586311005259351e+00
1.1599999999999999e+00 -2.9647740442140840e-02 -1.1073958860515550e+01 -8.4260706419624142e+01 4.1546483443170779e+01 -7.1258010898536341e+01 9.0215080888767346e+01 -1.0748782103449442e-01 -8.4242168747070831e+00
1.1699999999999999e+00 -2.9084208447450934e-02 -1.1150665044450440e+01 -7.7153265633126992e+01 2.9282950577715877e+01 -7.1214614052973360e+01 6.3943130948676433e+01 -1.0733103729366811e-01 -8.4905333465441615e+00
1.1799999999999999e+00 -2.8888383219172503e-02 -1.1250905042723920e+01 -7.3980069133756444e+01 4.0890814310186720e+01 -7.8294567241720841e+01 6.9864290930279893e+01 -1.0728420637981853e-01 -8.5655707268782635e+00
1.1899999999999999e+00 -2.9233316285497950e-02 -1.1336157199835551e+01 -7.2053437775190588e+01 1.2863747076499038e+02 -7.7143710296466892e+01 1.0678704102895939e+02 -1.0697248891364135e-01 -8.6275736277547548e+00
1.2000000000000000e+00 -3.0277699857342126e-02 -1.1437683360113597e+01 -7.2481581652872478e+01 5.2648523091327732e+01 -7.6739779357455021e+01 6.4948542505387408e+01 -1.0882517170579246e-01 -8.7008184137934581e+00
1.2100000000000000e+00 -3.0336156526606265e-02 -1.1524240177908531e+01 -7.6299182311427259e+01 3.3443705557358328e+01 -7.1342092798031146e+01 7.2580478845472129e+01 -1.0710594566183033e-01 -8.7688013573517978e+00
1.2200000000000000e+00 -2.9808291579316144e-02 -1.1627313212625905e+01 -7.0424096646656210e+01 4.9168645860395138e+01 -7.0179266085272062e+01 6.7718341673758175e+01 -1.0804762994480885e-01 -8.8312904101854492e+00
1.2300000000000000e+00 -3.0689846921615561e-02 -1.1706134008843970e+01 -7.2895605993701025e+01 7.0157888508241072e+01 -7.3138626632115773e+01 9.6523562181134920e+01 -1.0839809162595417e-01 -8.9078221227607663e+00
1.2400000000000000e+00 -3.1548258607423101e-02 -1.1816859567072619e+01 -7.1593426159430393e+01 3.7256989526448201e+01 -7.3541279500700071e+01 7.3579072501058135e+01 -1.0805571058407294e-01 -8.9822507080775953e+00
1.2500000000000000e+00 -3.0267583786201514e-02 -1.1907019246061635e+01 -6.9889030992820494e+01 5.4792779969669063e+01 -7.8023571198824598e+01 7.0126435811058300e+01 -1.0764896618143593e-01 -9.0505572251779149e+00
1.2600000000000000e+00 -3.1388933478718933e-02 -1.2017770222537390e+01 -7.4813906357957123e+01 5.8948552009767802e+01 -7.5743228009273977e+01 8.4542721453803864e+01 -1.0805411923842495e-01 -9.1206415603742723e+00
1.2700000000000000e+00 -3.1555058780330027e-02 -1.2090329721865837e+01 -7.1539413413053396e+01 5.0226250589312023e+01 -7.0961960137897705e+01 8.1930512670915377e+01 -1.0662101371504237e-01 -9.1902997838402669e+00
1.2800000000000000e+00 -3.2192630445941367e-02 -1.2191913310570532e+01 -7.4625299069136105e+01 1.0149809013279391e+02 -7.7797836357766585e+01 7.4977774079326267e+01 -1.0648655431280268e-01 -9.2542273189426769e+00
1.2900000000000000e+00 -3.1840330069724899e-02 -1.2312560112769926e+01 -7.1438397988901301e+01 4.9464378427235197e+01 -7.3965536493183322e+01 5.2902114297540528e+01 -1.0589765800693374e-01 -9.3263279691663286e+00
1.3000000000000000e+00 -3.1764875665674555e-02 -1.2373021382063531e+01 -7.8287733917335970e+01 1.0703168571385532e+02 -7.4396792276652675e+01 4.5526438605023749e+01 -1.0759161435337157e-01 -9.4003581977447670e+00
1.3100000000000001e+00 -3.5154008519534360e-02 -1.2498900998484077e+01 -7.4169312953192247e+01 7.7479301571850343e+01 -7.0638608441127346e+01 7.3266335250341953e+01 -1.0842885656546991e-01 -9.4881538345279406e+00
1.3200000000000001e+00 -4.0172479979147982e-02 -1.2572592034233423e+01 -7.2634624657110464e+01 1.0752430826264461e+02 -7.6903607766582141e+01 6.2697657283363576e+01 -1.0452625887089542e-01 -9.5032328105101271e+00
1.3300000000000001e+00 -3.9367318743542157e-02 -1.2636995873385894e+01 -7.0236405755544439e+01 6.9504325367132893e+01 -7.0201438275485074e+01 7.3674425373985741e+01 -1.1317188965336593e-01 -9.6702792870472116e+00
1.3400000000000001e+00 -4.6889080530382189e-02 -1.2645313751309502e+01 -7.1791064513961146e+01 7.6135745549701966e+01 -7.5254610363978969e+01 8.0259054567580762e+01 -1.2138099971488041e-01 -9.7520481694481482e+00
1.3500000000000001e+00 -3.2935422518550916e-02 -1.2862622581035012e+01 -7.3573649423488220e+01 6.5218700482736537e+01 -7.5881132470929515e+01 4.8313022254736552e+01 -1.0932016593984695e-01 -9.7529792050307158e+00
1.3600000000000001e+00 -3.1680330462303945e-02 -1.2941035171130673e+01 -7.0645546095464482e+01 8.4033006717344065e+01 -7.1383415962078601e+01 6.3261417512366549e+01 -1.1024062853339880e-01 -9.8214600654153337e+00
1.3700000000000001e+00 -3.0773693069684138e-02 -1.3051233013145399e+01 -7.6433979788690195e+01 6.5980958498331574e+01 -8.0082251759749852e+01 -4.3828976765803085e-01 -1.0730366975520081e-01 -9.9070079103860618e+00
1.3799999999999999e+00 -3.3088188891584235e-02 -1.3152445780277104e+01 -7.0428395615623984e+01 7.7567264886340396e+01 -7.1827146273312664e+01 8.6394291083964205e+01 -1.0835520709283730e-01 -9.9711450657390461e+00
1.3899999999999999e+00 -3.3745276905683852e-02 -1.3274894755678575e+01 -7.0159362279271136e+01 8.4974730528018412e+01 -7.0008974658208530e+01 5.9040877801940894e+01 -1.0692248509590460e-01 -1.0038525479209943e+01
1.3999999999999999e+00 -3.2838624690986987e-02 -1.3336828483328361e+01 -7.3999198542808486e+01 6.5142292736029560e+01 -6.7835430861548815e+01 6.5280576305592007e+01 -1.0758715503106281e-01 -1.0110729533658745e+01
1.4099999999999999e+00 -3.3056171965157179e-02 -1.3457199271694462e+01 -7.2969632220883483e+01 8.8856516671245402e+01 -7.4042984744647583e+01 6.4323105625033520e+01 -1.0757294750028587e-01 -1.0186480438938604e+01
1.4199999999999999e+00 -3.3998944982684673e-02 -1.3546127186919644e+01 -7.7606637883251025e+01 1.0090073085811851e+02 -7.1496628294452904e+01 7.6425153475819243e+01 -1.0843026227028867e-01 -1.0255830257083755e+01
1.4299999999999999e+00 -3.3709785967992567e-02 -1.3630133033743766e+01 -6.9025729058582186e+01 7.2147280554965718e+01 -6.9422364006245772e+01 9.0254346920418584e+01 -1.0865560886830047e-01 -1.0327221850278402e+01
1.4399999999999999e+00 -3.3356456562630220e-02 -1.3734146136344782e+01 -7.4151166334454302e+01 1.0175592068623774e+02 -7.0063429485151133e+01 8.9230417225218162e+01 -1.0831407039327778e-01 -1.0409479301746456e+01
1.4500000000000000e+00 -3.4229103060129690e-02 -1.3841063617884730e+01 -6.7981104201667208e+01 7.8290776024658740e+01 -6.7614314304692940e+01 6.0957110629312417e+01 -1.0776738972405135e-01 -1.0478753200961933e+01
1.4600000000000000e+00 -3.3901586561837102e-02 -1.3927243704287580e+01 -7.2108140749858109e+01 4.8379777678904482e+01 -6.6405079545994340e+01 8.8986806930705086e+01 -1.0794752570359648e-01 -1.0544056617471282e+01
1.4700000000000000e+00 -3.4738355126031559e-02 -1.4029067652750554e+01 -7.2519915014462285e+01 8.8391006159547231e+01 -6.9568112717340568e+01 7.7501770441769025e+01 -1.0800587047085385e-01 -1.0621086381676308e+01
1.4800000000000000e+00 -3.4556782955730891e-02 -1.4114269909031490e+01 -6.6922707533798643e+01 8.1953911136345411e+01 -7.0122414065079127e+01 9.5078196524423561e+01 -1.0930942143088856e-01 -1.0688093998470473e+01
1.4900000000000000e+00 -3.5233542338388199e-02 -1.4211915521817389e+01 -6.8266402455957362e+01 8.1379591483385028e+01 -7.0204879438734736e+01 7.5367972731513717e+01 -1.0811818973623753e-01 -1.0760847107317549e+01
1.5000000000000000e+00 -3.5291737445340504e-02 -1.4332156615346996e+01 -7.0137382962609692e+01 7.9198958013160293e+01 -6.6368019901079293e+01 9.1667437986572807e+01 -1.0803957329905178e-01 -1.0830666358976869e+01
1.5100000000000000e+00 -3.5891930108236651e-02 -1.4417036161268815e+01 -7.2672278740613251e+01 9.1237867119076810e+01 -7.3861407853968473e+01 7.0136535096225714e+01 -1.0854093111131544e-01 -1.0906982760040041e+01
1.5200000000000000e+00 -3.4869122040680087e-02 -1.4515333300202919e+01 -6.8969438969195323e+01 7.7582799008048312e+01 -6.9833976563403056e+01 5.9512303361378386e+01 -1.0827459661729764e-01 -1.0974530637529329e+01
1.5300000000000000e+00 -3.5051273796206844e-02 -1.4619477335675269e+01 -6.9413717011679097e+01 7.4208556696101624e+01 -6.8947381540193177e+01 9.9358527688202201e+01 -1.0802076701983783e-01 -1.1040229093796093e+01
1.5400000000000000e+00 -3.5153971958632360e-02 -1.4706445614292026e+01 -6.8612820678911604e+01 7.5072020363992451e+01 -7.0812736149425149e+01 8.9952465851895994e+01 -1.0808039429654709e-01 -1.1121201996385288e+01
1.5500000000000000e+00 -3.5192270184279131e-02 -1.4807870485861187e+01 -6.8508234183076610e+01 7.0073586411199571e+01 -7.1380434534857798e+01 8.8808659433613272e+01 -1.0764914389532479e-01 -1.1192658832585430e+01
1.5600000000000001e+00 -3.4543582182350541e-02 -1.4896142873345156e+01 -6.8125907266406188e+01 7.1262848355489098e+01 -7.2161601815967799e+01 1.0268658478055887e+02 -1.0811544931961478e-01 -1.1272260658367689e+01
1.5700000000000001e+00 -3.7131874547113704e-02 -1.5001416631798957e+01 -6.7906159346211780e+01 8.1632994333922980e+01 -6.5630881559077949e+01 9.6056669389942940e+01 -1.0891804552492187e-01 -1.1340319366027890e+01
1.5800000000000001e+00 -3.6757412275370369e-02 -1.5099947211574229e+01 -6.4191956809505157e+01 9.0724527080158282e+01 -6.6851660993678365e+01 9.1536911040530839e+01 -1.0667898120362404e-01 -1.1410340566726290e+01
1.5900000000000001e+00 -3.6342475605782444e-02 -1.5206289290071009e+01 -6.8333949713635761e+01 8.8140565370243152e+01 -6.6550630840605692e+01 8.1442319788780765e+01 -1.0795206604111143e-01 -1.1484735869294076e+01
1.6000000000000001e+00 -3.6173317866242553e-02 -1.5309810965098832e+01 -6.9717716918871574e+01 7.5579417715755881e+01 -6.5690203808047599e+01 7.3252962237305212e+01 -1.0728092032440298e-01 -1.1565249366194250e+01
1.6100000000000001e+00 -3.6352719840472732e-02 -1.5403791164705630e+01 -6.5376842758000379e+01 9.8333555355450159e+01 -6.6994603925852957e+01 6.0198371849803415e+01 -1.0808101201178230e-01 -1.1642713916716946e+01
1.6200000000000001e+00 -3.8205683407364653e-02 -1.5509499845505852e+01 -6.5841449519407320e+01 8.7795567253998698e+01 -6.5421448737597544e+01 7.9532790179540896e+01 -1.0790015270638642e-01 -1.1701446062832179e+01
1.6299999999999999e+00 -3.8529786590344055e-02 -1.5610731294465138e+01 -6.5502358950304426e+01 6.8375132582659404e+01 -6.5297562826749171e+01 1.0531102553866377e+02 -1.0660933657144234e-01 -1.1782373882395181e+01
1.6399999999999999e+00 -3.7132664415550541e-02 -1.5711780284774171e+01 -6.5037072500419427e+01 7.5842183203055640e+01 -6.5077699750667833e+01 9.1430473267454204e+01 -1.0799619005873817e-01 -1.1854282950943931e+01
1.6499999999999999e+00 -3.6132915934023450e-02 -1.5801389811678565e+01 -6.4044817562597004e+01 9.6470318239313031e+01 -6.6405644371655001e+01 9.2790580447539682e+01 -1.0769685444904734e-01 -1.1934755039189687e+01
1.6599999999999999e+00 -3.6874241438677000e-02 -1.5907121420307046e+01 -6.6707434633843718e+01 8.2662234907179553e+01 -6.3115373123762772e+01 5.9506425722291013e+01 -1.0705164038642252e-01 -1.2009235980962073e+01
1.6699999999999999e+00 -3.8073933358350853e-02 -1.6014829758127689e+01 -6.4273411439214883e+01 8.0606180661072273e+01 -6.6059218856354590e+01 7.2071586276155912e+01 -1.0741919338064350e-01 -1.2076854681115307e+01
1.6799999999999999e+00 -3.8204124096190693e-02 -1.6105828049022804e+01 -6.4494796932390301e+01 8.3548359420070568e+01 -6.5987320869617136e+01 8.3871507409207624e+01 -1.0742599135638331e-01 -1.2165271213414844e+01
1.6899999999999999e+00 -3.7268601797402899e-02 -1.6199560218631866e+01 -6.5302615991623924e+01 7.6862768191282001e+01 -6.6406845106517224e+01 7.0003667105652042e+01 -1.0808164920080481e-01 -1.2230247394158031e+01
1.7000000000000000e+00 -3.7867798524897696e-02 -1.6321945776497550e+01 -6.5147700878738902e+01 8.3190734216363424e+01 -6.2519509786894069e+01 7.4148698202207100e+01 -1.0752735020225443e-01 -1.2309988788168877e+01
1.7100000000000000e+00 -3.8160486920564313e-02 -1.6411065689915969e+01 -6.5399974780752942e+01 9.5321380636667030e+01 -6.3340992089284768e+01 9.2047812275396794e+01 -1.0682434286094887e-01 -1.2388681999706055e+01
1.7200000000000000e+00 -3.7618783206492534e-02 -1.6525888844484520e+01 -6.5846538381869934e+01 9.1799021238360822e+01 -6.3774115497404068e+01 8.5507440163293623e+01 -1.0666702395567368e-01 -1.2453439495866126e+01
1.7300000000000000e+00 -3.6720934886223584e-02 -1.6614409209929690e+01 -6.4045513397515549e+01 8.4787026937642224e+01 -6.3854721817361835e+01 8.1149606059221085e+01 -1.0775802232708757e-01 -1.2532511990688931e+01
1.7400000000000000e+00 -3.8114405181457818e-02 -1.6723036829164389e+01 -6.5185989010420386e+01 8.0105226787008817e+01 -6.5184290441960613e+01 8.2429000524927602e+01 -1.0670973964575925e-01 -1.2614229699751798e+01
1.7500000000000000e+00 -3.8137377261209193e-02 -1.6814443897921571e+01 -6.3784761597737159e+01 7.9938212219929682e+01 -6.3975465079218488e+01 8.4590320817831412e+01 -1.0678032438058940e-01 -1.2690307946782429e+01
1.7600000000000000e+00 -3.8658848260256680e-02 -1.6920345350897914e+01 -6.3533192416426239e+01 7.5334321897837242e+01 -6.2244872916406820e+01 9.1284578695296076e+01 -1.0720668423833889e-01 -1.2769366389685146e+01
1.7700000000000000e+00 -3.8219797152668475e-02 -1.7022981355620725e+01 -6.2126574438436691e+01 7.1832710027817086e+01 -6.5074230019997245e+01 9.0239183947050023e+01 -1.0647239036852336e-01 -1.2839717097679236e+01
1.7800000000000000e+00 -3.7578621275721640e-02 -1.7130787586968538e+01 -6.2292914336616349e+01 7.9719076001752057e+01 -6.1048434810309132e+01 7.8934986710883805e+01 -1.0549792856756265e-01 -1.2913364735862967e+01
1.7900000000000000e+00 -3.7397067693346150e-02 -1.7231172708289648e+01 -6.4162841487877515e+01 8.9856823174227088e+01 -6.1362824093290428e+01 6.9443735372354993e+01 -1.0609160187455366e-01 -1.2995907680660807e+01
1.8000000000000000e+00 -3.7660483548453541e-02 -1.7330473674656051e+01 -6.4310350788163547e+01 9.6030825685330029e+01 -6.4672232357477654e+01 9.0230441811480190e+01 -1.0644510610454806e-01 -1.3072643103578505e+01
1.8100000000000001e+00 -3.8175539568533909e-02 -1.7434283724587996e+01 -6.3368705473526873e+01 7.9798864493292086e+01 -6.2998417201675224e+01 6.8234467916383878e+01 -1.0655897820042079e-01 -1.3146407683187755e+01
1.8200000000000001e+00 -3.9908393631807836e-02 -1.7532631337333143e+01 -6.2388782349988325e+01 7.5691749786984289e+01 -6.1683794817187874e+01 7.2396916934430124e+01 -1.0638437815788222e-01 -1.3214490163745326e+01
1.8300000000000001e+00 -3.8276697632539020e-02 -1.7640500944298154e+01 -6.2317867963644538e+01 8.0656035587588605e+01 -6.5666371253645877e+01 9.0583332240725127e+01 -1.0539439282938873e-01 -1.3299871438902587e+01
1.8400000000000001e+00 -3.9265687039136819e-02 -1.7742128934214243e+01 -6.2908194193254218e+01 8.1746365092145780e+01 -6.1402263212932425e+01 8.3531307012587007e+01 -1.0668005750081443e-01 -1.3378099623110264e+01
1.8500000000000001e+00 -3.9479768141010674e-02 -1.7846731315414949e+01 -6.1832306022022259e+01 8.7196325502981153e+01 -6.2793555740183010e+01 7.6698445396824752e+01 -1.0640568933044212e-01 -1.3454983797645651e+01
1.8600000000000001e+00 -3.9539604169233876e-02 -1.7954851169074246e+01 -6.1722768325428191e+01 8.3228659431902813e+01 -6.4100919880828030e+01 8.8841450664208026e+01 -1.0724992934738582e-01 -1.3530368207121406e+01
1.8700000000000001e+00 -3.9005459755639044e-02 -1.8059505969683268e+01 -6.2126221198132370e+01 8.0540371809599620e+01 -6.0877325652794106e+01 5.9347422367227097e+01 -1.0599647919414645e-01 -1.3621088987488855e+01
1.8799999999999999e+00 -3.8915440325998460e-02 -1.8160824531843875e+01 -6.1793242720574014e+01 7.4465541093413407e+01 -6.3516998312905919e+01 9.1999165207566918e+01 -1.0766214762387746e-01 -1.3691994090779016e+01
1.8899999999999999e+00 -4.0071784407607232e-02 -1.8265100778378031e+01 -6.0380722858711884e+01 8.4009771152042802e+01 -6.1145556232098670e+01 7.3213846944024041e+01 -1.0775567412158960e-01 -1.3770566363013851e+01
1.8999999999999999e+00 -3.8551846257252782e-02 -1.8378726655632420e+01 -6.2767534483406770e+01 7.1338296156985706e+01 -6.1281357341415458e+01 9.0797459363786800e+01 -1.0614681725135594e-01 -1.3845487253162144e+01
1.9099999999999999e+00 -4.0354555501213439e-02 -1.8489457539941053e+01 -6.1415797942256567e+01 7.5437001646863166e+01 -6.1672086705684386e+01 7.6457255670868236e+01 -1.0564370567133981e-01 -1.3930301882506175e+01
1.9199999999999999e+00 -3.8446959367637965e-02 -1.8571330863194927e+01 -6.1782996679134897e+01 7.8161465973018835e+01 -6.1846683071490467e+01 8.5392439253173222e+01 -1.0670788797889788e-01 -1.4006764072750164e+01
