# MHz S DB R 50
1.0000000000000000e+00 -2.5430135976016066e-02 -9.5413469222829512e+00 -7.9618018503130216e+01 3.5298060400426820e+01 -7.5462788798917728e+01 -8.7394913074280876e+00 -1.0695791990366360e-01 -7.3169532725128157e+00
1.0100000000000000e+00 -2.6060638895016201e-02 -9.6448990336263609e+00 -7.9029133224112655e+01 9.1561203254168802e+01 -7.0100955151260251e+01 7.3323351411379178e+01 -1.0602873461139752e-01 -7.3832710315819847e+00
1.0200000000000000e+00 -2.6590478522512631e-02 -9.7365998770957649e+00 -7.4577415364891252e+01 8.4651487047880977e+01 -7.3879883532285518e+01 1.1238405717595592e+02 -1.0670963857789598e-01 -7.4526399784431590e+00
1.0300000000000000e+00 -2.5884721740722073e-02 -9.8127242914851749e+00 -7.8959849625848989e+01 7.3838417288739757e+00 -7.1780009000196245e+01 4.9242541648035420e+01 -1.0716727065007076e-01 -7.5204348769845897e+00
1.0400000000000000e+00 -2.6682154613139296e-02 -9.9291747608811516e+00 -7.5600163985739869e+01 1.0235311332748304e+02 -7.4408899353334903e+01 4.8989906652147006e+01 -1.0623792250199833e-01 -7.5968279297905905e+00
1.0500000000000000e+00 -2.6767134492154506e-02 -1.0009743589982657e+01 -7.5190795780301812e+01 7.4858461373421463e+01 -7.8460613110997457e+01 9.7992514422899603e+01 -1.0704204780532225e-01 -7.6678449311191423e+00
1.0600000000000001e+00 -2.7663057093300178e-02 -1.0110260709421118e+01 -7.6917761249950146e+01 5.6600960670182417e+01 -7.5588297429716988e+01 1.0020070014006625e+02 -1.0814937441474504e-01 -7.7310488907511346e+00
1.0700000000000001e+00 -2.6948782115591135e-02 -1.0193820264362321e+01 -7.4356250046763265e+01 4.2908618753528621e+01 -7.1638785385131087e+01 5.9851748116586649e+01 -1.0693248062047053e-01 -7.7973192020846849e+00
1.0800000000000001e+00 -2.7802657396593690e-02 -1.0291218649020808e+01 -8.4149910370792412e+01 7.3700490358314326e+01 -7.2293698797324637e+01 4.6895566736004987e+01 -1.0786171922230268e-01 -7.8683661154684419e+00
1.0900000000000001e+00 -2.7718910625171518e-02 -1.0389638105329341e+01 -7.9124864439779387e+01 7.8860318619530219e+01 -7.2308505841879494e+01 8.3569654644423281e+01 -1.0726519754567543e-01 -7.9325703407279411e+00
1.1000000000000001e+00 -2.6739703316477924e-02 -1.0480496868273683e+01 -7.0722624787154928e+01 8.2364223726507987e+01 -8.1294391305229396e+01 1.6272229255112222e+02 -1.0721257365889818e-01 -8.0104365178277277e+00
1.1100000000000001e+00 -2.6711030589500095e-02 -1.0576402663108519e+01 -7.0608219095431068e+01 6.2972505719010442e+01 -7.8964878230006335e+01 1.1677851459808582e+02 -1.0841270369592225e-01 -8.0737143121977137e+00
1.1200000000000001e+00 -2.8828556529925366e-02 -1.0662577746664551e+01 -7.4724461218126123e+01 6.4098402247194571e+01 -7.4730037514829007e+01 7.0105274694187273e+01 -1.0837927712186193e-01 -8.1424165163762119e+00
1.1299999999999999e+00 -2.7931755576921798e-02 -1.0755035470471942e+01 -7.8046359546453687e+01 9.4939669320868489e+01 -7.0299925970822500e+01 3.6824107391630356e+01 -1.0764127628452176e-01 -8.2231762606717087e+00
1.1399999999999999e+00 -2.8578744851292616e-02 -1.0858215052565184e+01 -7.1322691615022251e+01 9.4022508889678917e+01 -7.0861310325881632e+01 5.6048679362256372e+01 -1.0816727257921169e-01 -8.2844718935184396e+00
1.1499999999999999e+00 -2.8695574053752136e-02 -1.0944231776176387e+01 -7.3037498805031277e+01 5.4761311442239460e+01 -7.5960021184855165e+01 9.1100842163746023e+00 -1.0889377674995072e-01 -8.3603967077106560e+00
1.1599999999999999e+00 -2.8915030608445347e-02 -1.1047255759285703e+01 -8.1767437002687188e+01 1.9581953853563206e+01 -6.9545747078695200e+01 8.5143214708188637e+01 -1.0822603472075117e-01 -8.4259864057759799e+00
1.1699999999999999e+00 -2.9498030188674029e-02 -1.1135495983869429e+01 -7.5162589951124929e+01 4.7628714251755362e+01 -7.0461191728193768e+01 6.3141265707186015e+01 -1.0853959343489525e-01 -8.4983990081671994e+00
1.1799999999999999e+00 -2.8564301966497785e-02 -1.1232094252447535e+01 -7.5377702832876594e+01 4.0287609684924817e+01 -7.6338009158503553e+01 6.3424350266361621e+01 -1.0836922119270702e-01 -8.5646628227147570e+00
1.1899999999999999e+00 -2.9789848367761437e-02 -1.1328467914056411e+01 -6.9341491647123405e+01 1.3425407232846271e+02 -7.4164582064094404e+01 7.4992458820991970e+01 -1.0577955181503408e-01 -8.6330014818382352e+00
1.2000000000000000e+00 -2.9865249536961271e-02 -1.1416294216844175e+01 -7.1973829008085445e+01 5.4313535660526220e+01 -7.4738249712019694e+01 6.9541494253603787e+01 -1.0895330003516336e-01 -8.7043174958534273e+00
1.2100000000000000e+00 -2.9961611091109605e-02 -1.1507052379548904e+01 -7.4423086404845577e+01 4.3784064841828553e+01 -7.0058036796300456e+01 7.5373635340280089e+01 -1.0825527548252581e-01 -8.7710539318605001e+00
1.2200000000000000e+00 -2.9037926294276650e-02 -1.1609734966677188e+01 -6.9591596589380273e+01 4.8492838606371855e+01 -6.8435026868812827e+01 6.8111248519381164e+01 -1.0851828493778275e-01 -8.8381771913291178e+00
1.2300000000000000e+00 -3.1314561100841638e-02 -1.1705858034385631e+01 -7.2308028884846053e+01 6.8391056470970867e+01 -7.2352141705270554e+01 8.0800728162880375e+01 -1.0846759029260900e-01 -8.9130600607553276e+00
1.2400000000000000e+00 -3.0137618353850336e-02 -1.1805296743913731e+01 -7.1196477738158393e+01 4.4049397222000088e+01 -7.1658158126812580e+01 7.6030637402642213e+01 -1.0913318503914686e-01 -8.9751961684401866e+00
1.2500000000000000e+00 -3.0473431254009573e-02 -1.1903032354987896e+01 -6.9122021822378329e+01 5.1326850552470077e+01 -7.5106713627812425e+01 6.3689804917017213e+01 -1.0884021458223617e-01 -9.0532104858335938e+00
1.2600000000000000e+00 -3.2231037177698998e-02 -1.2002364216346072e+01 -7.2671302174218923e+01 6.3902943224284307e+01 -7.3755851780798622e+01 7.7145459517327083e+01 -1.0920189116677048e-01 -9.1259128089503250e+00
1.2700000000000000e+00 -3.0985135831009394e-02 -1.2081273030847289e+01 -7.1696088030494948e+01 5.2765878890903288e+01 -7.0348150738632498e+01 8.1085437539321518e+01 -1.0859601503753093e-01 -9.1930970417870697e+00
1.2800000000000000e+00 -3.2108059792269827e-02 -1.2190992422269504e+01 -7.3313260912188866e+01 1.0221834849086270e+02 -7.6863329850206469e+01 7.2773400445490978e+01 -1.0830315445360610e-01 -9.2686311016932397e+00
1.2900000000000000e+00 -3.5499321546652869e-02 -1.2283640013678960e+01 -6.9753091673762142e+01 4.9974934150445527e+01 -7.1792264408931089e+01 6.7207246376762384e+01 -1.0839326794155690e-01 -9.3377890510848562e+00
1.3000000000000000e+00 -3.0623191983701479e-02 -1.2366174599439413e+01 -7.8306773285624175e+01 1.0162851427744896e+02 -7.3437946908481976e+01 5.1455566142850451e+01 -1.0814975271222950e-01 -9.3996562002870263e+00
1.3100000000000001e+00 -3.0379354557319386e-02 -1.2453751204102609e+01 -7.3628399677139569e+01 6.9180265881984056e+01 -6.9744292746446774e+01 6.6991643783735043e+01 -1.0616791821812564e-01 -9.4853087746089120e+00
1.3200000000000001e+00 -3.9998248417705169e-02 -1.2567649522893362e+01 -7.1178938567874724e+01 1.0563818091280375e+02 -7.3655051521330279e+01 6.8183232152750747e+01 -1.0551927911647051e-01 -9.5108884475621238e+00
1.3300000000000001e+00 -3.3671548145579558e-02 -1.2653822675642319e+01 -6.8659153064398993e+01 7.4914728303487394e+01 -6.8611226218763235e+01 7.2683559659616193e+01 -1.0725781368023338e-01 -9.7156078848211003e+00
1.3400000000000001e+00 -7.2296066660783392e-02 -1.2701665291171469e+01 -7.1502985011039456e+01 7.2048011972510352e+01 -7.5246384172032080e+01 8.9355070304585311e+01 -8.5882763538100870e-02 -9.7016733324206328e+00
1.3500000000000001e+00 -3.3632267608925827e-02 -1.2838200410807847e+01 -7.1578592143266931e+01 6.1527436162993155e+01 -7.3181631718435526e+01 4.8788228576995998e+01 -1.0894550588453147e-01 -9.7713914184845070e+00
1.3600000000000001e+00 -2.9956589017584904e-02 -1.2935166285580726e+01 -6.9730051224451813e+01 8.0475164672492582e+01 -7.1592729043200507e+01 6.5821618449765026e+01 -1.1026795448644829e-01 -9.8210387941925195e+00
1.3700000000000001e+00 -3.1841283381199320e-02 -1.3027668590606510e+01 -7.3537608296150395e+01 6.3237174240139780e+01 -8.4443034252568964e+01 -2.4669324548064484e+00 -1.0985391948329372e-01 -9.9033087852182238e+00
1.3799999999999999e+00 -3.2296859115659042e-02 -1.3143536726103862e+01 -6.9166438144687476e+01 8.5135470342642407e+01 -7.0051204417492471e+01 7.9972764809311684e+01 -1.0876838380979385e-01 -9.9808489285911115e+00
1.3899999999999999e+00 -3.4545167742087983e-02 -1.3243071743693870e+01 -6.9451764833667895e+01 8.9866605774984336e+01 -6.8481059240763187e+01 6.5499569678497394e+01 -1.0807269486037829e-01 -1.0054539900647876e+01
1.3999999999999999e+00 -3.3118955332141604e-02 -1.3336088910448460e+01 -7.1951715926120173e+01 5.8646378099286032e+01 -6.8037926936860785e+01 7.0362141405451425e+01 -1.0854574767097204e-01 -1.0120035707310345e+01
1.4099999999999999e+00 -3.4092297283118050e-02 -1.3441482340993016e+01 -7.0935385654254134e+01 8.6519136323935413e+01 -7.2996587953270350e+01 7.0441048656431732e+01 -1.0788156039368961e-01 -1.0194874812210003e+01
1.4199999999999999e+00 -3.4402513085560665e-02 -1.3533595689129914e+01 -7.4010677398876965e+01 9.0222625558152544e+01 -7.0484873232716126e+01 7.9497813966492032e+01 -1.0994032625085956e-01 -1.0264507607315757e+01
1.4299999999999999e+00 -3.4142085095246424e-02 -1.3618154927742030e+01 -6.8147816847858152e+01 7.1674886324277097e+01 -6.8293425495222650e+01 9.3729481116633153e+01 -1.0976292992914402e-01 -1.0339490013796475e+01
1.4399999999999999e+00 -3.4303143810090711e-02 -1.3721691546461711e+01 -7.2461183589411306e+01 1.0020138346764932e+02 -6.8838291110628006e+01 9.1871992762882940e+01 -1.0911650986945795e-01 -1.0411327899154387e+01
1.4500000000000000e+00 -3.4900932078441589e-02 -1.3827992985684881e+01 -6.7043670984035742e+01 7.6973649596298415e+01 -6.6893408360006518e+01 6.4993209515471463e+01 -1.0900006117029294e-01 -1.0486633858298704e+01
1.4600000000000000e+00 -3.3670450959696563e-02 -1.3923731637985954e+01 -7.0771913803472316e+01 5.9655670124637254e+01 -6.5863606389330670e+01 8.5419580040473136e+01 -1.0820274114939332e-01 -1.0545218836315328e+01
1.4700000000000000e+00 -3.4731152656035547e-02 -1.4013565488643023e+01 -7.0455526616516465e+01 8.3732574532116772e+01 -6.8047302702641389e+01 8.0192858228315657e+01 -1.0888347816010981e-01 -1.0637039092666871e+01
1.4800000000000000e+00 -3.4948022087502091e-02 -1.4115861499708988e+01 -6.6041616558484293e+01 8.3335002133163968e+01 -6.8274155879908861e+01 8.7511719917661949e+01 -1.0868671243033917e-01 -1.0697775791572388e+01
1.4900000000000000e+00 -3.5483193350548142e-02 -1.4215123628455144e+01 -6.7143095635428963e+01 7.9360883063524099e+01 -6.8977346135149958e+01 6.6417207923372203e+01 -1.0942610632508701e-01 -1.0770156415116455e+01
1.5000000000000000e+00 -3.5020983970435120e-02 -1.4315355148365054e+01 -6.8377845950096514e+01 8.0842542976693565e+01 -6.5991911534059753e+01 8.9043392297321873e+01 -1.0858279642001091e-01 -1.0836621293320739e+01
1.5100000000000000e+00 -3.5638968530013006e-02 -1.4417177667785264e+01 -7.0755558079037996e+01 9.4720242264878578e+01 -7.1004024573498455e+01 6.5800498607636015e+01 -1.0851469426244180e-01 -1.0922068200467427e+01
1.5200000000000000e+00 -3.6094642554456706e-02 -1.4510408969283041e+01 -6.7503238169946599e+01 7.6971288150655880e+01 -6.7901169940716557e+01 6.0828015593948194e+01 -1.0880361110511033e-01 -1.0986397433258773e+01
1.5300000000000000e+00 -3.5722729908800342e-02 -1.4594887465133143e+01 -6.7533304239912937e+01 7.2772296112107256e+01 -6.8406467595478773e+01 9.6010560306343464e+01 -1.0884956072440241e-01 -1.1067337534947690e+01
1.5400000000000000e+00 -3.5726303093437418e-02 -1.4704947946555942e+01 -6.7239495145329968e+01 7.2874342648982037e+01 -6.8456084886705398e+01 9.0187820459926712e+01 -1.0797837579162252e-01 -1.1132735121458023e+01
1.5500000000000000e+00 -3.5871732160501137e-02 -1.4804682474780675e+01 -6.6638511381026490e+01 7.4035234779204501e+01 -6.9500846778957239e+01 9.0812335927957307e+01 -1.0906054175220345e-01 -1.1201276072481081e+01
1.5600000000000001e+00 -3.5349709663534193e-02 -1.4894847870845481e+01 -6.6633177476795723e+01 7.5642120808956577e+01 -7.0094466417130391e+01 9.7568559016280943e+01 -1.0831730671275143e-01 -1.1275420331100937e+01
1.5700000000000001e+00 -3.6962210999504336e-02 -1.4984983277795161e+01 -6.6811773506729608e+01 8.4990586321660601e+01 -6.4223319417563843e+01 9.1716944849720150e+01 -1.0841349295106845e-01 -1.1358726059082512e+01
1.5800000000000001e+00 -3.6917471064299080e-02 -1.5084009385116087e+01 -6.2917006834693183e+01 9.1382805048916509e+01 -6.5826276803043498e+01 9.1381318674636475e+01 -1.0870253280219150e-01 -1.1426482025365361e+01
1.5900000000000001e+00 -3.7034241416570315e-02 -1.5189308100990058e+01 -6.6909411077086133e+01 8.7588900272896652e+01 -6.5366305741732106e+01 8.3190535784359767e+01 -1.0885304185485807e-01 -1.1506653632397841e+01
1.6000000000000001e+00 -3.7242978317677020e-02 -1.5290023648956508e+01 -6.7552245419395831e+01 7.1880552308167552e+01 -6.4964069682026107e+01 7.3506637603312498e+01 -1.0804662438417287e-01 -1.1575725041738828e+01
1.6100000000000001e+00 -3.7541603570187272e-02 -1.5393630787559033e+01 -6.4730438886408379e+01 9.4548193234578704e+01 -6.6308939971152199e+01 6.0085406169140519e+01 -1.0828270940412135e-01 -1.1652709500402040e+01
1.6200000000000001e+00 -3.8632196778359232e-02 -1.5501357828077525e+01 -6.4905424717657013e+01 8.7424717758160128e+01 -6.4208741355405550e+01 8.3554701249408595e+01 -1.0780128685639109e-01 -1.1719841997845725e+01
1.6299999999999999e+00 -3.7927041492751133e-02 -1.5599578668109922e+01 -6.4928526877436724e+01 7.2219515994723295e+01 -6.4413915022505407e+01 1.0323471554155886e+02 -1.0729381688703657e-01 -1.1796165718284206e+01
1.6399999999999999e+00 -3.7426098479837425e-02 -1.5698039306531063e+01 -6.3790974650812785e+01 7.7588393647676114e+01 -6.4119193668344280e+01 8.9294815273039291e+01 -1.0814333716646718e-01 -1.1881127269310063e+01
1.6499999999999999e+00 -3.6642908902958966e-02 -1.5787706855383457e+01 -6.2794004263109471e+01 9.7633292344606048e+01 -6.5032917817571970e+01 9.2095889181882740e+01 -1.0873365813379497e-01 -1.1951745487790161e+01
1.6599999999999999e+00 -3.7297449124203311e-02 -1.5890111134482147e+01 -6.5068682587682218e+01 8.3121020411624784e+01 -6.2783544084870606e+01 6.4203786861027993e+01 -1.0806658673537961e-01 -1.2028071831110598e+01
1.6699999999999999e+00 -3.7707301219610925e-02 -1.5989542102933532e+01 -6.3192601633917967e+01 8.2872316295935960e+01 -6.5278328378059342e+01 7.4515501126603326e+01 -1.0849963490870092e-01 -1.2087543032323584e+01
1.6799999999999999e+00 -3.8413954177955068e-02 -1.6101215715207463e+01 -6.3864969205839202e+01 8.3407431622277869e+01 -6.4241563703288051e+01 8.3655906818457936e+01 -1.0772356591806224e-01 -1.2172580170541991e+01
1.6899999999999999e+00 -3.7741749023199649e-02 -1.6185719932919110e+01 -6.4291671985480548e+01 7.6971861514578521e+01 -6.4696517565164442e+01 7.0454889137126855e+01 -1.0700295811467864e-01 -1.2247454734724959e+01
1.7000000000000000e+00 -3.7574831640392194e-02 -1.6302115059097886e+01 -6.4239933924969193e+01 8.9111887503128017e+01 -6.2147744557118017e+01 7.7042298603939699e+01 -1.0775751146602180e-01 -1.2320146116564139e+01
1.7100000000000000e+00 -3.8427718883523435e-02 -1.6405852797141147e+01 -6.4326309291770031e+01 9.0035799311736710e+01 -6.2246829563101144e+01 9.0057475791081984e+01 -1.0757721944819121e-01 -1.2400310202389349e+01
1.7200000000000000e+00 -3.8942804487797203e-02 -1.6496298284025489e+01 -6.4382617636307685e+01 9.0411840323349097e+01 -6.2452439129330287e+01 8.3470578862954753e+01 -1.0774851606074026e-01 -1.2480679502627760e+01
1.7300000000000000e+00 -3.8226789663581139e-02 -1.6597194283913876e+01 -6.2874360552876034e+01 8.5466404511359613e+01 -6.2665289203621526e+01 8.0014700025667722e+01 -1.0825880094863888e-01 -1.2549532951496648e+01
1.7400000000000000e+00 -3.8607661190051254e-02 -1.6704875584550955e+01 -6.3734250991089851e+01 7.7566859673488949e+01 -6.3734883311982173e+01 8.2496056305386062e+01 -1.0707428103787697e-01 -1.2628053453270406e+01
1.7500000000000000e+00 -3.7416661503474814e-02 -1.6809308862047224e+01 -6.2773059101367309e+01 8.0821457831688022e+01 -6.2476211474663501e+01 8.3171290259106073e+01 -1.0785802919301318e-01 -1.2695129406281820e+01
1.7600000000000000e+00 -3.8826790553262450e-02 -1.6900487727706732e+01 -6.1996612816977468e+01 7.7093835079237508e+01 -6.1557900208843670e+01 8.8740370577390891e+01 -1.0866701869970095e-01 -1.2782584327353341e+01
1.7700000000000000e+00 -3.8668035015099501e-02 -1.7008426812494822e+01 -6.0886684660026440e+01 7.1799279765718666e+01 -6.3880614228992563e+01 8.8985731946687068e+01 -1.0728939206862309e-01 -1.2863738215202103e+01
1.7800000000000000e+00 -3.7896813874768384e-02 -1.7119618987149437e+01 -6.1184273292357148e+01 7.7798278368134845e+01 -5.9622320395121108e+01 8.0528690639965589e+01 -1.0633331873476978e-01 -1.2927875769938224e+01
1.7900000000000000e+00 -3.8165241335825696e-02 -1.7217511366475289e+01 -6.2886418006182311e+01 9.1017158748202249e+01 -6.0786466410636976e+01 7.1096529935669608e+01 -1.0751105942849298e-01 -1.2999963333581743e+01
1.8000000000000000e+00 -3.8576533770624727e-02 -1.7332545518109850e+01 -6.2957673908049401e+01 9.3932830252197022e+01 -6.3133116839451084e+01 8.6971373944770789e+01 -1.0779338923463598e-01 -1.3091168049261180e+01
1.8100000000000001e+00 -3.9604299994752602e-02 -1.7431347402891635e+01 -6.1956090604220087e+01 7.7699456896268842e+01 -6.1649471463092212e+01 6.8948222263487679e+01 -1.0754354499591920e-01 -1.3166623627874738e+01
1.8200000000000001e+00 -3.9758694439985989e-02 -1.7530188147158579e+01 -6.1363201347178574e+01 7.6230786093410629e+01 -6.0535751620090949e+01 7.4666683853415748e+01 -1.0727286745518566e-01 -1.3249720068346042e+01
1.8300000000000001e+00 -3.8977514097876906e-02 -1.7621052990165765e+01 -6.0923670107515207e+01 7.9354521151717933e+01 -6.3317377025184378e+01 8.7611088416520630e+01 -1.0757418746504065e-01 -1.3315073404191041e+01
1.8400000000000001e+00 -3.9895180743772143e-02 -1.7725833214647157e+01 -6.1672916263950384e+01 7.9963299841211807e+01 -6.0029701785991151e+01 8.3035612754238940e+01 -1.0751487417407800e-01 -1.3397022417476009e+01
1.8500000000000001e+00 -4.0587639980590784e-02 -1.7838763550806224e+01 -6.0889624907848152e+01 8.5543600067873570e+01 -6.1466263062042174e+01 8.0885772362762907e+01 -1.0680925717353074e-01 -1.3470531469889446e+01
1.8600000000000001e+00 -3.9897473268876514e-02 -1.7940898759023106e+01 -6.0555860887143417e+01 7.8953442726709341e+01 -6.1934990454900245e+01 8.1314572119696308e+01 -1.0638796708939537e-01 -1.3546010291004109e+01
1.8700000000000001e+00 -3.9739380073985170e-02 -1.8041359052880310e+01 -6.1158015243659555e+01 7.8864266886603389e+01 -6.0051938213664151e+01 6.1753346488502437e+01 -1.0736286546225918e-01 -1.3634863292452989e+01
1.8799999999999999e+00 -3.9589192953185214e-02 -1.8156251065973350e+01 -6.0337072222360433e+01 7.2848729338271639e+01 -6.1613622010421906e+01 8.5978835786057076e+01 -1.0711870874855059e-01 -1.3704368094936328e+01
1.8899999999999999e+00 -3.9506256617425455e-02 -1.8238417826732533e+01 -5.9034578224851977e+01 7.9748933649233464e+01 -5.9606692007634152e+01 7.2491744118148290e+01 -1.0669950288743568e-01 -1.3791354927372785e+01
1.8999999999999999e+00 -4.0562912668335178e-02 -1.8358963229240281e+01 -6.0490149757925636e+01 6.6384142725483400e+01 -5.9951725070600325e+01 8.5636145667501111e+01 -1.0636676687497211e-01 -1.3863582282407851e+01
1.9099999999999999e+00 -4.0718070253349142e-02 -1.8461061757631207e+01 -5.9882441191577378e+01 7.3610217899700757e+01 -5.9841359801742371e+01 7.3703690892352256e+01 -1.0669233722584556e-01 -1.3947678017111668e+01
1.9199999999999999e+00 -4.0212986689927926e-02 -1.8577790621638716e+01 -6.0199650803241333e+01 7.5793809549324465e+01 -6.0228187266160134e+01 7.9266663506373035e+01 -1.0682621748771147e-01 -1.4035137949825012e+01
