# MHz S DB R 50
1.0000000000000000e+00 -2.5658177591795821e-02 -9.5313363591833511e+00 -8.4908846042033801e+01 4.6063245175987284e+01 -7.6924602585506932e+01 -2.1373788779161238e+01 -1.0796842443209857e-01 -7.2940299605543997e+00
1.0100000000000000e+00 -2.5868941365581960e-02 -9.6349377089765103e+00 -8.0588222446352574e+01 9.6039961970795119e+01 -7.1575627923256761e+01 7.6517740688551640e+01 -1.0630607925457168e-01 -7.3633600261222956e+00
1.0200000000000000e+00 -2.6632110135921695e-02 -9.7320009087064268e+00 -7.5670045315481232e+01 9.9777974444681249e+01 -7.4379951765693718e+01 1.1398860815309850e+02 -1.0696302436000132e-01 -7.4299846712697333e+00
1.0300000000000000e+00 -2.6925970536072343e-02 -9.8206757870826848e+00 -7.8680353596228812e+01 8.9810012026598363e-01 -7.2526680745575916e+01 4.9395937555751821e+01 -1.0709515645603268e-01 -7.5005647856305178e+00
1.0400000000000000e+00 -2.5689488860694353e-02 -9.9292359581813443e+00 -7.7495383494365583e+01 1.0657927448299219e+02 -7.6628530391988974e+01 5.6448080065458093e+01 -1.0496291615040299e-01 -7.5672083712699045e+00
1.0500000000000000e+00 -2.7066223235522463e-02 -1.0010145004497568e+01 -7.6617520760258117e+01 7.8116037153086069e+01 -7.9887049402122187e+01 1.0017543381654120e+02 -1.0665417057571511e-01 -7.6353519004161114e+00
1.0600000000000001e+00 -2.7414373603605553e-02 -1.0111481029241412e+01 -8.2511602048291735e+01 3.5206306714127038e+01 -7.6625568513565071e+01 9.5735929595125043e+01 -1.0722219517084859e-01 -7.7038985789809802e+00
1.0700000000000001e+00 -2.6773400221203125e-02 -1.0197496828569870e+01 -7.5742245856350110e+01 3.8816781699248651e+01 -7.2187127735408126e+01 5.5145293851338693e+01 -1.0764584318158174e-01 -7.7753210436521654e+00
1.0800000000000001e+00 -2.7098362771269181e-02 -1.0289454113861394e+01 -9.2454686376550953e+01 7.3810199982603933e+01 -7.2506444578393413e+01 4.5674187061349386e+01 -1.0757587529109960e-01 -7.8436814264574259e+00
1.0900000000000001e+00 -2.7089545153461164e-02 -1.0378140333922705e+01 -8.2416481619138040e+01 8.9302780264294483e+01 -7.3004242352524614e+01 8.2398072036436460e+01 -1.0682795130420311e-01 -7.9080422597581741e+00
1.1000000000000001e+00 -2.7071662951904045e-02 -1.0471096855779964e+01 -7.1763853921641868e+01 8.9643401985053259e+01 -7.9505891289543285e+01 -1.6426396582389469e+02 -1.0756959157267318e-01 -7.9757028089482578e+00
1.1100000000000001e+00 -2.7254254985398688e-02 -1.0569199760244352e+01 -7.2238123389553778e+01 6.6897556305167271e+01 -7.9753140387490845e+01 1.3319050149090029e+02 -1.0790096738770855e-01 -8.0527378356306745e+00
1.1200000000000001e+00 -2.8675014042575032e-02 -1.0662076230917163e+01 -7.7406519867278234e+01 6.2278121769077551e+01 -7.5262184280515768e+01 7.4856708100072666e+01 -1.0813891428722537e-01 -8.1122159730680750e+00
1.1299999999999999e+00 -2.7458532165675342e-02 -1.0746371657902261e+01 -7.6585683171227586e+01 1.0821055965920517e+02 -7.0494313946002038e+01 3.5775213381077009e+01 -1.0755328592651234e-01 -8.1876144398655182e+00
1.1399999999999999e+00 -2.8363007843487796e-02 -1.0845996296803545e+01 -7.2880541814994274e+01 9.6696289008688325e+01 -7.3800177721550796e+01 5.6266920365013462e+01 -1.0820197646092732e-01 -8.2555520508338773e+00
1.1499999999999999e+00 -2.8800814749967964e-02 -1.0950436439896471e+01 -7.4334676877503910e+01 4.6336496321124557e+01 -7.7998359747158702e+01 7.4572757028093291e+00 -1.0796000750629794e-01 -8.3317901173794677e+00
1.1599999999999999e+00 -2.9625861575113252e-02 -1.1051318977270210e+01 -8.5691793169007326e+01 -2.7787066004148841e+01 -7.2035041805207086e+01 8.9088864699945105e+01 -1.0775809391532930e-01 -8.3936133668409205e+00
1.1699999999999999e+00 -2.9106690595751022e-02 -1.1128118705253234e+01 -7.6811098574284671e+01 4.0579579599914091e+01 -7.0409264086787275e+01 6.4563566311339713e+01 -1.0809458192678213e-01 -8.4686650662751326e+00
1.1799999999999999e+00 -2.9091793859204674e-02 -1.1235876963737995e+01 -7.5473633689815657e+01 3.4075700344184028e+01 -7.8609148718802700e+01 4.6130589941605926e+01 -1.0867269096599050e-01 -8.5466220389107743e+00
1.1899999999999999e+00 -2.9732148372459140e-02 -1.1309841301063386e+01 -7.2499919631822067e+01 1.1608721433464474e+02 -8.0608882586627402e+01 1.1664424237932764e+02 -1.0701126994068803e-01 -8.6017591733996515e+00
1.2000000000000000e+00 -2.9472544323129266e-02 -1.1418370629032280e+01 -7.2449519282416162e+01 5.5321804530021623e+01 -7.6270046756730338e+01 8.0293590407402846e+01 -1.0831393125156331e-01 -8.6757386217068166e+00
1.2100000000000000e+00 -3.0771274182655198e-02 -1.1509954153762983e+01 -7.6276579061053980e+01 3.6232414227640575e+01 -7.0801924920751048e+01 7.9318128611776586e+01 -1.0883511519825197e-01 -8.7447832560437373e+00
1.2200000000000000e+00 -3.0090496229252337e-02 -1.1610773677529975e+01 -7.0538910629587789e+01 4.6053199439665256e+01 -7.0815767325598372e+01 7.0363166205796233e+01 -1.0871403588638970e-01 -8.8162064027220559e+00
1.2300000000000000e+00 -3.0256033088267121e-02 -1.1689604959391238e+01 -7.3801232746203056e+01 6.3875032051492582e+01 -7.5538370460464975e+01 8.5463756810781447e+01 -1.0930313779826535e-01 -8.8856043101898425e+00
1.2400000000000000e+00 -3.1262843813386787e-02 -1.1802347538459598e+01 -7.3239449822618411e+01 4.0453067840830741e+01 -7.3388950422604722e+01 7.4557672739963778e+01 -1.0886604391320172e-01 -8.9521855390226985e+00
1.2500000000000000e+00 -2.9875551498825960e-02 -1.1896211677108003e+01 -7.0203691677616703e+01 4.8912397205088872e+01 -7.5959029798255145e+01 6.9978113105231785e+01 -1.0849483012600106e-01 -9.0246496904898184e+00
1.2600000000000000e+00 -3.1136763773458500e-02 -1.1999551002912700e+01 -7.6017040955010515e+01 5.3717413749100899e+01 -7.6504455194503279e+01 7.7898448140873995e+01 -1.0941181985767197e-01 -9.0975840370117904e+00
1.2700000000000000e+00 -3.1952451949569603e-02 -1.2085249504854543e+01 -7.3156686308202183e+01 4.3203747353768009e+01 -7.1274507128122650e+01 8.2928044976152933e+01 -1.0803328097494314e-01 -9.1645090075259805e+00
1.2800000000000000e+00 -3.0487811147582870e-02 -1.2170532405408089e+01 -7.4819314787923602e+01 1.0839083794419956e+02 -7.8401322187323743e+01 7.0676838933099319e+01 -1.1014896997261248e-01 -9.2362630787973430e+00
1.2900000000000000e+00 -3.1634390730106300e-02 -1.2283372248335908e+01 -7.2016998126058766e+01 5.3344249629143370e+01 -7.5522763035501271e+01 6.3144809695300211e+01 -1.0654682907516046e-01 -9.3243190902161608e+00
1.3000000000000000e+00 -3.1676819711142307e-02 -1.2364937585274962e+01 -7.9747154529732754e+01 9.4721004399354740e+01 -7.4408110280489836e+01 5.3890823750697351e+01 -1.0825671816090605e-01 -9.3824049549396040e+00
1.3100000000000001e+00 -3.7871613347647416e-02 -1.2443789571916454e+01 -7.7367631506384924e+01 7.6736888836826381e+01 -7.1533484222695336e+01 6.9013683038623597e+01 -1.0916129245768846e-01 -9.4453273094573209e+00
1.3200000000000001e+00 -3.4105842231353725e-02 -1.2580497168528394e+01 -7.4243650564807012e+01 1.1781821950015959e+02 -7.6628129504216474e+01 6.6329044381352929e+01 -1.1226844875642325e-01 -9.5128323454799624e+00
1.3300000000000001e+00 -2.5224746275177182e-02 -1.2613622606925514e+01 -7.0014855971499145e+01 7.1543226524817328e+01 -7.0799388356237927e+01 7.3780186886481019e+01 -1.1972629883121116e-01 -9.6545513716866704e+00
1.3400000000000001e+00 -6.1998995212851404e-02 -1.3033796233984370e+01 -7.2958242405473101e+01 7.3688469129519405e+01 -7.5029065896081789e+01 8.7379239153777405e+01 -1.0504886778551817e-01 -9.6821483666689812e+00
1.3500000000000001e+00 -3.2571660796203064e-02 -1.2848332446470819e+01 -7.4176936253460326e+01 5.8295049995528466e+01 -7.5822200609635701e+01 5.1180726136496965e+01 -1.1012540819574351e-01 -9.7356675887441497e+00
1.3600000000000001e+00 -3.2665104318354489e-02 -1.2918325402411313e+01 -7.1066992920690424e+01 8.4464982223437687e+01 -7.2492606251452386e+01 6.7052102129511070e+01 -1.1172831672274132e-01 -9.7999341624587348e+00
1.3700000000000001e+00 -3.2384265215894541e-02 -1.3031212941750438e+01 -7.6861892003302017e+01 5.4223560395855394e+01 -8.0144239795409845e+01 -1.9873236408740627e+01 -1.0886384718690557e-01 -9.8707750783636090e+00
1.3799999999999999e+00 -3.2620237989071876e-02 -1.3135813876420373e+01 -7.0337264951304618e+01 7.9172745556560727e+01 -7.2493141578463351e+01 8.7596730032849692e+01 -1.0831133150545239e-01 -9.9515560691639759e+00
1.3899999999999999e+00 -3.3407130356139438e-02 -1.3240895676156097e+01 -7.1386260257889859e+01 9.2067261207298458e+01 -7.0120118557766332e+01 5.9180186078620075e+01 -1.0713723431685726e-01 -1.0023794061824061e+01
1.3999999999999999e+00 -3.3280280095361145e-02 -1.3327688982153408e+01 -7.5281917617477234e+01 6.7268716222379908e+01 -6.8674207011254623e+01 6.5864384372448882e+01 -1.0873236695330729e-01 -1.0088891078321994e+01
1.4099999999999999e+00 -3.3982079102834212e-02 -1.3446457187388281e+01 -7.2848317051027010e+01 8.6065906224842053e+01 -7.4537710203206416e+01 7.2788154739462883e+01 -1.0851973710216495e-01 -1.0165225949686761e+01
1.4199999999999999e+00 -3.3816563325467737e-02 -1.3525182968846426e+01 -7.8533531275190725e+01 8.9547282120327210e+01 -7.2029886984994747e+01 7.9769502647191359e+01 -1.0985403040334568e-01 -1.0233729919210289e+01
1.4299999999999999e+00 -3.3221013278708578e-02 -1.3629337380995345e+01 -6.9646203858596238e+01 6.7687343262346090e+01 -7.0080009239956922e+01 9.0418214965484239e+01 -1.0987949286381361e-01 -1.0305267424639332e+01
1.4399999999999999e+00 -3.4144087371754839e-02 -1.3724590023495509e+01 -7.4898452919117076e+01 1.0933958404766985e+02 -7.0370670108956205e+01 9.2290479727293970e+01 -1.0988017460576101e-01 -1.0380721775645899e+01
1.4500000000000000e+00 -3.4086813082024221e-02 -1.3825904606412799e+01 -6.8320162475219547e+01 8.1183459166732689e+01 -6.7966770274175758e+01 6.3449356352262200e+01 -1.1013202913936382e-01 -1.0457064847666786e+01
1.4600000000000000e+00 -3.3697100069345752e-02 -1.3907318360337573e+01 -7.2968780119682506e+01 4.7959532987778552e+01 -6.6669839275711780e+01 8.7760818688023434e+01 -1.0823344839851103e-01 -1.0514142280499350e+01
1.4700000000000000e+00 -3.4331496612772350e-02 -1.4005965735245043e+01 -7.4578644871887491e+01 7.8902384025734193e+01 -6.9522728850092761e+01 8.1299901220687588e+01 -1.0905676009230440e-01 -1.0599794695351276e+01
1.4800000000000000e+00 -3.5356503002679382e-02 -1.4116167876162990e+01 -6.7776214017120623e+01 8.3988484014573402e+01 -7.0376377406231285e+01 8.8950080971202752e+01 -1.0994774421773017e-01 -1.0666519274541196e+01
1.4900000000000000e+00 -3.5198944695794342e-02 -1.4212527819146755e+01 -6.8527103992014389e+01 8.0524573194524407e+01 -7.0934926695911699e+01 6.3696752486152249e+01 -1.0888232396294478e-01 -1.0733496182766160e+01
1.5000000000000000e+00 -3.5158045138155042e-02 -1.4307412289341487e+01 -7.0429539790240824e+01 7.6388550814424576e+01 -6.7215127969463126e+01 8.9761714983276377e+01 -1.0933791570230028e-01 -1.0809737676330057e+01
1.5100000000000000e+00 -3.5197948494176623e-02 -1.4408308582895817e+01 -7.3434987050703143e+01 9.5210141586933119e+01 -7.4127623706677312e+01 6.3510966557507622e+01 -1.0976029209537351e-01 -1.0879151312549707e+01
1.5200000000000000e+00 -3.5617888019815969e-02 -1.4506227541278870e+01 -6.9442560356241486e+01 7.6170148727103609e+01 -6.9440343379960993e+01 5.7155189092307417e+01 -1.0946346646702546e-01 -1.0952318082774701e+01
1.5300000000000000e+00 -3.5296284094890801e-02 -1.4589673954974105e+01 -6.9889888508575069e+01 7.2372011019551223e+01 -6.9169926894393697e+01 1.0013224534419813e+02 -1.0954646529938111e-01 -1.1019137510128891e+01
1.5400000000000000e+00 -3.5775782770357249e-02 -1.4695635593409532e+01 -6.9139600713203734e+01 7.6899001069585211e+01 -7.1458599524854208e+01 9.0799066781337771e+01 -1.0886512065638877e-01 -1.1100100687947862e+01
1.5500000000000000e+00 -3.5385441983664556e-02 -1.4798936625414278e+01 -6.8868092691992345e+01 7.2142412545900356e+01 -7.3618641397010862e+01 8.9875417272194369e+01 -1.0958049605698413e-01 -1.1173887176246934e+01
1.5600000000000001e+00 -3.4495377988720287e-02 -1.4872416536581468e+01 -6.8694758404317170e+01 6.5681160733408831e+01 -7.3718788620498231e+01 1.0173552690030075e+02 -1.0840020706179426e-01 -1.1244797998801461e+01
1.5700000000000001e+00 -3.6231437415897613e-02 -1.4991622429512187e+01 -6.7636526265133284e+01 8.1552235164385294e+01 -6.6166137093980311e+01 9.3159812724449921e+01 -1.1013714876715187e-01 -1.1325567307092097e+01
1.5800000000000001e+00 -3.6149563637833865e-02 -1.5086665769225032e+01 -6.4206479007064516e+01 9.5185268024646319e+01 -6.7443394440886635e+01 9.1456541434188850e+01 -1.0794526646225004e-01 -1.1398974428309776e+01
1.5900000000000001e+00 -3.5699112998585449e-02 -1.5190178448673354e+01 -6.9118192820101143e+01 8.9604206583401961e+01 -6.7205031730967562e+01 8.2063401990558020e+01 -1.0938425470428821e-01 -1.1469517689542021e+01
1.6000000000000001e+00 -3.6515805757662063e-02 -1.5291506211607350e+01 -6.9936527630122512e+01 7.3897596931896047e+01 -6.6844786633524166e+01 7.1345541190215911e+01 -1.0898776377143660e-01 -1.1542319988082399e+01
1.6100000000000001e+00 -3.6664092725063574e-02 -1.5389082691977066e+01 -6.6255403736596406e+01 9.4579796860018348e+01 -6.7215137136937329e+01 5.8618228206104838e+01 -1.0969851290515062e-01 -1.1603039615266209e+01
1.6200000000000001e+00 -3.7711454912675149e-02 -1.5496372760633834e+01 -6.6386483104303807e+01 8.9723932462707381e+01 -6.5832505406535105e+01 7.9209691674402094e+01 -1.0837920121953598e-01 -1.1686727168347176e+01
1.6299999999999999e+00 -3.7643997048291709e-02 -1.5597388153551416e+01 -6.6459350831413104e+01 6.8920309965598605e+01 -6.5819958908987616e+01 1.0225751467549918e+02 -1.0726860259294432e-01 -1.1769504857988457e+01
1.6399999999999999e+00 -3.7678506294111735e-02 -1.5686659439874768e+01 -6.5806906267753064e+01 7.6350348303246037e+01 -6.5796595125013098e+01 9.0636241054256786e+01 -1.0870979150542755e-01 -1.1839750393209822e+01
1.6499999999999999e+00 -3.6277237088883911e-02 -1.5795591685496003e+01 -6.4586709610573962e+01 9.9370599439864520e+01 -6.7092764185946521e+01 9.4745963390609361e+01 -1.0880842379484851e-01 -1.1907325854602259e+01
1.6599999999999999e+00 -3.6620568390014374e-02 -1.5895549198048343e+01 -6.7102405948274310e+01 8.5882468201964400e+01 -6.4103462892812871e+01 6.0362303111188901e+01 -1.0901685714506335e-01 -1.1983739468134763e+01
1.6699999999999999e+00 -3.7609507224534149e-02 -1.5990225411407412e+01 -6.4780247956796202e+01 7.7829535220745555e+01 -6.6950744979551175e+01 7.3600471677460746e+01 -1.0921142755500191e-01 -1.2068801788614127e+01
1.6799999999999999e+00 -3.7710124161235821e-02 -1.6099649378026591e+01 -6.5638408540429481e+01 8.3955907432634930e+01 -6.6321976582638996e+01 8.5621572892232777e+01 -1.0933296254466446e-01 -1.2138002174382814e+01
1.6899999999999999e+00 -3.6458546292431643e-02 -1.6194187029835316e+01 -6.5919498584564323e+01 7.9655539707130941e+01 -6.6309845292267198e+01 7.0463345648590348e+01 -1.0958801033925969e-01 -1.2211788879210822e+01
1.7000000000000000e+00 -3.6599771012048754e-02 -1.6288947437882573e+01 -6.5761408533041973e+01 8.8353440504861894e+01 -6.3399748384088291e+01 7.3430490394004380e+01 -1.0835773298849104e-01 -1.2281617185828374e+01
1.7100000000000000e+00 -3.8052246915004057e-02 -1.6397755428074380e+01 -6.5969439587653071e+01 8.9972709529627224e+01 -6.4557084580234829e+01 9.1874422011966331e+01 -1.0814581561781814e-01 -1.2360715389916429e+01
1.7200000000000000e+00 -3.7115308586662080e-02 -1.6503931039989833e+01 -6.6646001105282679e+01 9.3204664934297753e+01 -6.4318780234061620e+01 8.2251904244060398e+01 -1.0814145805102146e-01 -1.2437953027801775e+01
1.7300000000000000e+00 -3.7129619675052537e-02 -1.6593795592864026e+01 -6.4784765048017391e+01 8.3202259646130443e+01 -6.4169083287282859e+01 8.2344811179386141e+01 -1.0884512969422241e-01 -1.2510332203209776e+01
1.7400000000000000e+00 -3.8385484615136398e-02 -1.6704588054487999e+01 -6.5747601854811847e+01 7.8330485218734751e+01 -6.5752182369489503e+01 8.0377123581917076e+01 -1.0816610961832948e-01 -1.2596226364938715e+01
1.7500000000000000e+00 -3.7563291446069645e-02 -1.6806116890403178e+01 -6.4811049069355590e+01 7.9697419275288070e+01 -6.3896834220174185e+01 8.6030336096626797e+01 -1.0895580913138038e-01 -1.2659497653847234e+01
1.7600000000000000e+00 -3.8455053413272822e-02 -1.6909575432713417e+01 -6.3930772827544480e+01 7.5194347858663107e+01 -6.2823740305914953e+01 9.0036068455409563e+01 -1.0951087815764132e-01 -1.2738748060079354e+01
1.7700000000000000e+00 -3.8943271947167360e-02 -1.7010430259902979e+01 -6.2789679478044853e+01 6.9296351062926064e+01 -6.5806379388554134e+01 8.7406557794400044e+01 -1.0903719143578880e-01 -1.2821190466932530e+01
1.7800000000000000e+00 -3.7791949733888289e-02 -1.7101179001444187e+01 -6.2512480489884020e+01 7.5896182016862056e+01 -6.1435639917271089e+01 7.8887436962998009e+01 -1.0711398406468829e-01 -1.2894235978323165e+01
1.7900000000000000e+00 -3.8234975778128247e-02 -1.7210348300852608e+01 -6.4909120448589945e+01 9.1664612422363135e+01 -6.1887097702853310e+01 6.7459152194166165e+01 -1.0845594273964065e-01 -1.2961849727434981e+01
1.8000000000000000e+00 -3.8771068522395515e-02 -1.7313157431972236e+01 -6.4720457371814007e+01 1.0013361565979582e+02 -6.5389954779360394e+01 8.9737222073090976e+01 -1.0874728211026612e-01 -1.3048525755518725e+01
1.8100000000000001e+00 -3.9724538010549836e-02 -1.7429209813895863e+01 -6.3685757191851437e+01 7.6404184362782701e+01 -6.3212637257294695e+01 6.7737412560998635e+01 -1.0768706645374820e-01 -1.3127595656511787e+01
1.8200000000000001e+00 -4.0311539091934245e-02 -1.7518157940621528e+01 -6.3120643419722981e+01 7.5152831396947050e+01 -6.1940137446498255e+01 7.1557629500405994e+01 -1.0848072930194143e-01 -1.3200901328184573e+01
1.8300000000000001e+00 -3.8488252703022079e-02 -1.7622716451117299e+01 -6.2607306646917216e+01 7.9887808196418078e+01 -6.5967302511745316e+01 9.1453971837715301e+01 -1.0824473802070982e-01 -1.3278454861981968e+01
1.8400000000000001e+00 -3.8784394201703112e-02 -1.7721196940475121e+01 -6.3429738447532785e+01 7.8729873844931504e+01 -6.1672837359855059e+01 8.5147384581653000e+01 -1.0915603544353389e-01 -1.3347787259263184e+01
1.8500000000000001e+00 -3.9985225985674638e-02 -1.7836580245683646e+01 -6.2360251076793524e+01 8.7250344139943479e+01 -6.3681162325493226e+01 7.9474125342588650e+01 -1.0740547790761114e-01 -1.3429444857823475e+01
1.8600000000000001e+00 -3.9503512185684188e-02 -1.7935718792695191e+01 -6.2437776655767522e+01 8.4508620979310763e+01 -6.4954698826323835e+01 8.9790823303834102e+01 -1.0884587813971816e-01 -1.3511456661937759e+01
1.8700000000000001e+00 -3.9207315286756375e-02 -1.8044670640505181e+01 -6.3218725858723282e+01 7.8055501350201126e+01 -6.1175508002711410e+01 5.9413434347422850e+01 -1.0864820412497683e-01 -1.3580115244951575e+01
1.8799999999999999e+00 -4.0253492118273476e-02 -1.8139395776432199e+01 -6.2333800505098715e+01 7.5070366169791470e+01 -6.3819533791812056e+01 9.2694304445307850e+01 -1.0805286135267389e-01 -1.3654721121572893e+01
1.8899999999999999e+00 -4.0480644201951889e-02 -1.8239558286021428e+01 -6.0872317899296668e+01 8.4885017767592970e+01 -6.2089097778313622e+01 7.1118578290917497e+01 -1.0828166243422754e-01 -1.3745249565915486e+01
1.8999999999999999e+00 -4.0842519628125962e-02 -1.8350866624662491e+01 -6.3417623929346888e+01 6.8584310232398892e+01 -6.1906129753800116e+01 9.1055318742383946e+01 -1.0698943421739521e-01 -1.3822258895315583e+01
1.9099999999999999e+00 -4.1302673439959699e-02 -1.8467084561647361e+01 -6.2084479175364635e+01 7.6693496634525999e+01 -6.1999344219137072e+01 7.5320744276114127e+01 -1.0912058229048199e-01 -1.3893285314181586e+01
1.9199999999999999e+00 -4.0866134847490063e-02 -1.8560249179240721e+01 -6.2387713179445889e+01 8.0325812956946919e+01 -6.2599705364504658e+01 8.5542746899585083e+01 -1.0787001732574389e-01 -1.3994985150573225e+01
