# MHz S DB R 50
1.0000000000000000e+00 -2.5279213506067180e-02 -9.5771783285597483e+00 -7.7433072278006819e+01 4.4890278228608892e+01 -7.5764324019881855e+01 8.2064509832407211e+00 -1.0769649779457276e-01 -7.3200179297963661e+00
1.0100000000000000e+00 -2.5630900786841063e-02 -9.6947182796053752e+00 -7.5096151924823445e+01 7.2441156975412639e+01 -6.9399904669087690e+01 6.9309380557540763e+01 -1.0805614488921132e-01 -7.3990059332059044e+00
1.0200000000000000e+00 -2.6081274459643106e-02 -9.7690412619111981e+00 -7.4130535598782814e+01 8.3839958864632067e+01 -7.2702444781162498e+01 9.6752001582945837e+01 -1.0800889375219466e-01 -7.4659568156192169e+00
1.0300000000000000e+00 -2.5682553568600212e-02 -9.8585318375645237e+00 -7.4719714328819364e+01 2.4199657796623335e+01 -7.0881978783854066e+01 5.1066274668080908e+01 -1.0854117641397107e-01 -7.5312505323663625e+00
1.0400000000000000e+00 -2.7605908028574253e-02 -9.9626939246523172e+00 -7.4185583793180626e+01 9.3966702575804405e+01 -7.2179044789072435e+01 5.2392017971736024e+01 -1.0715463162010910e-01 -7.6105962949138197e+00
1.0500000000000000e+00 -2.5910090493972353e-02 -1.0043687780096770e+01 -7.3244853974334376e+01 7.7404796149066499e+01 -7.6400994382623267e+01 8.2590374365463376e+01 -1.0832551056291503e-01 -7.6747306191588880e+00
1.0600000000000001e+00 -2.7159612904326176e-02 -1.0149750924487364e+01 -7.6793170688717325e+01 4.3884702054657595e+01 -7.3523120583371593e+01 9.2955727351504805e+01 -1.0929653229430061e-01 -7.7400433243190792e+00
1.0700000000000001e+00 -2.6710248027892430e-02 -1.0237994788078757e+01 -7.2905512968890903e+01 4.2862264266395172e+01 -7.0679968043453471e+01 5.9676012822317780e+01 -1.0839004708608420e-01 -7.8096149018951060e+00
1.0800000000000001e+00 -2.7629861070472269e-02 -1.0333939288634035e+01 -7.8987530080808511e+01 8.6430364199776534e+01 -7.0126270041897115e+01 4.2508554828358854e+01 -1.0803825852332886e-01 -7.8831906003843049e+00
1.0900000000000001e+00 -2.7459638315339020e-02 -1.0421997119990317e+01 -7.7806549730700993e+01 6.8988384688657945e+01 -6.9847490012694493e+01 7.2793397005827572e+01 -1.0930005172915759e-01 -7.9526981503507868e+00
1.1000000000000001e+00 -2.7138374797782583e-02 -1.0514978652212127e+01 -6.9647009836808493e+01 7.5675588876807183e+01 -8.5574622023661803e+01 1.3416454440154405e+02 -1.0864807512945092e-01 -8.0151212481655207e+00
1.1100000000000001e+00 -2.7536710304246141e-02 -1.0610457114581216e+01 -6.9098195235952758e+01 6.1263117674309761e+01 -7.7352645425661080e+01 9.1302556513603776e+01 -1.0951592891241005e-01 -8.0817561524987909e+00
1.1200000000000001e+00 -2.8625347480121570e-02 -1.0697332071944075e+01 -7.2038619861970517e+01 5.5092512134421639e+01 -7.1308575192751988e+01 6.9904223729586946e+01 -1.0918350511453191e-01 -8.1505983541265987e+00
1.1299999999999999e+00 -2.7876842537062803e-02 -1.0799056235701848e+01 -7.4126726568935368e+01 8.6293854592509902e+01 -6.8280333861776924e+01 3.9031585048871143e+01 -1.0842302782020730e-01 -8.2324551367992456e+00
1.1399999999999999e+00 -2.8427823116416940e-02 -1.0889801283728323e+01 -7.0599518602854019e+01 8.5779606578641094e+01 -7.0390933203176203e+01 5.7865236897628108e+01 -1.0886602827857793e-01 -8.3015654691494394e+00
1.1499999999999999e+00 -2.9144862661294662e-02 -1.0993517329741687e+01 -7.0558157366626531e+01 4.7561098028475378e+01 -7.3412664713747375e+01 1.7487487008955931e+01 -1.0925351719610557e-01 -8.3699643749733443e+00
1.1599999999999999e+00 -2.9472729926587758e-02 -1.1092223266052992e+01 -7.8262664190292895e+01 4.8501833979559990e+01 -6.8825752086776276e+01 8.2864349944183360e+01 -1.0935853184308875e-01 -8.4407630265378444e+00
1.1699999999999999e+00 -2.9143539370215240e-02 -1.1171867212044505e+01 -7.2986111604811498e+01 4.6802036161474142e+01 -6.8614985708380388e+01 6.3875131421135521e+01 -1.0949710864666912e-01 -8.5088404236513711e+00
1.1799999999999999e+00 -2.8469682416713042e-02 -1.1266231652251419e+01 -7.1556486062928514e+01 3.9215253598274451e+01 -7.4232047217266981e+01 5.3241800215479799e+01 -1.0995808955553395e-01 -8.5819327474968770e+00
1.1899999999999999e+00 -2.9463107488622117e-02 -1.1346118229114285e+01 -6.8874154270389582e+01 1.2193642475232355e+02 -7.2320850849144492e+01 7.4121274373041601e+01 -1.0714768941258036e-01 -8.6454703868189959e+00
1.2000000000000000e+00 -3.0000334826454124e-02 -1.1459139222207630e+01 -7.0296491744720925e+01 5.8986681034339547e+01 -7.2092903280714609e+01 6.5214498270217547e+01 -1.1067717435271965e-01 -8.7192021486764020e+00
1.2100000000000000e+00 -2.9947390997941956e-02 -1.1551927743688800e+01 -7.1865954232498893e+01 5.1844510878668622e+01 -6.9001584140642450e+01 7.2804139571201901e+01 -1.0940686820646625e-01 -8.7823526759309924e+00
1.2200000000000000e+00 -2.9803641273065215e-02 -1.1638191724532122e+01 -6.8125233443094999e+01 4.8751129140771660e+01 -6.7254042404848164e+01 6.7361281374264578e+01 -1.0922957392670378e-01 -8.8500974632721423e+00
1.2300000000000000e+00 -3.1214436647715595e-02 -1.1741093747758152e+01 -7.0023964043337159e+01 6.3593396421843458e+01 -7.1406768063475113e+01 8.1511649879062887e+01 -1.0934741419629336e-01 -8.9290531794300279e+00
1.2400000000000000e+00 -3.1126477542600409e-02 -1.1836483939679244e+01 -7.0058420341840019e+01 4.8184843565010127e+01 -7.1174179571041719e+01 6.6521493999437851e+01 -1.1084170545497718e-01 -8.9968853292099098e+00
1.2500000000000000e+00 -3.0460943879516533e-02 -1.1933803112994033e+01 -6.7345949854307520e+01 5.5072800798579564e+01 -7.2272835142285047e+01 7.3723438696919160e+01 -1.1028834002573103e-01 -9.0677867447210527e+00
1.2600000000000000e+00 -3.2098804312095323e-02 -1.2038175000616103e+01 -7.1286149937001184e+01 6.6494907442238343e+01 -7.2210611311877827e+01 8.0363307036412351e+01 -1.0929500441425935e-01 -9.1335806302699201e+00
1.2700000000000000e+00 -3.1069634778393175e-02 -1.2114211601175571e+01 -6.9304233698277770e+01 5.9004938562364934e+01 -6.7950328144755218e+01 8.0381432012064835e+01 -1.0962781395088569e-01 -9.2067508337685755e+00
1.2800000000000000e+00 -2.9662070911987533e-02 -1.2208437807611416e+01 -7.1369826924798019e+01 9.7152392555941688e+01 -7.2561997763259654e+01 6.8339044292759809e+01 -1.1026106229412290e-01 -9.2725796506777822e+00
1.2900000000000000e+00 -3.1282063281540498e-02 -1.2327531749036558e+01 -6.8238752004040265e+01 5.4728794434062834e+01 -7.1552163290786197e+01 6.3544685475040147e+01 -1.0779369174198719e-01 -9.3539753211394494e+00
1.3000000000000000e+00 -3.1387738162190190e-02 -1.2402658461912262e+01 -7.3853232010902673e+01 8.3649744794944951e+01 -6.9676386458749406e+01 5.7119766500508824e+01 -1.0886569150747179e-01 -9.4224914985410972e+00
1.3100000000000001e+00 -3.5015214884492954e-02 -1.2520319176290210e+01 -7.1492470039888161e+01 7.2799019323370302e+01 -6.7892222979798646e+01 7.1459594508607779e+01 -1.1103604034551595e-01 -9.5056137199009942e+00
1.3200000000000001e+00 -3.9804566608755948e-02 -1.2597139886261102e+01 -6.9039538275347624e+01 9.0378655043841661e+01 -7.2048693914407792e+01 7.6352960530978251e+01 -1.0671578988079794e-01 -9.5291207442879617e+00
1.3300000000000001e+00 -3.9637497283738783e-02 -1.2668644705980276e+01 -6.7644353649582939e+01 6.9026256882331850e+01 -6.7054963303534038e+01 7.1951060768074754e+01 -1.1476024828901470e-01 -9.6921692888742363e+00
1.3400000000000001e+00 -4.7080042583202635e-02 -1.2671776572379020e+01 -6.8914709782559228e+01 7.4542775743932523e+01 -7.0456926734935365e+01 7.3625415288620260e+01 -1.2374837828294569e-01 -9.7678157138811486e+00
1.3500000000000001e+00 -3.2742829672331199e-02 -1.2881583280081083e+01 -7.0153803521889245e+01 6.3911014576348286e+01 -7.1567330137809932e+01 6.1781233284175002e+01 -1.0980594785457323e-01 -9.7814616480987500e+00
1.3600000000000001e+00 -3.1590124632979236e-02 -1.3004447567454427e+01 -6.7414869207225379e+01 8.3125290428205147e+01 -6.8814156096661122e+01 7.4884654042356757e+01 -1.1026988120347084e-01 -9.8548174740689234e+00
1.3700000000000001e+00 -3.3532818060776966e-02 -1.3095740291670621e+01 -7.0707523323167678e+01 6.8342766053632090e+01 -7.5098260068408763e+01 4.7514017249032584e+01 -1.1123787088911757e-01 -9.9183677042037672e+00
1.3799999999999999e+00 -3.3315767584221882e-02 -1.3175649024204260e+01 -6.6778664040298736e+01 7.7110163684034376e+01 -6.7689478206692812e+01 7.9652328454842177e+01 -1.0958888285829943e-01 -9.9984892158347556e+00
1.3899999999999999e+00 -3.3019549968840912e-02 -1.3287641541172491e+01 -6.7354701266616985e+01 8.4465989005301353e+01 -6.7170061457758663e+01 6.8673712697192997e+01 -1.0779215965128063e-01 -1.0065890951773490e+01
1.3999999999999999e+00 -3.3503437769031794e-02 -1.3391158024906478e+01 -6.9669535079498246e+01 7.5464314063721091e+01 -6.5523707038768137e+01 7.0510883891300509e+01 -1.0924851362320478e-01 -1.0136788916809712e+01
1.4099999999999999e+00 -3.4392390632395485e-02 -1.3476116963054237e+01 -6.8673562878006152e+01 7.9578799388142642e+01 -6.9636266450741800e+01 7.2745747779828974e+01 -1.0898903952452901e-01 -1.0202068799189963e+01
1.4199999999999999e+00 -3.2870484028131933e-02 -1.3569284954618109e+01 -7.1180554343772897e+01 8.1767719806153536e+01 -6.8370087503165408e+01 8.2801452518385517e+01 -1.0994191828706770e-01 -1.0278479271312008e+01
1.4299999999999999e+00 -3.4052868116814898e-02 -1.3663861476598051e+01 -6.6615487116374638e+01 7.2922488224402784e+01 -6.6875030778007684e+01 8.8289073036788139e+01 -1.0979076919642262e-01 -1.0347867513278247e+01
1.4399999999999999e+00 -3.3591547480252379e-02 -1.3756853134010491e+01 -6.8965838252063520e+01 9.4063337650355251e+01 -6.6901071952553636e+01 8.6732173610477261e+01 -1.1015729341113989e-01 -1.0429368528463392e+01
1.4500000000000000e+00 -3.4479640609365536e-02 -1.3861158367412150e+01 -6.5259810198376186e+01 8.1498514850812498e+01 -6.5353069423341083e+01 6.2446376743281597e+01 -1.0997464976015967e-01 -1.0501347921737247e+01
1.4600000000000000e+00 -3.4205273120368480e-02 -1.3955482389229742e+01 -6.8753110804366798e+01 6.2580889054142105e+01 -6.3687024114695909e+01 8.8002032086481165e+01 -1.0898975446937449e-01 -1.0567964875303456e+01
1.4700000000000000e+00 -3.3979406371203266e-02 -1.4050711157644811e+01 -6.7728484916399466e+01 8.0846137163117078e+01 -6.5712669762261569e+01 8.0447253696934794e+01 -1.0913751890552259e-01 -1.0637268438344515e+01
1.4800000000000000e+00 -3.4727600797139845e-02 -1.4159300115610984e+01 -6.4389725043885051e+01 8.1518093391587783e+01 -6.6319880340351887e+01 9.2379779850999526e+01 -1.1019913495721052e-01 -1.0714438925609308e+01
1.4900000000000000e+00 -3.4451373733175868e-02 -1.4250423380709538e+01 -6.5693240819441186e+01 7.5753765556618532e+01 -6.6836642808619388e+01 7.4638583680357158e+01 -1.0998544109429194e-01 -1.0787719381864221e+01
1.5000000000000000e+00 -3.4198576338687808e-02 -1.4355800274140917e+01 -6.6094046752674728e+01 7.9951927412612335e+01 -6.3894930448625573e+01 8.5565723320995971e+01 -1.1009169811487042e-01 -1.0852576966909655e+01
1.5100000000000000e+00 -3.5589456183135838e-02 -1.4445341510919658e+01 -6.8405998011134585e+01 8.8041312882071182e+01 -6.8495341432818961e+01 7.4330952973600517e+01 -1.0995386684042145e-01 -1.0929211812500860e+01
1.5200000000000000e+00 -3.5986348615217642e-02 -1.4547027167360104e+01 -6.4716221162309949e+01 7.8479014717295016e+01 -6.5601492768446604e+01 6.3626659785694386e+01 -1.0981165579465663e-01 -1.1006903041409108e+01
1.5300000000000000e+00 -3.4476757999503657e-02 -1.4629540169768957e+01 -6.5621956717476095e+01 7.4274076951887608e+01 -6.5733550989178923e+01 9.2901669710730772e+01 -1.0937485322507493e-01 -1.1070225547616163e+01
1.5400000000000000e+00 -3.6146757978385173e-02 -1.4726433861043130e+01 -6.5428097558612876e+01 7.8077860338579868e+01 -6.6344391048592712e+01 8.7177454284738047e+01 -1.0781286714188376e-01 -1.1154101198255368e+01
1.5500000000000000e+00 -3.6201051657337058e-02 -1.4834812317329943e+01 -6.4980180132070245e+01 7.6495727043702573e+01 -6.6945012216489303e+01 8.9014010673990256e+01 -1.0957520933770301e-01 -1.1223468341628697e+01
1.5600000000000001e+00 -3.5068821822218973e-02 -1.4929518872353244e+01 -6.4487293539956823e+01 7.9984134169885451e+01 -6.6871295732095589e+01 9.6664320781725976e+01 -1.0947391100555456e-01 -1.1291574293622348e+01
1.5700000000000001e+00 -3.6645249094062499e-02 -1.5030322401757640e+01 -6.4454727450131941e+01 8.2940805428143946e+01 -6.2735252994445510e+01 8.9365683188129339e+01 -1.1026655068884303e-01 -1.1364045396005999e+01
1.5800000000000001e+00 -3.6026964906340914e-02 -1.5116880205188703e+01 -6.1581901646967424e+01 8.9737399637663756e+01 -6.3988838762590674e+01 9.0454563763553978e+01 -1.0793657461382902e-01 -1.1442419621661125e+01
1.5900000000000001e+00 -3.6300909918031393e-02 -1.5242555220346771e+01 -6.4300945423747521e+01 8.7278000760581520e+01 -6.3078746830673289e+01 8.3642461007440403e+01 -1.0966608645948336e-01 -1.1518537895257982e+01
1.6000000000000001e+00 -3.6850827381416103e-02 -1.5322003581633103e+01 -6.4845104778743703e+01 7.7057749019119044e+01 -6.2612918416009109e+01 7.3030753688962363e+01 -1.0906839013087725e-01 -1.1590652714543513e+01
1.6100000000000001e+00 -3.6812772121176590e-02 -1.5428610161194451e+01 -6.2743348796347895e+01 9.2883260107283505e+01 -6.3394864621782176e+01 6.6726631433499634e+01 -1.0848721928695453e-01 -1.1669313227585032e+01
1.6200000000000001e+00 -3.7592562647844593e-02 -1.5541742452858063e+01 -6.2559373631256896e+01 8.9758697566269447e+01 -6.2088231102922045e+01 8.1824408874714493e+01 -1.0898482357283978e-01 -1.1737510575952621e+01
1.6299999999999999e+00 -3.8073967406327458e-02 -1.5631874633304539e+01 -6.2876643599296145e+01 7.4066661957419626e+01 -6.2013868248385563e+01 9.9929986483953400e+01 -1.0793239392028378e-01 -1.1816021557583250e+01
1.6399999999999999e+00 -3.8166345671604818e-02 -1.5727848474312463e+01 -6.1983075220032049e+01 7.8685330440361398e+01 -6.2017876768037624e+01 8.8011748321959033e+01 -1.0876303348216833e-01 -1.1891211456050291e+01
1.6499999999999999e+00 -3.6456613406431200e-02 -1.5826563369075034e+01 -6.1004720952085954e+01 9.2237167098996352e+01 -6.2649776498045696e+01 9.0183731392304367e+01 -1.0885603412804851e-01 -1.1971699204173975e+01
1.6599999999999999e+00 -3.7105847143915772e-02 -1.5927910615953259e+01 -6.2611598445774625e+01 8.3219645194049221e+01 -6.0802987604209079e+01 6.5660885863728296e+01 -1.0946009321481322e-01 -1.2045643986922371e+01
1.6699999999999999e+00 -3.7823856317083231e-02 -1.6028035092625533e+01 -6.0926676442620590e+01 8.0423027172361614e+01 -6.2399354416323938e+01 7.5526721423820945e+01 -1.0958918787745207e-01 -1.2111451182623258e+01
1.6799999999999999e+00 -3.8109934829937138e-02 -1.6119574784829222e+01 -6.1774512565941407e+01 8.3012202727426171e+01 -6.1983695357842301e+01 8.3741485013633138e+01 -1.0871811195603914e-01 -1.2197984883089495e+01
1.6899999999999999e+00 -3.7501245421239310e-02 -1.6220281964696060e+01 -6.1961788876983697e+01 7.9429107013758014e+01 -6.2462754956353486e+01 7.4092144869277163e+01 -1.0890212804452912e-01 -1.2268320370927382e+01
1.7000000000000000e+00 -3.7834136765110889e-02 -1.6330367475398653e+01 -6.1402430485712728e+01 8.5769988959859958e+01 -5.9916023021112977e+01 7.5712668675678927e+01 -1.0946514270291199e-01 -1.2332846037865243e+01
1.7100000000000000e+00 -3.8167093395134077e-02 -1.6431864573800102e+01 -6.1652036430891705e+01 8.7938846341781371e+01 -6.0493869722193551e+01 8.7432686769148631e+01 -1.0938925085027294e-01 -1.2414573095649244e+01
1.7200000000000000e+00 -3.7958796704369850e-02 -1.6541005552260074e+01 -6.1934110585208416e+01 8.6626084037176170e+01 -6.0623479695892890e+01 8.2577828080196412e+01 -1.0842268474478216e-01 -1.2494435596143425e+01
1.7300000000000000e+00 -3.8291861958994089e-02 -1.6634653414822598e+01 -6.0706843360934215e+01 8.0596431697871822e+01 -5.9968737530099183e+01 8.1225496489476726e+01 -1.0922581640484895e-01 -1.2564916917909828e+01
1.7400000000000000e+00 -3.8344075858302670e-02 -1.6740738834720524e+01 -6.1071697328442049e+01 7.6190475555185259e+01 -6.0932916133791018e+01 7.7748293716928515e+01 -1.0878367124608752e-01 -1.2650049016757825e+01
1.7500000000000000e+00 -3.8775643372213807e-02 -1.6838282909028319e+01 -6.0249279781351312e+01 7.9002753779119459e+01 -5.9858442329936651e+01 7.6839273394624854e+01 -1.0763431352933901e-01 -1.2716710712094070e+01
1.7600000000000000e+00 -3.9238847980465279e-02 -1.6929024890387094e+01 -5.9891398575648800e+01 7.5422989004026306e+01 -5.9200000060892989e+01 8.4231996113072498e+01 -1.0983925520134795e-01 -1.2794560899459452e+01
1.7700000000000000e+00 -3.8736056116622668e-02 -1.7039390613749738e+01 -5.8594028581219320e+01 7.1803195037795987e+01 -6.0944551486731051e+01 8.2636521993019528e+01 -1.0801897367860727e-01 -1.2876078432311285e+01
1.7800000000000000e+00 -3.8576530392922366e-02 -1.7143847182332024e+01 -5.9073977345095379e+01 7.5543628608829309e+01 -5.7663361236348010e+01 7.8626570916862477e+01 -1.0790262288751093e-01 -1.2944335366073883e+01
1.7900000000000000e+00 -3.7937453864575289e-02 -1.7252897104440617e+01 -6.0335058615126506e+01 8.3809963523920459e+01 -5.7890402496051550e+01 6.8868931266711897e+01 -1.0743035214643618e-01 -1.3019228950662727e+01
1.8000000000000000e+00 -3.9797920756873238e-02 -1.7349720756876771e+01 -6.0402611175157006e+01 8.7490657079844482e+01 -5.9962211912305968e+01 8.1372124468120816e+01 -1.0942730276064802e-01 -1.3104557206464884e+01
1.8100000000000001e+00 -3.9633122575519451e-02 -1.7450593098422765e+01 -5.9722896353218793e+01 7.5448921786505366e+01 -5.8891272285715345e+01 6.9406301188298386e+01 -1.0855961659989942e-01 -1.3178120607405603e+01
1.8200000000000001e+00 -3.9307996124390669e-02 -1.7553445900483229e+01 -5.9004497043581203e+01 7.3203554262626923e+01 -5.7996633282350615e+01 7.2202646244434632e+01 -1.0941066543837862e-01 -1.3265298324647061e+01
1.8300000000000001e+00 -3.8906810098269386e-02 -1.7659454987401940e+01 -5.8427004211258541e+01 7.8025122529419534e+01 -6.0377928068061038e+01 8.1075857130642049e+01 -1.0760076196059688e-01 -1.3338917682390180e+01
1.8400000000000001e+00 -4.0264121346659486e-02 -1.7762254779555601e+01 -5.8596462601627827e+01 7.5523907535419212e+01 -5.7959362149537590e+01 7.9046095627055010e+01 -1.0851212594338111e-01 -1.3422872348701228e+01
1.8500000000000001e+00 -3.9622705647929309e-02 -1.7865328807329288e+01 -5.8231567534777994e+01 8.0612552826642101e+01 -5.8822158766716051e+01 7.6980204550184666e+01 -1.0758188590292994e-01 -1.3492828733246082e+01
1.8600000000000001e+00 -4.0079797462929813e-02 -1.7967164747913259e+01 -5.8331504166596673e+01 7.6580781391655833e+01 -5.8831635449795627e+01 8.1085771115262006e+01 -1.0856167241916073e-01 -1.3578090138976020e+01
1.8700000000000001e+00 -3.9009919625793962e-02 -1.8079538664910544e+01 -5.8485944815416453e+01 7.5832693113911077e+01 -5.7383672280806564e+01 6.3864748954374306e+01 -1.0834469609890626e-01 -1.3647392642901838e+01
1.8799999999999999e+00 -3.9902447916455794e-02 -1.8189338369882599e+01 -5.7970217501668728e+01 7.4444137181231326e+01 -5.8879267568396010e+01 8.3340880097796671e+01 -1.0902073500665671e-01 -1.3719984605931105e+01
1.8899999999999999e+00 -3.9799586004915441e-02 -1.8293852158059700e+01 -5.7194692577125473e+01 7.9598739592333374e+01 -5.7228034928593445e+01 6.9836834649842274e+01 -1.0810182275106989e-01 -1.3812959245143874e+01
1.8999999999999999e+00 -3.9520727865392798e-02 -1.8389083959546351e+01 -5.8038843351351389e+01 7.1397298040528838e+01 -5.7517138450436114e+01 8.3232164127448726e+01 -1.0755495827016516e-01 -1.3889818645891339e+01
1.9099999999999999e+00 -4.1280910372949453e-02 -1.8499758891981433e+01 -5.7643994270094325e+01 7.5742507357140980e+01 -5.7466444816926440e+01 7.2330194903204642e+01 -1.0758572295852550e-01 -1.3968734107714585e+01
1.9199999999999999e+00 -4.0203143488636628e-02 -1.8588904681238660e+01 -5.7940404124834373e+01 7.6370623483057528e+01 -5.7304705767255655e+01 7.9369671464791125e+01 -1.0827030802938659e-01 -1.4058468096158354e+01
