# MHz S DB R 50
1.0000000000000000e+00 -2.4296354083452636e-02 -9.5245348856406302e+00 -8.7480311200524881e+01 -3.5966799425608542e-01 -7.7854972756946793e+01 -2.9560817239708701e+01 -9.5422817184610140e-02 -7.1347873508235065e+00
1.0100000000000000e+00 -2.3916040706998709e-02 -9.6198106573413966e+00 -8.2575699712716485e+01 1.2720241941152220e+02 -7.1946873804237256e+01 7.4683977287202126e+01 -9.4721203362753637e-02 -7.1999285224040319e+00
1.0200000000000000e+00 -2.5132484065237548e-02 -9.7173321703676834e+00 -7.6557110000394772e+01 1.0821509780299586e+02 -7.4835993805817708e+01 1.1972917978843286e+02 -9.5990743018691829e-02 -7.2728422867895866e+00
1.0300000000000000e+00 -2.5097265204277713e-02 -9.7997156495813851e+00 -8.1631540613883473e+01 -1.6631714421185176e+01 -7.3230335484148824e+01 5.7067094968189544e+01 -9.5319654626931496e-02 -7.3426589319033688e+00
1.0400000000000000e+00 -2.4290241015806478e-02 -9.9098942348307677e+00 -7.8643774875097236e+01 1.1844716457913091e+02 -7.6540600536542655e+01 4.7542359778870228e+01 -9.4205619194232468e-02 -7.4163573777316767e+00
1.0500000000000000e+00 -2.5935588825557486e-02 -9.9943202330557028e+00 -7.8689966280013792e+01 8.5834188747554592e+01 -8.0948104744148353e+01 1.0984588771475116e+02 -9.5576176918878319e-02 -7.4823570900636920e+00
1.0600000000000001e+00 -2.5895782900310950e-02 -1.0079074574738598e+01 -8.3038602936020226e+01 5.0482872109712339e+01 -7.7872352221740343e+01 1.1228189902758359e+02 -9.6305033353346753e-02 -7.5461819001219901e+00
1.0700000000000001e+00 -2.5093413460645579e-02 -1.0179404900358357e+01 -7.6664110971078472e+01 2.8167281064866376e+01 -7.4107623763440984e+01 5.6341230951327681e+01 -9.6470903345515030e-02 -7.6178592269992356e+00
1.0800000000000001e+00 -2.5752515970487042e-02 -1.0276403947331572e+01 -9.6256220479927777e+01 1.3053117678307652e+02 -7.3435417642862205e+01 3.8174419438935196e+01 -9.6286147570983832e-02 -7.6887032796160097e+00
1.0900000000000001e+00 -2.5103659328768749e-02 -1.0373295276740107e+01 -8.7354582936993637e+01 1.0557467136652100e+02 -7.4275088505798337e+01 9.2763229782148287e+01 -9.5700459736840410e-02 -7.7625087858139858e+00
1.1000000000000001e+00 -2.5894919885223879e-02 -1.0461138473818750e+01 -7.2373004192594607e+01 8.2775286295228227e+01 -7.8894948092005109e+01 -1.5654548969159626e+02 -9.6302196035160506e-02 -7.8263200335169048e+00
1.1100000000000001e+00 -2.5253700346698042e-02 -1.0553282939636784e+01 -7.2448651299512235e+01 6.3007202661035770e+01 -8.1757556985200466e+01 1.3980025295355307e+02 -9.6169880063938215e-02 -7.8941329730691985e+00
1.1200000000000001e+00 -2.7064946127275037e-02 -1.0649936978914564e+01 -7.6557901976435559e+01 6.3460631096400839e+01 -7.7193764752059380e+01 7.8957393644353942e+01 -9.6722979031546280e-02 -7.9663710287137386e+00
1.1299999999999999e+00 -2.6638919005754113e-02 -1.0741188536441863e+01 -7.7600511104653265e+01 1.1616098176415396e+02 -7.0566095777770428e+01 3.4376373288289642e+01 -9.5955065950080437e-02 -8.0367083251157663e+00
1.1399999999999999e+00 -2.7272270075356309e-02 -1.0844757705757715e+01 -7.3458929085837056e+01 9.9908660178198900e+01 -7.4039394974375114e+01 6.4850565650295621e+01 -9.6123801178146756e-02 -8.1037957902656927e+00
1.1499999999999999e+00 -2.6697855943284672e-02 -1.0940374751187601e+01 -7.5875886207430085e+01 4.0465053411750823e+01 -7.6787629867171447e+01 -5.9235861144576782e+00 -9.7018353711202251e-02 -8.1866111692832177e+00
1.1599999999999999e+00 -2.7251344326699352e-02 -1.1042765664299980e+01 -8.5578990096331054e+01 -2.3181603431853432e+01 -7.1978886303341582e+01 9.1642042144702302e+01 -9.6866536009582796e-02 -8.2466809032212165e+00
1.1699999999999999e+00 -2.7261324090175676e-02 -1.1126126154295843e+01 -7.9073143675454929e+01 3.2742403340380854e+01 -7.1800119590248258e+01 7.1796371135016884e+01 -9.6524448731784576e-02 -8.3185058767700237e+00
1.1799999999999999e+00 -2.5852983929516564e-02 -1.1217943192230340e+01 -7.6137650536243257e+01 3.1485207973287572e+01 -8.0424864541177513e+01 5.9560697154898236e+01 -9.7818605096588740e-02 -8.3946762448566670e+00
1.1899999999999999e+00 -2.7084040088570915e-02 -1.1313856986075297e+01 -7.3157834453896697e+01 1.2719828719547803e+02 -7.7383315915166079e+01 1.2312804098913121e+02 -9.6087343107967405e-02 -8.4627893925423603e+00
1.2000000000000000e+00 -2.8545699294405001e-02 -1.1404266116507838e+01 -7.4121085133480463e+01 5.8228816123167583e+01 -7.7755422048168498e+01 7.2097234455175695e+01 -9.8119351844860897e-02 -8.5240762156684955e+00
1.2100000000000000e+00 -2.8667844009804926e-02 -1.1515542131385665e+01 -7.8349779596571267e+01 3.8505281318306615e+01 -7.2961300197499156e+01 8.3005881302316254e+01 -9.7026552563801882e-02 -8.5964472998971946e+00
1.2200000000000000e+00 -2.7802555931160954e-02 -1.1588924215244852e+01 -7.1994980420255757e+01 5.0990036989810363e+01 -7.0967761444332567e+01 6.6588414011962939e+01 -9.6823814417051790e-02 -8.6702447275244889e+00
1.2300000000000000e+00 -2.9566602899565687e-02 -1.1679349079030505e+01 -7.4442611610658219e+01 6.3887616809490375e+01 -7.5330795678688929e+01 9.0364699776746690e+01 -9.7125623043755591e-02 -8.7414413753688294e+00
1.2400000000000000e+00 -2.8854598512858574e-02 -1.1787614829712030e+01 -7.3677723880218323e+01 4.3263129429482419e+01 -7.4479405681603012e+01 8.1171508844246503e+01 -9.7057904815634047e-02 -8.8034801075981424e+00
1.2500000000000000e+00 -2.8228881598808698e-02 -1.1881525066036042e+01 -7.1582037465137120e+01 4.9921421677914026e+01 -7.6739412040584455e+01 8.1880379397560858e+01 -9.6982983506325240e-02 -8.8818204686300053e+00
1.2600000000000000e+00 -2.7387157497795498e-02 -1.1976073139381466e+01 -7.7983040583184504e+01 6.3046376200572851e+01 -7.8575966514945591e+01 8.5859266807323920e+01 -9.6433889212872159e-02 -8.9487998046190853e+00
1.2700000000000000e+00 -2.8931601816521487e-02 -1.2083785578936860e+01 -7.4622592927936083e+01 4.8923438023765208e+01 -7.1555827520049348e+01 8.9680744111782673e+01 -9.6904795706915806e-02 -9.0204978648205980e+00
1.2800000000000000e+00 -2.9597812073310911e-02 -1.2171099522842592e+01 -7.4999380015678867e+01 1.1754502484157820e+02 -8.0554333233380191e+01 6.3380050208541512e+01 -9.7053434364192587e-02 -9.1028062002394616e+00
1.2900000000000000e+00 -2.9910663103912057e-02 -1.2284860754493037e+01 -7.3325932878284931e+01 4.6794215263237746e+01 -7.6038249766203805e+01 6.6419086198853378e+01 -9.5068325902662995e-02 -9.1695588721306613e+00
1.3000000000000000e+00 -2.8518802780046648e-02 -1.2356412877986305e+01 -8.0250020572994202e+01 1.1636979714570214e+02 -7.5642472261516090e+01 5.6615555479725757e+01 -9.6982476449607183e-02 -9.2335911205069934e+00
1.3100000000000001e+00 -2.8165718483485466e-02 -1.2450032268646794e+01 -7.8771671324818655e+01 8.6067773546771988e+01 -7.1598764152569700e+01 7.5203599685944340e+01 -9.5838526297982382e-02 -9.3052864864455351e+00
1.3200000000000001e+00 -3.1890610053999416e-02 -1.2587267325035141e+01 -7.2773197987621202e+01 1.2394123004600853e+02 -7.6335453463939885e+01 6.2251516091379358e+01 -9.9675064703400942e-02 -9.3694177830696379e+00
1.3300000000000001e+00 -2.4435227994126597e-02 -1.2616985215208949e+01 -7.0733257777124948e+01 7.5198100414347323e+01 -7.0671770510476435e+01 7.7540606824947474e+01 -1.0645352196385000e-01 -9.5198860459182217e+00
1.3400000000000001e+00 -8.0881897983603110e-02 -1.2858325906951984e+01 -7.4315384039402716e+01 6.1233781851803236e+01 -7.8273190625292244e+01 9.9490812287210034e+01 -8.7766028513668187e-02 -9.4790666435615485e+00
1.3500000000000001e+00 -3.0914956200792584e-02 -1.2850037318188052e+01 -7.4919115582751971e+01 5.8735484790482928e+01 -7.6387499632325145e+01 4.8767989904514785e+01 -9.7600739559406652e-02 -9.5964112674970306e+00
1.3600000000000001e+00 -2.9797565636720424e-02 -1.2964480310220033e+01 -7.1131677395658073e+01 8.9156109286526004e+01 -7.2985734641884846e+01 7.1568280166794267e+01 -9.8814251836910338e-02 -9.6667423553631959e+00
1.3700000000000001e+00 -3.1006547540498537e-02 -1.3051946346259076e+01 -7.7029873157375135e+01 5.8545515335777154e+01 -8.2952602414314626e+01 -3.4943826037514093e+01 -9.8310250934261989e-02 -9.7295081566204686e+00
1.3799999999999999e+00 -3.0606502789457819e-02 -1.3140706357948694e+01 -7.1249839541428543e+01 8.2424835161279830e+01 -7.3757418471428451e+01 9.0211588046581667e+01 -9.6910375923028855e-02 -9.8160714569992606e+00
1.3899999999999999e+00 -3.1469597927758303e-02 -1.3247655377564056e+01 -7.1035902536974049e+01 9.0173932203344080e+01 -7.1124640196340479e+01 6.2347327422215542e+01 -9.4799529309888608e-02 -9.8789038302759185e+00
1.3999999999999999e+00 -3.1362298226944085e-02 -1.3321262208501116e+01 -7.6423300562360168e+01 7.5618403906808368e+01 -6.9746751096151371e+01 6.6404907923423764e+01 -9.6201251830720938e-02 -9.9471461362815123e+00
1.4099999999999999e+00 -3.1813507301165340e-02 -1.3432618186370224e+01 -7.4714890622667568e+01 9.2036253878698759e+01 -7.5993582948024780e+01 7.7257878897770027e+01 -9.5512540862375525e-02 -1.0025076451133442e+01
1.4199999999999999e+00 -3.2152779981154636e-02 -1.3521982923841049e+01 -8.2806442965035970e+01 9.2188587274197062e+01 -7.3765309319588454e+01 7.2433958027031096e+01 -9.7391255078826511e-02 -1.0098457995867518e+01
1.4299999999999999e+00 -3.1734967083773089e-02 -1.3609877530701050e+01 -7.1152917900921523e+01 7.3930587239513130e+01 -7.1101121568133053e+01 9.7199586743101108e+01 -9.7495722989586059e-02 -1.0166109404201416e+01
1.4399999999999999e+00 -3.1859433436885562e-02 -1.3726074554723802e+01 -7.5235053470512412e+01 1.2168223044416800e+02 -7.1730340553670914e+01 8.9541645603587654e+01 -9.6513079979409583e-02 -1.0246270566434783e+01
1.4500000000000000e+00 -3.2641895177962232e-02 -1.3819646162283176e+01 -6.8366097929270595e+01 8.1334935323418918e+01 -6.8931604911899711e+01 6.3241356898796440e+01 -9.6821143331361187e-02 -1.0319950238247209e+01
1.4600000000000000e+00 -3.1684267393231089e-02 -1.3922339809948156e+01 -7.3735186629798264e+01 4.9584664042306393e+01 -6.7127140078914664e+01 8.7789931193333132e+01 -9.6609582961297347e-02 -1.0377401144933465e+01
1.4700000000000000e+00 -3.2570790370982136e-02 -1.4009180055142345e+01 -7.4060435075861847e+01 8.2422211697823471e+01 -7.0114735619957884e+01 8.2022506731632390e+01 -9.6630722261436000e-02 -1.0454180530047182e+01
1.4800000000000000e+00 -3.3372582329874251e-02 -1.4108392563118228e+01 -6.7983436140912076e+01 8.5803832635080425e+01 -7.0592311346531815e+01 9.1029193356325592e+01 -9.7384294542221958e-02 -1.0532791287647067e+01
1.4900000000000000e+00 -3.2893834854354216e-02 -1.4214041360817300e+01 -6.9169435823108216e+01 8.3881247045348331e+01 -7.1056911818636038e+01 6.5702640576053412e+01 -9.6879844655494041e-02 -1.0603354561693012e+01
1.5000000000000000e+00 -3.2304964873091757e-02 -1.4311711112238727e+01 -7.1492761999584502e+01 8.4104225994759858e+01 -6.7486292339832147e+01 9.5166734181602578e+01 -9.7584574303203137e-02 -1.0673532607455966e+01
1.5100000000000000e+00 -3.2977443345967000e-02 -1.4398972600892119e+01 -7.4719068194977453e+01 9.9985251225290327e+01 -7.5879843192337987e+01 7.3467202259829818e+01 -9.6508753906919820e-02 -1.0755219374125693e+01
1.5200000000000000e+00 -3.3451730751258207e-02 -1.4498721951471515e+01 -7.0441106463472948e+01 7.4132130589653528e+01 -7.1001070759875432e+01 5.3265156545027146e+01 -9.7384098892332904e-02 -1.0819285651066052e+01
1.5300000000000000e+00 -3.3292046542632590e-02 -1.4592848247675098e+01 -7.0273179803331971e+01 7.3697833915956792e+01 -7.0363163839221926e+01 1.0642760281010239e+02 -9.6469491032187910e-02 -1.0885414923621653e+01
1.5400000000000000e+00 -3.2884439184269462e-02 -1.4693408242910026e+01 -7.1364939152383926e+01 7.6825789716753860e+01 -7.1791315272786477e+01 8.9123564755452549e+01 -9.6648517750030666e-02 -1.0957327994788926e+01
1.5500000000000000e+00 -3.3459883597586622e-02 -1.4805278294098398e+01 -6.9901368965496602e+01 7.3384083470971660e+01 -7.3623362525193514e+01 9.6492146159185722e+01 -9.6931023743192041e-02 -1.1043064835031164e+01
1.5600000000000001e+00 -3.2787102445639552e-02 -1.4892375417269301e+01 -6.9859149388505401e+01 7.0458397228908751e+01 -7.2367073932790802e+01 1.1227979206093872e+02 -9.6143976695791972e-02 -1.1124305767984859e+01
1.5700000000000001e+00 -3.3616954177950298e-02 -1.4983395174568411e+01 -6.9306743135568482e+01 8.6604031347189007e+01 -6.7035519276761406e+01 9.4737369308112491e+01 -9.7364222570387127e-02 -1.1192354981026032e+01
1.5800000000000001e+00 -3.3992986979073110e-02 -1.5090331476192443e+01 -6.4684105527455387e+01 9.7897580166591482e+01 -6.8379191802333580e+01 9.4758677485051052e+01 -9.5247256020857984e-02 -1.1260038387672576e+01
1.5900000000000001e+00 -3.4566585022898416e-02 -1.5192235671849680e+01 -7.0158524557506809e+01 8.6144267496334621e+01 -6.8404812269462298e+01 8.2650403009768453e+01 -9.6395076306314206e-02 -1.1341387592596979e+01
1.6000000000000001e+00 -3.4326454144164582e-02 -1.5283249780557446e+01 -7.1399878673118380e+01 7.4256242683176055e+01 -6.7113064885572669e+01 6.9643398997468381e+01 -9.5355869627766696e-02 -1.1415890802388684e+01
1.6100000000000001e+00 -3.3980049069430210e-02 -1.5396510088390286e+01 -6.6742902575825212e+01 9.7032596198063189e+01 -6.8421379555205334e+01 5.8859462101223258e+01 -9.6235379802837778e-02 -1.1493253273940331e+01
1.6200000000000001e+00 -3.5272467129328286e-02 -1.5498024381881377e+01 -6.7090175250226338e+01 8.7786510742454610e+01 -6.6563934037866062e+01 8.5689465056787640e+01 -9.6058125004850628e-02 -1.1560968040034018e+01
1.6299999999999999e+00 -3.6342498839328476e-02 -1.5589817132910545e+01 -6.7384379463093637e+01 6.9016470945268196e+01 -6.6461522082680901e+01 1.1090073875747365e+02 -9.4775446111881767e-02 -1.1642393771006216e+01
1.6399999999999999e+00 -3.4906601164950805e-02 -1.5700541717195742e+01 -6.6554277220788691e+01 7.2355648497082626e+01 -6.6570970497507957e+01 9.5992737407869086e+01 -9.5536093375590825e-02 -1.1714606841600396e+01
1.6499999999999999e+00 -3.4020011558876018e-02 -1.5786676795906192e+01 -6.5262717904507511e+01 1.0370425923177238e+02 -6.7687690367782125e+01 9.6628780701185619e+01 -9.4597017146267406e-02 -1.1797205175559181e+01
1.6599999999999999e+00 -3.4887805480201352e-02 -1.5897413638991081e+01 -6.7796365123396100e+01 8.7962821307130071e+01 -6.4794765856821655e+01 5.9378069544590758e+01 -9.4847813347862103e-02 -1.1865069705177984e+01
1.6699999999999999e+00 -3.5672667733237677e-02 -1.5996636683272593e+01 -6.4955384828289070e+01 7.8681737986861393e+01 -6.7856135394632460e+01 7.2106448539311970e+01 -9.4726110784775774e-02 -1.1931230601649075e+01
1.6799999999999999e+00 -3.5648846794612235e-02 -1.6086183935869318e+01 -6.6403955685622890e+01 8.2916464687594441e+01 -6.7007643456752049e+01 8.5529455543707897e+01 -9.4792987343700008e-02 -1.2017210308665977e+01
1.6899999999999999e+00 -3.4478307480788228e-02 -1.6185622285427552e+01 -6.7022415014826834e+01 7.9522793839037973e+01 -6.8013727209958091e+01 6.8105814345217411e+01 -9.5452748425787853e-02 -1.2088537408767847e+01
1.7000000000000000e+00 -3.5157381125283355e-02 -1.6290884102266872e+01 -6.6635539643056745e+01 9.0117872775042869e+01 -6.4029585419695692e+01 7.2138832705687932e+01 -9.5289885831132667e-02 -1.2165400284951597e+01
1.7100000000000000e+00 -3.5929372454973706e-02 -1.6403431011714140e+01 -6.7555188617406586e+01 9.4845863219788583e+01 -6.5278458441527704e+01 9.5061081560720126e+01 -9.4540173761674520e-02 -1.2243816806224135e+01
1.7200000000000000e+00 -3.5427342186659411e-02 -1.6499104845576664e+01 -6.6833781680335164e+01 9.3430152677347223e+01 -6.4575965607264436e+01 8.3144805719154078e+01 -9.4839170430899317e-02 -1.2318520326384744e+01
1.7300000000000000e+00 -3.5183457471924431e-02 -1.6599883001932572e+01 -6.5886154250074711e+01 8.4828501026379584e+01 -6.5481195383263866e+01 8.1689646618282282e+01 -9.5442751727670819e-02 -1.2386224177464678e+01
1.7400000000000000e+00 -3.6721993133918940e-02 -1.6707306952196834e+01 -6.7066237744307898e+01 7.8299839412975231e+01 -6.7088693740821512e+01 8.0677092185173137e+01 -9.4175028057167015e-02 -1.2475437997120189e+01
1.7500000000000000e+00 -3.6357232698167541e-02 -1.6817585140670108e+01 -6.6088904441341583e+01 8.2694055512896568e+01 -6.5008941454669952e+01 8.5184708959758240e+01 -9.4807681418641654e-02 -1.2542379305148497e+01
1.7600000000000000e+00 -3.6533174905232620e-02 -1.6902431268394345e+01 -6.4642507127167136e+01 7.4654407652118621e+01 -6.3579674018654885e+01 9.2799406961734022e+01 -9.5516563689900358e-02 -1.2633255337246352e+01
1.7700000000000000e+00 -3.6240518453216533e-02 -1.7005657107077013e+01 -6.3223726317118420e+01 6.7600238764892936e+01 -6.6937350737618885e+01 9.2900487777642141e+01 -9.4613840134173829e-02 -1.2707919655224329e+01
1.7800000000000000e+00 -3.5390193486752028e-02 -1.7110448105159367e+01 -6.3534768680239878e+01 7.8003702129069168e+01 -6.1915474029213073e+01 7.9342217336605330e+01 -9.3571612941228982e-02 -1.2775593420972500e+01
1.7900000000000000e+00 -3.6446843068782424e-02 -1.7214186067243634e+01 -6.5841705083655199e+01 9.4015482137587369e+01 -6.2513896711737573e+01 7.0538332222634551e+01 -9.5100275966014780e-02 -1.2854335733214539e+01
1.8000000000000000e+00 -3.5863600863572230e-02 -1.7318582643871956e+01 -6.5926744376822029e+01 1.0144875011583443e+02 -6.6312638860838746e+01 8.9202122189830163e+01 -9.4972077108835123e-02 -1.2943615276502738e+01
1.8100000000000001e+00 -3.6784616642872234e-02 -1.7429504895322875e+01 -6.4708119173988720e+01 7.6967138411471439e+01 -6.4242994169900641e+01 6.5290849757274245e+01 -9.4729895896987631e-02 -1.3014136609243787e+01
1.8200000000000001e+00 -3.7784199549269627e-02 -1.7525373892434480e+01 -6.3812202570997101e+01 7.4410465046508776e+01 -6.2614681801296577e+01 7.3081859383262042e+01 -9.4371972572407731e-02 -1.3090805183914281e+01
1.8300000000000001e+00 -3.6949060227790306e-02 -1.7630910551366455e+01 -6.3642860278251511e+01 8.0708606572737025e+01 -6.6940628053730919e+01 9.3617045743958229e+01 -9.4445671390098240e-02 -1.3176105116265957e+01
1.8400000000000001e+00 -3.6839201660749971e-02 -1.7727706467327550e+01 -6.4039791743816480e+01 8.0754728396605486e+01 -6.2639253182555734e+01 8.4718263864699651e+01 -9.4695135607122533e-02 -1.3251864050786864e+01
1.8500000000000001e+00 -3.6631906081571138e-02 -1.7836487936151638e+01 -6.3169682865112392e+01 8.8030509031467290e+01 -6.4573307873964254e+01 7.9460603567335227e+01 -9.3448373125857603e-02 -1.3327470542666020e+01
1.8600000000000001e+00 -3.7793835274665420e-02 -1.7933582959962809e+01 -6.3141089981309300e+01 8.2081747605822116e+01 -6.6316334838804025e+01 9.1752012431985747e+01 -9.5237775364767741e-02 -1.3413455680177393e+01
1.8700000000000001e+00 -3.7557702285303335e-02 -1.8050119203246133e+01 -6.3897465750522301e+01 7.7789985086296767e+01 -6.2284764712798719e+01 5.6987743935320651e+01 -9.4566930171562896e-02 -1.3495802315565243e+01
1.8799999999999999e+00 -3.7407860079835320e-02 -1.8147306244406739e+01 -6.3074094910290043e+01 7.5060136313693476e+01 -6.5070123255498487e+01 9.8752293002085722e+01 -9.4461940942155598e-02 -1.3560454941668347e+01
1.8899999999999999e+00 -3.7720794611491526e-02 -1.8245728565936773e+01 -6.1433474315402890e+01 8.4212299252082289e+01 -6.3219203432158054e+01 7.1921177835953202e+01 -9.3479747055534010e-02 -1.3643890692174118e+01
1.8999999999999999e+00 -3.6482287135521096e-02 -1.8360966966050377e+01 -6.4355276108221801e+01 6.8391582395808257e+01 -6.2968148029890472e+01 9.3037808689670641e+01 -9.4062313565613398e-02 -1.3729020928175643e+01
1.9099999999999999e+00 -3.8834476439307840e-02 -1.8460149426155198e+01 -6.3030680465944904e+01 7.7670556734298444e+01 -6.3055973384196022e+01 7.4768045181769679e+01 -9.3098889100631133e-02 -1.3801489284452130e+01
1.9199999999999999e+00 -3.7616160522673990e-02 -1.8566079602474755e+01 -6.3420285226013100e+01 7.5403304116429126e+01 -6.3547294724761898e+01 8.8540677370482172e+01 -9.4711917151736935e-02 -1.3894224254565879e+01
