# MHz S DB R 50
1.0000000000000000e+00 -2.4066625381622093e-02 -9.5263175086547633e+00 -8.7447213633590493e+01 4.2476471451953309e+01 -7.7145189824873242e+01 -1.5836364794146293e+01 -9.6818766370857151e-02 -7.1716415006811731e+00
1.0100000000000000e+00 -2.4144462268539141e-02 -9.6289290320443115e+00 -7.9487845393915862e+01 1.0923311761529847e+02 -7.1699379065724585e+01 7.3652278512290593e+01 -9.6190714509309508e-02 -7.2405458663569586e+00
1.0200000000000000e+00 -2.4713057694170058e-02 -9.7201604510769783e+00 -7.7237608082393635e+01 1.0456984760900522e+02 -7.3181883886464078e+01 1.1435918839020582e+02 -9.7263031283705434e-02 -7.3131926417726412e+00
1.0300000000000000e+00 -2.4481056903115497e-02 -9.8117182723451126e+00 -8.1311852143262726e+01 5.0531443401670071e+00 -7.2257647645632545e+01 5.0966364173093432e+01 -9.7015439042779858e-02 -7.3776249037394068e+00
1.0400000000000000e+00 -2.5259903880825239e-02 -9.9186928361352678e+00 -7.6550563004249909e+01 1.1635851572424367e+02 -7.4759911864496104e+01 5.3263171077341106e+01 -9.5219690082130271e-02 -7.4575110165335179e+00
1.0500000000000000e+00 -2.5372413188443844e-02 -9.9963457549074359e+00 -7.7572282740403168e+01 9.4648491410700245e+01 -7.9418437708908115e+01 1.0578030273630290e+02 -9.7151203559929664e-02 -7.5218286199859676e+00
1.0600000000000001e+00 -2.6068920076510526e-02 -1.0096551450733156e+01 -7.9833974049765217e+01 3.9285765914472073e+01 -7.6010446943085711e+01 1.0008601303742179e+02 -9.7903308809915587e-02 -7.5863223737396535e+00
1.0700000000000001e+00 -2.5885139557012729e-02 -1.0192036745694935e+01 -7.6235268884090743e+01 3.1898217283279624e+01 -7.1870328409900452e+01 6.0270417283930627e+01 -9.7727764271688236e-02 -7.6566226357903142e+00
1.0800000000000001e+00 -2.6474442777127481e-02 -1.0282774000097284e+01 -8.8136222584311085e+01 1.2882670306535113e+02 -7.2687701668444703e+01 4.3661251624422292e+01 -9.7251723129587658e-02 -7.7332650592409076e+00
1.0900000000000001e+00 -2.5628985612722990e-02 -1.0383091330186621e+01 -8.6381961162164856e+01 1.0189569474066525e+02 -7.3065744590748011e+01 8.6665669108698850e+01 -9.6527069048720632e-02 -7.7965886442646006e+00
1.1000000000000001e+00 -2.5660998444753697e-02 -1.0457568083791580e+01 -7.1747067508393187e+01 8.7090031456467315e+01 -8.0533135913986783e+01 -1.5472915473760511e+02 -9.7004134914308038e-02 -7.8646867425539293e+00
1.1100000000000001e+00 -2.6307605139455591e-02 -1.0551138863641119e+01 -7.1543239597892395e+01 6.7230566789527302e+01 -7.9603851661774215e+01 1.3432936900805387e+02 -9.7677029139230265e-02 -7.9321159327639483e+00
1.1200000000000001e+00 -2.7296923941603705e-02 -1.0668965475631717e+01 -7.5092685070847111e+01 5.9218242364816206e+01 -7.4916723772813157e+01 7.6392858764663785e+01 -9.7733677074604564e-02 -8.0067708558277229e+00
1.1299999999999999e+00 -2.6057437032761102e-02 -1.0747237880375598e+01 -7.6268390715137997e+01 1.0206193473473719e+02 -7.0707126110745605e+01 3.7039866861127635e+01 -9.7317225447205336e-02 -8.0830599479732097e+00
1.1399999999999999e+00 -2.6576959464908418e-02 -1.0836888701393518e+01 -7.3385629343792317e+01 8.8098233634849379e+01 -7.3725939183761511e+01 7.3337051263685566e+01 -9.7440770258745563e-02 -8.1467596577015353e+00
1.1499999999999999e+00 -2.7184007604307805e-02 -1.0933853966568796e+01 -7.4202356981954040e+01 4.8308202279875147e+01 -7.6963526484248078e+01 5.4324053671528931e+00 -9.8273608139952062e-02 -8.2278705777131496e+00
1.1599999999999999e+00 -2.7486709466787621e-02 -1.1037170312879800e+01 -9.3386058156187062e+01 -3.0477492456757510e-01 -7.0838435297646328e+01 9.2179251493906719e+01 -9.7700936965793073e-02 -8.2868256369475990e+00
1.1699999999999999e+00 -2.7456609867331210e-02 -1.1127566223033810e+01 -7.7325671991822304e+01 4.0688173245101936e+01 -7.0998656614038367e+01 5.8604573722728617e+01 -9.8275935123078750e-02 -8.3593303194147150e+00
1.1799999999999999e+00 -2.7275634081548261e-02 -1.1220573060410283e+01 -7.5864725551290817e+01 1.8834311721897691e+01 -8.1565824353039773e+01 5.3847221696036392e+01 -9.8663748203206808e-02 -8.4354472913605871e+00
1.1899999999999999e+00 -2.8077290368882082e-02 -1.1317493662332627e+01 -6.9514471355888887e+01 1.4127478264184717e+02 -7.6968659144792184e+01 9.0512280331943344e+01 -9.5946577164125177e-02 -8.5010683928771442e+00
1.2000000000000000e+00 -2.7879586629251888e-02 -1.1410282264070027e+01 -7.4027230602814143e+01 4.7191929124028213e+01 -7.6194918367149981e+01 6.9226130315653990e+01 -9.8733944519783567e-02 -8.5639102712194646e+00
1.2100000000000000e+00 -2.8661122285144995e-02 -1.1500254563762395e+01 -7.5066941810297124e+01 4.1060695022116747e+01 -7.1350203574393916e+01 7.6211404245357542e+01 -9.8351354422611031e-02 -8.6332811621011061e+00
1.2200000000000000e+00 -2.8469201312256380e-02 -1.1608090154620971e+01 -7.1183736766818512e+01 5.3048986205412568e+01 -6.9906250944812086e+01 7.2682161859644268e+01 -9.7882513256058623e-02 -8.7100935839701723e+00
1.2300000000000000e+00 -2.9081780520193969e-02 -1.1692580341213811e+01 -7.3474252346184770e+01 6.8436704632677149e+01 -7.4310025754234402e+01 8.9907898299666670e+01 -9.8929536824475819e-02 -8.7793817654527491e+00
1.2400000000000000e+00 -2.8350793864576045e-02 -1.1786951511934113e+01 -7.2502724790565495e+01 4.3405343470530767e+01 -7.3246231288450929e+01 8.0741282006581770e+01 -9.8977599063360427e-02 -8.8429365488779723e+00
1.2500000000000000e+00 -2.9245207695717271e-02 -1.1893351071934731e+01 -6.9477064413907669e+01 5.2841744666479130e+01 -7.6124162878277971e+01 6.9703580727192062e+01 -9.8930636984968665e-02 -8.9240705736177119e+00
1.2600000000000000e+00 -2.8468232832810879e-02 -1.1987491838493883e+01 -7.5498073598572660e+01 6.3539719790861071e+01 -7.6715418425206664e+01 8.5198805489377364e+01 -9.8080746607858815e-02 -8.9885665815664488e+00
1.2700000000000000e+00 -3.0274035978844892e-02 -1.2079805868585980e+01 -7.2682404230723435e+01 5.7461992109194846e+01 -7.0863903359096369e+01 8.6570416369494438e+01 -9.7794157582523078e-02 -9.0590582517295779e+00
1.2800000000000000e+00 -2.9338555652858513e-02 -1.2184689799845664e+01 -7.6224996265563036e+01 1.1548637731116425e+02 -7.7933728326465456e+01 9.6412640042283172e+01 -9.8320277380950921e-02 -9.1309847068627032e+00
1.2900000000000000e+00 -2.7787344144212418e-02 -1.2287808185613519e+01 -7.0796837259568818e+01 4.8440075047986880e+01 -7.5622967009727290e+01 5.2390344152145737e+01 -9.8497950194878475e-02 -9.2121009582559914e+00
1.3000000000000000e+00 -2.9255555312701478e-02 -1.2359320386073204e+01 -8.0070843308950316e+01 9.5551989380816480e+01 -7.5066575384651031e+01 5.3512023031874271e+01 -9.7729257558249585e-02 -9.2714306479926858e+00
1.3100000000000001e+00 -3.3273542229402722e-02 -1.2476338803669693e+01 -7.8325402514501548e+01 7.9423671424098785e+01 -7.1522430033256526e+01 7.1555046004574564e+01 -9.9022114701502878e-02 -9.3538636643121524e+00
1.3200000000000001e+00 -2.7681990316753738e-02 -1.2562943699407754e+01 -7.2526963472607633e+01 1.1453435853543769e+02 -7.6231368542231934e+01 6.7370138931520273e+01 -9.8829923486871432e-02 -9.4183327049524692e+00
1.3300000000000001e+00 -2.6605023172788865e-02 -1.2634748702968611e+01 -7.0244383674162179e+01 7.1951539576008955e+01 -6.9766657558714584e+01 7.0795277796520182e+01 -9.9474295286882133e-02 -9.4867274946633877e+00
1.3400000000000001e+00 -4.5280952798760515e-02 -1.2634218417821444e+01 -7.2204577964144562e+01 7.5676451293587689e+01 -7.5366161019427409e+01 7.3627922929828287e+01 -1.1157711617496423e-01 -9.6188723741586077e+00
1.3500000000000001e+00 -3.1600474616366718e-02 -1.2845218254139276e+01 -7.4540170640769063e+01 6.4341984180476317e+01 -7.5346627733161739e+01 5.2458727029127921e+01 -9.8650516225195092e-02 -9.6283726582838955e+00
1.3600000000000001e+00 -3.2817757884496312e-02 -1.2972137697436512e+01 -7.1216239218658785e+01 9.1268705154285897e+01 -7.2064925437501827e+01 6.9299398802871067e+01 -9.7799344088617346e-02 -9.7044243883580315e+00
1.3700000000000001e+00 -2.9339752770754648e-02 -1.3042676504560930e+01 -7.7263647499988394e+01 6.4769479124352088e+01 -8.0828300460817232e+01 -1.2938715110039075e+01 -9.8375859008299316e-02 -9.7822582266319831e+00
1.3799999999999999e+00 -3.1282053038936004e-02 -1.3141972142401752e+01 -6.9957539493080759e+01 8.3298240106501126e+01 -7.2182568049968992e+01 7.8926492094970286e+01 -9.8218392320924386e-02 -9.8463185879991748e+00
1.3899999999999999e+00 -3.0774087000159513e-02 -1.3240879033870513e+01 -6.9748388557100782e+01 9.1199363399344094e+01 -7.0208001080904566e+01 6.4195590067532422e+01 -9.7586181321478699e-02 -9.9259607402601926e+00
1.3999999999999999e+00 -3.1856432407163425e-02 -1.3336340037565654e+01 -7.4932927319524964e+01 7.5696155775143950e+01 -6.8464071942590607e+01 6.7035605848743074e+01 -9.6922890543537643e-02 -9.9906235319674561e+00
1.4099999999999999e+00 -3.2457266066558008e-02 -1.3442978806710267e+01 -7.3376561412283081e+01 9.2333178627977901e+01 -7.6086583217456010e+01 6.3932353603931404e+01 -9.7431550850445414e-02 -1.0068291516171621e+01
1.4199999999999999e+00 -3.1791063364238335e-02 -1.3525457156121030e+01 -7.8955219488910672e+01 9.7200072348245783e+01 -7.3237394848587655e+01 8.8851761887940711e+01 -9.7905510177628940e-02 -1.0138520949949669e+01
1.4299999999999999e+00 -3.2076586291354459e-02 -1.3619544134574470e+01 -6.9948550540328938e+01 7.3324220885931965e+01 -6.9752218611335138e+01 9.2847711146096643e+01 -9.8703937554522822e-02 -1.0208591149483663e+01
1.4399999999999999e+00 -3.1618254599959157e-02 -1.3730899397443872e+01 -7.5024512607756179e+01 1.0390553576928654e+02 -7.0813820689306496e+01 9.7144526340356236e+01 -9.8685170385888504e-02 -1.0283394840615738e+01
1.4500000000000000e+00 -3.2566301193302769e-02 -1.3835240580429531e+01 -6.8014898216597160e+01 8.2574930518535311e+01 -6.8730829624157479e+01 6.2323577886011520e+01 -9.8183939698300013e-02 -1.0353025774990304e+01
1.4600000000000000e+00 -3.1595723474321720e-02 -1.3913221756059109e+01 -7.3657510696933329e+01 4.8867134165585313e+01 -6.6442559449973800e+01 8.8577993657641272e+01 -9.7777154059714919e-02 -1.0427648858629642e+01
1.4700000000000000e+00 -3.2024362871204914e-02 -1.4011283423846045e+01 -7.3893759034005654e+01 8.2368577324136936e+01 -6.9754554227181785e+01 8.3259747874474272e+01 -9.7696663048032553e-02 -1.0500609379462274e+01
1.4800000000000000e+00 -3.2804157555509715e-02 -1.4114628393343819e+01 -6.7316753017788642e+01 8.3254027147605242e+01 -7.0220750524769272e+01 9.1693937783285747e+01 -9.8409052299760963e-02 -1.0573816274193318e+01
1.4900000000000000e+00 -3.3093539947791448e-02 -1.4211497447925838e+01 -6.8175807441772008e+01 8.1601875897005598e+01 -7.0118697027046878e+01 6.6973365832621440e+01 -9.8107597794249227e-02 -1.0641472847991928e+01
1.5000000000000000e+00 -3.2864031116625336e-02 -1.4322082213189162e+01 -7.0082922631964493e+01 7.9749825523468573e+01 -6.6341704173987864e+01 8.9820776344574483e+01 -9.8456059763283879e-02 -1.0715816469535538e+01
1.5100000000000000e+00 -3.3783142051478289e-02 -1.4410164967973909e+01 -7.3594409765194811e+01 9.2216794515118522e+01 -7.4190633099897823e+01 7.2042358689274010e+01 -9.7755300652631591e-02 -1.0794907636632411e+01
1.5200000000000000e+00 -3.3914217382786251e-02 -1.4500228234496880e+01 -6.8752206722325539e+01 7.4613832601950520e+01 -6.9676319794938962e+01 5.8370348122483279e+01 -9.7825520841830160e-02 -1.0869376867137870e+01
1.5300000000000000e+00 -3.3149717070175347e-02 -1.4591092863186024e+01 -6.9471976559640055e+01 7.4632280983736550e+01 -6.9142798581451146e+01 1.0256817103919968e+02 -9.7608208266324950e-02 -1.0935948944332427e+01
1.5400000000000000e+00 -3.4135878657336693e-02 -1.4693898543259127e+01 -6.9317965002032409e+01 8.2950129668980225e+01 -7.0628618036423319e+01 9.1305538255154758e+01 -9.7489636865140894e-02 -1.1010805825114586e+01
1.5500000000000000e+00 -3.4155032081456045e-02 -1.4799344264960359e+01 -6.8252686925845879e+01 7.3832678733858387e+01 -7.1652206764048458e+01 9.6182190268655049e+01 -9.8143878089378897e-02 -1.1085895319797036e+01
1.5600000000000001e+00 -3.3405951209135275e-02 -1.4893203708724064e+01 -6.8862518562662103e+01 7.5520312238018477e+01 -7.2289593059172773e+01 1.0076803601845621e+02 -9.6737524644720463e-02 -1.1152610387338340e+01
1.5700000000000001e+00 -3.4186734081155259e-02 -1.4987137577142631e+01 -6.7894115106930741e+01 8.2014115016875095e+01 -6.5749689201297969e+01 9.5216144618871709e+01 -9.7604292368622614e-02 -1.1231693381051892e+01
1.5800000000000001e+00 -3.4072775313423391e-02 -1.5090657945460416e+01 -6.4069094966164585e+01 9.2706140428970670e+01 -6.7050128352696248e+01 9.5867287277337695e+01 -9.6422140795938471e-02 -1.1302644288474974e+01
1.5900000000000001e+00 -3.4444134927224271e-02 -1.5189688432269747e+01 -6.8519012168949132e+01 8.7770278713314440e+01 -6.7154484273137570e+01 8.4384437339496913e+01 -9.7593089663077309e-02 -1.1382181086345941e+01
1.6000000000000001e+00 -3.5200107562063591e-02 -1.5294394742124165e+01 -6.8996643076063023e+01 7.2490864381495939e+01 -6.6339433832899317e+01 7.5408426788801606e+01 -9.7233554835914837e-02 -1.1460088259737542e+01
1.6100000000000001e+00 -3.4794307173705602e-02 -1.5392781985969307e+01 -6.6008805710001340e+01 9.8872819948313634e+01 -6.7698881934778797e+01 5.6649517610860492e+01 -9.6867509839271962e-02 -1.1528929783976023e+01
1.6200000000000001e+00 -3.6823014592579251e-02 -1.5501148208219583e+01 -6.6084510900837230e+01 9.0762011492698107e+01 -6.5846628362385417e+01 8.1004003982304809e+01 -9.6871522880085117e-02 -1.1599320492642674e+01
1.6299999999999999e+00 -3.5699463515454576e-02 -1.5600908703854291e+01 -6.6458911098341304e+01 6.9844284220095901e+01 -6.5267496789879630e+01 1.0621507094633321e+02 -9.6840154354374153e-02 -1.1681670834071380e+01
1.6399999999999999e+00 -3.5390224354836235e-02 -1.5692217121480612e+01 -6.5003188572460488e+01 7.8466027638118177e+01 -6.4997299282201240e+01 9.1765279116211744e+01 -9.6197592108929267e-02 -1.1759447687344188e+01
1.6499999999999999e+00 -3.4505523145754648e-02 -1.5789334719723238e+01 -6.4008139708748530e+01 9.8347076537755868e+01 -6.6265576877069833e+01 9.5442440929073157e+01 -9.6477017302668028e-02 -1.1833491100089711e+01
1.6599999999999999e+00 -3.5462786459377102e-02 -1.5895779003076067e+01 -6.6455868334722666e+01 8.6172888527648809e+01 -6.3877495686448384e+01 6.2022991172934368e+01 -9.7873391462538289e-02 -1.1909524940124331e+01
1.6699999999999999e+00 -3.5724972622947389e-02 -1.6001065418842892e+01 -6.4422988391880224e+01 8.1337795372663123e+01 -6.6700860357294488e+01 7.7766222534487497e+01 -9.6141032542713778e-02 -1.1979916615092193e+01
1.6799999999999999e+00 -3.5435720892769945e-02 -1.6093824001021929e+01 -6.5383070691999293e+01 8.5569784766064174e+01 -6.5746816432630638e+01 8.6302341423636548e+01 -9.6745722139806478e-02 -1.2056619074207907e+01
1.6899999999999999e+00 -3.4909306412344882e-02 -1.6195163490947227e+01 -6.5597629171379538e+01 7.8453449727261827e+01 -6.6547726932038515e+01 6.7617899733686158e+01 -9.6250587055513148e-02 -1.2130442688281539e+01
1.7000000000000000e+00 -3.5341047039100779e-02 -1.6309768423284076e+01 -6.5406032485719237e+01 8.7787743012454470e+01 -6.2959522433821860e+01 7.3824590731007731e+01 -9.5836415194463981e-02 -1.2203748283484256e+01
1.7100000000000000e+00 -3.5825440719607998e-02 -1.6404839335077039e+01 -6.5500415133344177e+01 8.9664480551958519e+01 -6.4121734064521434e+01 9.1302629215803293e+01 -9.5367839325939952e-02 -1.2294243720946017e+01
1.7200000000000000e+00 -3.5433568447740330e-02 -1.6510731152694596e+01 -6.6444729247402009e+01 9.1848770465764318e+01 -6.3888332560855289e+01 8.2557646239824038e+01 -9.6239943461250019e-02 -1.2369252802880952e+01
1.7300000000000000e+00 -3.5245840587360459e-02 -1.6610148400800067e+01 -6.4439326698600141e+01 8.5670193671488860e+01 -6.4096123096856843e+01 8.0443637368203852e+01 -9.4802976469482506e-02 -1.2443409492600081e+01
1.7400000000000000e+00 -3.6088141032390872e-02 -1.6702977039379327e+01 -6.5319526150819598e+01 7.7262903494475594e+01 -6.5590316331825974e+01 8.1828925004235785e+01 -9.5434118646489485e-02 -1.2521905625600741e+01
1.7500000000000000e+00 -3.6616925459940067e-02 -1.6805921417245070e+01 -6.4261719151738504e+01 8.0577072643477905e+01 -6.3846413625351957e+01 8.5442952857642339e+01 -9.5823694736436316e-02 -1.2597994723388288e+01
1.7600000000000000e+00 -3.6726790054691191e-02 -1.6908366772990007e+01 -6.3878597708496166e+01 7.7339054545466965e+01 -6.2309897760008894e+01 8.7866523683802185e+01 -9.6184460668995789e-02 -1.2662082765360427e+01
1.7700000000000000e+00 -3.6293182846118439e-02 -1.7026904239963084e+01 -6.1970634345639809e+01 6.9286286261269083e+01 -6.6037356333526915e+01 9.0517266065558232e+01 -9.5119728863821681e-02 -1.2754659658994354e+01
1.7800000000000000e+00 -3.5677878122591551e-02 -1.7120446221821997e+01 -6.2428681452400838e+01 7.7497707983480865e+01 -6.1217927063314391e+01 8.0928123975239657e+01 -9.4602696917816462e-02 -1.2823753079037235e+01
1.7900000000000000e+00 -3.5564980635774721e-02 -1.7212705533427723e+01 -6.4502837270232888e+01 9.4087571723352241e+01 -6.1571438379811866e+01 7.1027733437308839e+01 -9.4828794887577034e-02 -1.2884071281754403e+01
1.8000000000000000e+00 -3.5828718972695656e-02 -1.7325088030604828e+01 -6.4280845605292967e+01 9.7939780423698593e+01 -6.5404018346624014e+01 8.9883972847287794e+01 -9.6543925773735148e-02 -1.2979189262270136e+01
1.8100000000000001e+00 -3.7596976131319133e-02 -1.7429092066388904e+01 -6.3589747425135108e+01 7.7820016241334912e+01 -6.2856985260021709e+01 6.8189895898675545e+01 -9.5303336787509518e-02 -1.3056618536701913e+01
1.8200000000000001e+00 -3.8248045693476000e-02 -1.7520670929852393e+01 -6.3152514376487126e+01 7.8515808118967001e+01 -6.1855010091238221e+01 7.5284483903131743e+01 -9.5518399544833321e-02 -1.3134172548215719e+01
1.8300000000000001e+00 -3.6490567214333733e-02 -1.7615914667826722e+01 -6.2573938664783867e+01 7.9473815740405968e+01 -6.5440962787799137e+01 9.1100790780873496e+01 -9.5279538339042430e-02 -1.3216855718901170e+01
1.8400000000000001e+00 -3.7576722471074686e-02 -1.7716684376247279e+01 -6.3121339816183664e+01 8.1637928604941294e+01 -6.1647963855910731e+01 8.3282311819315765e+01 -9.6381922026055306e-02 -1.3282090326167420e+01
1.8500000000000001e+00 -3.8520254554171365e-02 -1.7840164480322091e+01 -6.2542347959513727e+01 8.6741926810550822e+01 -6.3495944903475952e+01 7.9893947267199678e+01 -9.4382710269619779e-02 -1.3370202821234972e+01
1.8600000000000001e+00 -3.7216900843080540e-02 -1.7950612102476942e+01 -6.1957141917156939e+01 8.3861232262844638e+01 -6.4370091866530800e+01 8.9165383239982035e+01 -9.6123271667668903e-02 -1.3452885944648889e+01
1.8700000000000001e+00 -3.6997723513475612e-02 -1.8053403943911277e+01 -6.2487899502679902e+01 7.8358629281656860e+01 -6.1069573814881736e+01 6.1016722449798415e+01 -9.6074356667669947e-02 -1.3534828786340540e+01
1.8799999999999999e+00 -3.7728722323411248e-02 -1.8151612769950201e+01 -6.2193998087111751e+01 7.5401977339581705e+01 -6.3419139599348114e+01 9.1904013653805492e+01 -9.6378771984785783e-02 -1.3601115753999002e+01
1.8899999999999999e+00 -3.7485698018660293e-02 -1.8250763011321030e+01 -6.0523774940901312e+01 8.3287778585646279e+01 -6.1946724817286032e+01 7.3389140938508064e+01 -9.5802577735085825e-02 -1.3673113550661794e+01
1.8999999999999999e+00 -3.7914936222525120e-02 -1.8361341582188597e+01 -6.3027364402880295e+01 7.0495100939489262e+01 -6.1716061818543125e+01 9.0804568543726106e+01 -9.4679018883188068e-02 -1.3761403141876812e+01
1.9099999999999999e+00 -3.9254629614055139e-02 -1.8472177583508586e+01 -6.1753071611615205e+01 7.7687718620529296e+01 -6.2084934153306349e+01 7.5264765307402740e+01 -9.4822289853793720e-02 -1.3842158391421084e+01
1.9199999999999999e+00 -3.8049537081009180e-02 -1.8579431196045824e+01 -6.2409654879956413e+01 7.9505796178769060e+01 -6.2033872067612293e+01 8.4054390678082711e+01 -9.5387359522788331e-02 -1.3930570633423017e+01
