# MHz S DB R 50
1.0000000000000000e+00 -2.4707511492922541e-02 -9.5357821525559441e+00 -8.2264769880131837e+01 4.2411321018331932e+01 -7.7834557567545318e+01 -1.3180642580886335e+01 -9.9522366546406893e-02 -7.1632546518145661e+00
1.0100000000000000e+00 -2.4580901263093542e-02 -9.6196553047783695e+00 -7.8659204725384043e+01 8.6745506687036325e+01 -7.0773786776603146e+01 7.7814323453401499e+01 -9.8839804866328457e-02 -7.2290042905044185e+00
1.0200000000000000e+00 -2.6344254677852633e-02 -9.7269527471234820e+00 -7.5902842168871814e+01 9.2410011702087616e+01 -7.4048538496605516e+01 1.1311710849501931e+02 -9.8815548660724631e-02 -7.3033926373541984e+00
1.0300000000000000e+00 -2.4743140472147290e-02 -9.8027530771318947e+00 -7.9821352429841070e+01 1.0661656034034063e+01 -7.1677865552944425e+01 5.3529293449434704e+01 -9.9467514088034698e-02 -7.3735832449824841e+00
1.0400000000000000e+00 -2.4624537737213376e-02 -9.9038244660668315e+00 -7.5333909759941690e+01 9.9511338027265566e+01 -7.4415677781563033e+01 5.6826234777406128e+01 -9.9030764626998669e-02 -7.4446701968845748e+00
1.0500000000000000e+00 -2.5519282602391995e-02 -9.9944373960396806e+00 -7.6713294455264702e+01 7.4259341719414252e+01 -7.8296895075518762e+01 9.1650876808517637e+01 -9.9105225290742407e-02 -7.5126129727277604e+00
1.0600000000000001e+00 -2.6278290318682507e-02 -1.0096174963529750e+01 -7.7975719285438871e+01 4.8152987777854435e+01 -7.4340229195884802e+01 1.0163112683912874e+02 -9.9803185804294162e-02 -7.5787166306937861e+00
1.0700000000000001e+00 -2.6164991594772855e-02 -1.0195449171886223e+01 -7.4160819205928874e+01 2.9569790984123397e+01 -7.1276178227361001e+01 5.3632698429121582e+01 -9.9463934958481395e-02 -7.6500940938454702e+00
1.0800000000000001e+00 -2.6731563429024184e-02 -1.0284151673534724e+01 -8.4470728955409527e+01 8.1472500495253414e+01 -7.0960314015025943e+01 4.4243970976943181e+01 -9.9775265377016628e-02 -7.7222678772529072e+00
1.0900000000000001e+00 -2.5955658615082221e-02 -1.0374217378380504e+01 -7.8914139818074261e+01 9.2373816626011234e+01 -7.1268439702344097e+01 7.6280574115373199e+01 -9.9459307793560006e-02 -7.7937024451724062e+00
1.1000000000000001e+00 -2.5679241326819174e-02 -1.0463966712178475e+01 -7.0551884868653360e+01 8.0453608427016491e+01 -8.5853217927146531e+01 -1.7382826326569588e+02 -9.8935030162568285e-02 -7.8591246808908535e+00
1.1100000000000001e+00 -2.6364579581754220e-02 -1.0561707046399295e+01 -7.0113426697957607e+01 5.2177389645238058e+01 -7.9866784072030512e+01 1.1255717147844973e+02 -9.9124878255871407e-02 -7.9175963386579822e+00
1.1200000000000001e+00 -2.6825980399913067e-02 -1.0657194085860063e+01 -7.3882630795797127e+01 4.7638666323579400e+01 -7.3618408028188256e+01 7.3473263608197712e+01 -9.9967865020938046e-02 -8.0000966514322371e+00
1.1299999999999999e+00 -2.6478414084311511e-02 -1.0745304929396655e+01 -7.5560087153879593e+01 9.2961866675067938e+01 -7.0451934566270495e+01 3.7253742604340616e+01 -9.9602986964264451e-02 -8.0744082931388537e+00
1.1399999999999999e+00 -2.7110570526434903e-02 -1.0846484758954992e+01 -7.1104294706351482e+01 9.2647088214085088e+01 -7.1585928098875883e+01 5.7504032483012750e+01 -9.9794238502283417e-02 -8.1353259377854137e+00
1.1499999999999999e+00 -2.7278224070749577e-02 -1.0943903557879748e+01 -7.2278711486066754e+01 4.8815809879878231e+01 -7.5784725492977842e+01 1.0147053130431345e+01 -1.0059054400927625e-01 -8.2105687871917663e+00
1.1599999999999999e+00 -2.8443953461767056e-02 -1.1040481581126327e+01 -8.3812494754828265e+01 4.9963687742645455e+01 -7.0095186448857589e+01 9.0077977563019829e+01 -1.0039585168400447e-01 -8.2772377491783828e+00
1.1699999999999999e+00 -2.7330160750290194e-02 -1.1121596829387428e+01 -7.4306074315318668e+01 4.0191837087236244e+01 -6.9878024886181564e+01 6.3850922207961041e+01 -1.0074395056601911e-01 -8.3510485095356515e+00
1.1799999999999999e+00 -2.6956153785127019e-02 -1.1224601155012842e+01 -7.3686303540915105e+01 3.9609683686877538e+01 -7.6267045430274422e+01 5.8685728721751943e+01 -1.0032563431672857e-01 -8.4231984123025612e+00
1.1899999999999999e+00 -2.7228527450594855e-02 -1.1311353462424618e+01 -6.8735759786086462e+01 1.0735616230407136e+02 -8.0121979239309468e+01 8.4875366216743046e+01 -9.8752325698493529e-02 -8.4907241057808154e+00
1.2000000000000000e+00 -2.8477095483904556e-02 -1.1415238239945324e+01 -7.0385463232880838e+01 6.1643876833332044e+01 -7.4895404562187920e+01 7.3779555729216327e+01 -9.9961724572873778e-02 -8.5595002325562906e+00
1.2100000000000000e+00 -2.9002653444607954e-02 -1.1498783326467963e+01 -7.4630052630256728e+01 4.5597444426897553e+01 -7.0739074082474588e+01 7.3517699653415107e+01 -1.0042351081302978e-01 -8.6250588331420559e+00
1.2200000000000000e+00 -2.9350071485750064e-02 -1.1597188650438003e+01 -7.0218830244517846e+01 5.2052764376044642e+01 -6.9670859038341561e+01 6.8318883455694035e+01 -1.0020640363064352e-01 -8.6947627019483118e+00
1.2300000000000000e+00 -2.9387548395652333e-02 -1.1692519716749004e+01 -7.1627132631449527e+01 6.2699399756778789e+01 -7.2441605561789800e+01 8.7226519306390642e+01 -1.0136840714202297e-01 -8.7754367191889955e+00
1.2400000000000000e+00 -2.8532402959633409e-02 -1.1796033498914806e+01 -7.2386296819877288e+01 4.6424721996640486e+01 -7.1756115993945215e+01 7.4910937367665127e+01 -1.0069612435642425e-01 -8.8364475518508527e+00
1.2500000000000000e+00 -2.9549141729794132e-02 -1.1887037138768845e+01 -6.9188095278326358e+01 5.1362553191111111e+01 -7.5203650634583525e+01 7.8933199164614464e+01 -1.0101150650987584e-01 -8.9048366926617657e+00
1.2600000000000000e+00 -2.9356996686196492e-02 -1.1994562026050565e+01 -7.4031825752674919e+01 5.9047375839130432e+01 -7.4727874706452653e+01 7.7120279480281610e+01 -1.0101396673606795e-01 -8.9795939175150856e+00
1.2700000000000000e+00 -2.8867793235974347e-02 -1.2087549754080673e+01 -7.1353262319965509e+01 5.5026141397385359e+01 -6.9525730799130926e+01 8.4908167644471163e+01 -1.0015785586989925e-01 -9.0541873787960370e+00
1.2800000000000000e+00 -3.0504823917599649e-02 -1.2183012230568284e+01 -7.2407961691305388e+01 1.0356030464482789e+02 -7.6568749644569436e+01 7.3698786383983006e+01 -9.9449913358675340e-02 -9.1245588616094029e+00
1.2900000000000000e+00 -3.0477026737001651e-02 -1.2294446783663268e+01 -7.0492162193507411e+01 4.9596795432950842e+01 -7.3302283875758107e+01 6.4871341312465049e+01 -9.7876019350689861e-02 -9.2023590435515725e+00
1.3000000000000000e+00 -2.9530332427012397e-02 -1.2364091573718278e+01 -7.5930088432835760e+01 8.9513818486042396e+01 -7.2662616095888893e+01 6.3291048141886797e+01 -1.0046823369701005e-01 -9.2635592859447868e+00
1.3100000000000001e+00 -2.8211746248026102e-02 -1.2457825208876338e+01 -7.3592371021693964e+01 7.3736549850270023e+01 -7.0251365783020233e+01 7.2578553965145858e+01 -9.8215831494638112e-02 -9.3403904769860020e+00
1.3200000000000001e+00 -3.6263093564979934e-02 -1.2598681020407289e+01 -7.1114256813980120e+01 1.0336138903411087e+02 -7.2387199746148511e+01 6.5554407213768357e+01 -1.0213110641824083e-01 -9.3730214323418046e+00
1.3300000000000001e+00 -3.7880908240261746e-02 -1.2619533381413769e+01 -6.9078709076116297e+01 7.2046787081689331e+01 -6.8143301929477531e+01 7.5071950967726167e+01 -1.0587739681298644e-01 -9.5367310905364580e+00
1.3400000000000001e+00 -7.1032743066965581e-02 -1.2706063766783751e+01 -7.2258370979055542e+01 7.5127231342298145e+01 -7.3974486031680087e+01 8.4197091572494088e+01 -7.8416154440989275e-02 -9.5461854836316444e+00
1.3500000000000001e+00 -3.1610482479000994e-02 -1.2846438204302071e+01 -7.1968905393641307e+01 6.6639487400307047e+01 -7.3738384536299876e+01 6.3092713938863994e+01 -1.0117741202122132e-01 -9.6232155026516288e+00
1.3600000000000001e+00 -3.0855904734706702e-02 -1.2922456820770879e+01 -6.9267459202469070e+01 8.2819246690530591e+01 -7.1534272766521042e+01 6.7568348923361057e+01 -1.0239781904461331e-01 -9.6876464876452992e+00
1.3700000000000001e+00 -2.9027993988680095e-02 -1.3034023593793471e+01 -7.3136899821400249e+01 8.0745880337420047e+01 -7.8811748428397976e+01 1.6417933823652195e+01 -9.9812568052091641e-02 -9.7699345153201715e+00
1.3799999999999999e+00 -3.0728687440196710e-02 -1.3136670573855667e+01 -6.8549467167276646e+01 8.2200975228694048e+01 -7.0036714662308725e+01 7.7696190041973807e+01 -1.0089198911650511e-01 -9.8434087672103932e+00
1.3899999999999999e+00 -3.2369939677551210e-02 -1.3257449766732398e+01 -6.8760602676988739e+01 8.9373650716057853e+01 -6.8650798529520813e+01 6.4745033240799870e+01 -9.8333693275938494e-02 -9.9096623199490637e+00
1.3999999999999999e+00 -3.2121907057266572e-02 -1.3330796798634719e+01 -7.2454939808919917e+01 7.1800482558831931e+01 -6.7162689118115821e+01 7.0408687972342790e+01 -1.0078807596215522e-01 -9.9822553455102305e+00
1.4099999999999999e+00 -3.2465744142495659e-02 -1.3446351213181742e+01 -6.9847743543829040e+01 8.3604172285382489e+01 -7.3783456993522535e+01 7.1123846781029187e+01 -9.9357981199733603e-02 -1.0057826186272495e+01
1.4199999999999999e+00 -3.1935066836714848e-02 -1.3536765815693375e+01 -7.6007218214156879e+01 8.8396324551465426e+01 -7.0887168815753597e+01 8.1971830609900934e+01 -1.0058860390829044e-01 -1.0122981998521340e+01
1.4299999999999999e+00 -3.1979896900996778e-02 -1.3627357131226853e+01 -6.8362996040327744e+01 7.1160676737731805e+01 -6.8924422470034571e+01 9.3853470173333278e+01 -1.0072950957175829e-01 -1.0196467636366583e+01
1.4399999999999999e+00 -3.2130637588828954e-02 -1.3721822418819070e+01 -7.2144972410217932e+01 9.7232181194177713e+01 -6.8524142759099760e+01 8.7918596084684452e+01 -9.9623104608402097e-02 -1.0274503708087696e+01
1.4500000000000000e+00 -3.2870011789751477e-02 -1.3822885682456416e+01 -6.6313811676282967e+01 7.9325400302443171e+01 -6.6872954996336176e+01 6.7445110190077386e+01 -9.9938847391609562e-02 -1.0352396387545920e+01
1.4600000000000000e+00 -3.2268709832107598e-02 -1.3926682084579527e+01 -7.0390688921747397e+01 5.6429362397577677e+01 -6.5626415019171958e+01 8.6982486539261274e+01 -1.0015529659057690e-01 -1.0419977727971974e+01
1.4700000000000000e+00 -3.2910030593382822e-02 -1.4028386293250630e+01 -7.0167835009693647e+01 8.3680921261603260e+01 -6.8412455584488271e+01 8.1465848054609594e+01 -1.0019964592054098e-01 -1.0484162018038759e+01
1.4800000000000000e+00 -3.3107495132015059e-02 -1.4123330966954217e+01 -6.6183079751716733e+01 8.5251158407928557e+01 -6.7924120179724540e+01 9.0755797976481674e+01 -1.0069237482331125e-01 -1.0566735292607614e+01
1.4900000000000000e+00 -3.3708954028520456e-02 -1.4216958845787486e+01 -6.7726907658440581e+01 8.0094487998918936e+01 -6.7895449670514751e+01 7.4408228802951839e+01 -9.9703497765436813e-02 -1.0631168782978939e+01
1.5000000000000000e+00 -3.3336511769154149e-02 -1.4320411100336402e+01 -6.7814447572246351e+01 8.2362722254476324e+01 -6.5437913572782634e+01 9.3109555423249432e+01 -9.9751692676828235e-02 -1.0718581014638231e+01
1.5100000000000000e+00 -3.3464551061795508e-02 -1.4414736295687081e+01 -7.0397392458975744e+01 9.8115937760324201e+01 -7.1742690335105323e+01 7.1233491746524166e+01 -1.0028770904251411e-01 -1.0777073336562486e+01
1.5200000000000000e+00 -3.3695138299041860e-02 -1.4511327697176545e+01 -6.7783947651212443e+01 7.6134949705108681e+01 -6.7447184457054789e+01 6.3260058342533036e+01 -1.0024313010474070e-01 -1.0849694748042520e+01
1.5300000000000000e+00 -3.2690695503650190e-02 -1.4612025894874584e+01 -6.7897517136809739e+01 7.6854241731542174e+01 -6.7692107348849333e+01 9.8985159526257149e+01 -1.0043298576222895e-01 -1.0929944795276127e+01
1.5400000000000000e+00 -3.4401438164838344e-02 -1.4699523888598199e+01 -6.7476552093747657e+01 7.7913251933659637e+01 -6.8958275532076527e+01 8.4847473986758999e+01 -9.9056408287822723e-02 -1.0993728931510541e+01
1.5500000000000000e+00 -3.3728550262258780e-02 -1.4802803654094982e+01 -6.7283344714750513e+01 7.6547625151871955e+01 -6.9255729467809147e+01 9.4040137104335770e+01 -9.9721507748407184e-02 -1.1073613834181540e+01
1.5600000000000001e+00 -3.3171894289755054e-02 -1.4890888678715642e+01 -6.6342780952990182e+01 7.5617750264917547e+01 -6.9092702166141692e+01 1.0031864882972657e+02 -9.9864018999753307e-02 -1.1143888451974091e+01
1.5700000000000001e+00 -3.4093030612432219e-02 -1.4996879185135487e+01 -6.6113482413463089e+01 8.5737264740485656e+01 -6.4317313716209185e+01 9.2579877732173372e+01 -9.9644439377160693e-02 -1.1231226723486625e+01
1.5800000000000001e+00 -3.4182593509433472e-02 -1.5103451339471075e+01 -6.2717714727773327e+01 9.1541454525292593e+01 -6.5623934341015314e+01 9.0945489683510615e+01 -9.9291738952660635e-02 -1.1295054936138474e+01
1.5900000000000001e+00 -3.6030857495976822e-02 -1.5206827569032656e+01 -6.6359745919632132e+01 8.6896206248417585e+01 -6.5049851987153602e+01 8.1979894242525205e+01 -1.0008830386252485e-01 -1.1377253201906713e+01
1.6000000000000001e+00 -3.4477492434152157e-02 -1.5303316063386296e+01 -6.7761554128790891e+01 7.3269115587737588e+01 -6.4587395264203494e+01 7.6748704442951663e+01 -9.9600044073831245e-02 -1.1439527679202429e+01
1.6100000000000001e+00 -3.5078830825332967e-02 -1.5410776556212678e+01 -6.4108116397131070e+01 9.3531892925121767e+01 -6.5080481696894481e+01 6.5145911255835060e+01 -9.8581531304023903e-02 -1.1526462089083630e+01
1.6200000000000001e+00 -3.6493468943312353e-02 -1.5504615026469654e+01 -6.4206301490962872e+01 8.9764773229487105e+01 -6.3652969909144218e+01 8.2422375180856491e+01 -9.8406448586315420e-02 -1.1589627136343424e+01
1.6299999999999999e+00 -3.6596831616181935e-02 -1.5607882801850119e+01 -6.4348125013309399e+01 7.2228680130867630e+01 -6.3966408136421066e+01 1.0151792451792471e+02 -9.8510830549660949e-02 -1.1669425335507016e+01
1.6399999999999999e+00 -3.5640888649723979e-02 -1.5703099455038688e+01 -6.3573452169342026e+01 7.8848455854450336e+01 -6.3287640833646073e+01 9.3085572021390490e+01 -9.8880226426650689e-02 -1.1752122703113614e+01
1.6499999999999999e+00 -3.4965445255223188e-02 -1.5799550482707961e+01 -6.2433117062648229e+01 9.5231178919777832e+01 -6.4586873514329582e+01 9.2852714907234400e+01 -9.8119382298925251e-02 -1.1821775689408851e+01
1.6599999999999999e+00 -3.5693375322399044e-02 -1.5897253297165808e+01 -6.4981950442116442e+01 8.4162995713843813e+01 -6.2035066846996742e+01 6.5693060286640289e+01 -9.8611797810333301e-02 -1.1903963744175901e+01
1.6699999999999999e+00 -3.5893820162216969e-02 -1.5992941996085223e+01 -6.2582608340477307e+01 8.2331939168264213e+01 -6.4767291684093891e+01 7.9109106613113724e+01 -9.8427162385525624e-02 -1.1974765754535390e+01
1.6799999999999999e+00 -3.6196275204644322e-02 -1.6102280073884327e+01 -6.3644576009025414e+01 8.2277393624053843e+01 -6.3939356018963068e+01 8.6428143780376331e+01 -9.8376162046493257e-02 -1.2054384172006149e+01
1.6899999999999999e+00 -3.5358734522005747e-02 -1.6197426023102985e+01 -6.3354350627273995e+01 7.8924332341936818e+01 -6.4085997885512711e+01 7.2171870892248322e+01 -9.8350091061054412e-02 -1.2128689735219718e+01
1.7000000000000000e+00 -3.5865812994030868e-02 -1.6308407703108504e+01 -6.3549349964555823e+01 8.5893903578915427e+01 -6.1734565452698682e+01 7.5014595458507998e+01 -9.8793457089456999e-02 -1.2201984368202167e+01
1.7100000000000000e+00 -3.6164481348199370e-02 -1.6414077156894365e+01 -6.3794687980858207e+01 8.9488897603266651e+01 -6.2470108783954686e+01 9.1804990178477667e+01 -9.7804935520747982e-02 -1.2274891861504075e+01
1.7200000000000000e+00 -3.6667285937790665e-02 -1.6505050744736700e+01 -6.4475229622462052e+01 9.1981669211835808e+01 -6.2362148007809651e+01 8.3687126388866645e+01 -9.8068328353455858e-02 -1.2355593655279060e+01
1.7300000000000000e+00 -3.5062153514939291e-02 -1.6623304537525801e+01 -6.2566442262534025e+01 8.4952745427668276e+01 -6.2243166707107790e+01 8.0914069962320369e+01 -9.8232402333492133e-02 -1.2428451915384763e+01
1.7400000000000000e+00 -3.7260797867912671e-02 -1.6711595983635760e+01 -6.3729777252184228e+01 7.9471984678458014e+01 -6.3605986018608348e+01 8.4003099685527687e+01 -9.6903865351129881e-02 -1.2508926337960272e+01
1.7500000000000000e+00 -3.6835345754623612e-02 -1.6826515788639512e+01 -6.2281538249374499e+01 8.3192775145639573e+01 -6.1886681967231254e+01 8.4948384743766923e+01 -9.7212864052763498e-02 -1.2582778101981782e+01
1.7600000000000000e+00 -3.6332682201394934e-02 -1.6913642085747192e+01 -6.1741069493794491e+01 7.7297034392335888e+01 -6.1098414845692545e+01 8.9214743117090151e+01 -9.8014363578663791e-02 -1.2668040010366063e+01
1.7700000000000000e+00 -3.7262733220842024e-02 -1.7010394577895106e+01 -6.0919018554196541e+01 7.1689636179629204e+01 -6.3290905601728170e+01 8.5822445182258463e+01 -9.8065392674180685e-02 -1.2738601335928877e+01
1.7800000000000000e+00 -3.5336723725696129e-02 -1.7117600336440692e+01 -6.0846763521602497e+01 7.8909891458869353e+01 -5.9886016641437543e+01 8.1063653668525234e+01 -9.7622769927059261e-02 -1.2807858902757314e+01
1.7900000000000000e+00 -3.6039582659182806e-02 -1.7216793823974967e+01 -6.2511824929001143e+01 9.0223245873613862e+01 -6.0508477663503662e+01 7.0552511846157159e+01 -9.7829363255554427e-02 -1.2880550430915026e+01
1.8000000000000000e+00 -3.7066301790406792e-02 -1.7330570232442657e+01 -6.2184272798677142e+01 9.5172015677744213e+01 -6.2735809378473100e+01 8.8541747639612211e+01 -9.7829614974396462e-02 -1.2987354649471319e+01
1.8100000000000001e+00 -3.6736177162370515e-02 -1.7415943272082593e+01 -6.1570882501613710e+01 8.0034340644989726e+01 -6.1299844255240515e+01 7.0318682618944877e+01 -9.7833868863110546e-02 -1.3045789200769301e+01
1.8200000000000001e+00 -3.8077567013475463e-02 -1.7522682658793666e+01 -6.1216402496872561e+01 7.5248319749807010e+01 -6.0006513573484582e+01 7.6814570505230449e+01 -9.7929737716238585e-02 -1.3116213112330914e+01
1.8300000000000001e+00 -3.5718469358956881e-02 -1.7637780000647719e+01 -6.0843573244327487e+01 7.6757076715250705e+01 -6.2362476670146535e+01 8.5091373832244926e+01 -9.7620868123812710e-02 -1.3210821615536551e+01
1.8400000000000001e+00 -3.7822008814106030e-02 -1.7735861463306026e+01 -6.1141916678353383e+01 7.9289692142458023e+01 -6.0031560842348348e+01 8.3842940470054714e+01 -9.9001954621697807e-02 -1.3275556108352204e+01
1.8500000000000001e+00 -3.7532277841799196e-02 -1.7845538944112992e+01 -6.0538390400118836e+01 8.2124724436103165e+01 -6.0962585049927696e+01 7.3984254223290336e+01 -9.6344534059597337e-02 -1.3367290967068758e+01
1.8600000000000001e+00 -3.7438879812416226e-02 -1.7942820195232922e+01 -6.0027104132902885e+01 7.9391304900118456e+01 -6.1807590613493659e+01 8.4824003980922356e+01 -9.7915086551051980e-02 -1.3437089203467185e+01
1.8700000000000001e+00 -3.7319530407470124e-02 -1.8047143409772662e+01 -6.0008862818089341e+01 7.4506418126714735e+01 -5.8889999410518172e+01 6.0119123013020051e+01 -9.7660915317051539e-02 -1.3520535507088553e+01
1.8799999999999999e+00 -3.7497912591474170e-02 -1.8153982746491213e+01 -6.0228536180234329e+01 7.3258846244528300e+01 -6.1364108264094021e+01 8.3591180882045691e+01 -9.8459820085333355e-02 -1.3596858746551590e+01
1.8899999999999999e+00 -3.8272926950063513e-02 -1.8256384578821805e+01 -5.8422608893262513e+01 8.0766251952806940e+01 -5.9226653672307670e+01 7.1038597496836999e+01 -9.8210849561612287e-02 -1.3683724457107445e+01
1.8999999999999999e+00 -3.7458984918552866e-02 -1.8377450924490233e+01 -6.0918040608218512e+01 6.8963309176020744e+01 -5.9281587974259850e+01 8.4101751223687515e+01 -9.7305705370575021e-02 -1.3766028940744679e+01
1.9099999999999999e+00 -3.8849708967514662e-02 -1.8485693934026994e+01 -5.9544905207163382e+01 7.4825568046625094e+01 -5.9485756591514260e+01 7.5575945163948376e+01 -9.7728943053995973e-02 -1.3839906621162607e+01
1.9199999999999999e+00 -3.8068853679313584e-02 -1.8580111920874128e+01 -5.9722385453942060e+01 7.6245511708105539e+01 -5.9685784751004945e+01 8.0703921578475587e+01 -9.7306860713121515e-02 -1.3919290173716242e+01
