# MHz S DB R 50
1.0000000000000000e+00 -2.2231477145766843e-02 -9.4509127765820296e+00 -7.7611750230711053e+01 4.3688489899669669e+01 -7.5440743374279918e+01 1.4116249582201846e+01 -9.3683227915105888e-02 -7.1116350232413064e+00
1.0100000000000000e+00 -2.2293023555908092e-02 -9.5437769482890982e+00 -7.5594132938593091e+01 8.4021802661016991e+01 -6.9123763923356947e+01 7.2353458775827278e+01 -9.3172381383968550e-02 -7.1797325241118779e+00
1.0200000000000000e+00 -2.3603790358825757e-02 -9.6477432152736498e+00 -7.3832283826198932e+01 8.5872909740657917e+01 -7.2168924006526993e+01 9.9163162329736551e+01 -9.3980279902079855e-02 -7.2528823381857643e+00
1.0300000000000000e+00 -2.2743434688797914e-02 -9.7269475999826955e+00 -7.5899190440024924e+01 2.4069988476615020e+01 -6.9893826177726808e+01 5.0539977676065774e+01 -9.4040282624305721e-02 -7.3177181460061709e+00
1.0400000000000000e+00 -2.1966039114139926e-02 -9.8302216903410358e+00 -7.3417488787147519e+01 8.8191717563257455e+01 -7.2106744307770299e+01 5.4042367412603632e+01 -9.2961285780609595e-02 -7.3890905846841477e+00
1.0500000000000000e+00 -2.3320410932256393e-02 -9.9124172660375809e+00 -7.2406573422966588e+01 7.1740088133605710e+01 -7.5378771385987619e+01 8.1012750518354736e+01 -9.3619459665912730e-02 -7.4687829586153489e+00
1.0600000000000001e+00 -2.4046435341483402e-02 -1.0019535770779392e+01 -7.5838615243140580e+01 5.5407645408898432e+01 -7.3230774728082253e+01 8.3464280861673302e+01 -9.4409482836964195e-02 -7.5279201468022716e+00
1.0700000000000001e+00 -2.3864354367893095e-02 -1.0104110178751032e+01 -7.1751142158457384e+01 3.3584968857137035e+01 -6.9296328814862775e+01 5.6782232249952280e+01 -9.4173331057890178e-02 -7.6010256423848936e+00
1.0800000000000001e+00 -2.4357624295325050e-02 -1.0193663790415087e+01 -7.9458688055902357e+01 6.2472175875206204e+01 -7.0006700788498151e+01 4.8940196959474562e+01 -9.4463356767614137e-02 -7.6729556429262082e+00
1.0900000000000001e+00 -2.4417406509503359e-02 -1.0300392959356071e+01 -7.6816886785166801e+01 7.0571569324191543e+01 -7.0483705055931011e+01 7.7078075060861423e+01 -9.3976422266022833e-02 -7.7387317519603558e+00
1.1000000000000001e+00 -2.3711218926407412e-02 -1.0374457142098743e+01 -6.9014601974986107e+01 8.0363043081535096e+01 -8.7050451316923073e+01 1.1941556598577864e+02 -9.3877365453373399e-02 -7.8119507549034433e+00
1.1100000000000001e+00 -2.3941503905873272e-02 -1.0466277884990616e+01 -6.9197207571422368e+01 5.8220661130592660e+01 -7.6423962684780619e+01 9.5635414449996219e+01 -9.4859015262186985e-02 -7.8730198445606758e+00
1.1200000000000001e+00 -2.5387161589387662e-02 -1.0566331236570289e+01 -7.1652973419972909e+01 5.4971266847369712e+01 -7.2061691243395131e+01 6.7194262990166735e+01 -9.4142656674082101e-02 -7.9423549333340269e+00
1.1299999999999999e+00 -2.4746993141864349e-02 -1.0662658815034362e+01 -7.4436656696739732e+01 9.0531202787656611e+01 -6.8139945686711755e+01 3.9123955162711908e+01 -9.4185398729599218e-02 -8.0246912980725309e+00
1.1399999999999999e+00 -2.4863818907419583e-02 -1.0761344319364218e+01 -7.0477245364773196e+01 9.1200670963534137e+01 -6.9972859950098027e+01 5.5789328801975600e+01 -9.4309836609722128e-02 -8.0859979928156864e+00
1.1499999999999999e+00 -2.4558799596369873e-02 -1.0842725305503194e+01 -7.0046665227818849e+01 4.7448532255306738e+01 -7.2848112836939777e+01 2.3339195647206378e+01 -9.4876297722598701e-02 -8.1659135963140645e+00
1.1599999999999999e+00 -2.6650575649144734e-02 -1.0952978815359462e+01 -7.7416858678710682e+01 5.6875180377595683e+01 -6.8597078353627424e+01 8.0129608364647794e+01 -9.5430581316354332e-02 -8.2316466669424226e+00
1.1699999999999999e+00 -2.5431229953466836e-02 -1.1041008828609939e+01 -7.2868573647769850e+01 4.5802713955000669e+01 -6.8526595759030144e+01 6.1778761317305552e+01 -9.5346031716229532e-02 -8.3030995032093706e+00
1.1799999999999999e+00 -2.5497152984769001e-02 -1.1138038303929729e+01 -7.1721116476285047e+01 3.8581062565022833e+01 -7.4247191511695831e+01 5.9405958880888640e+01 -9.5772870772377505e-02 -8.3785264002804443e+00
1.1899999999999999e+00 -2.6048679470210698e-02 -1.1223826569783872e+01 -6.9825167313927238e+01 1.2301480451157677e+02 -7.1364069302300848e+01 7.7511488974729644e+01 -9.3464423768299165e-02 -8.4423881002214660e+00
1.2000000000000000e+00 -2.6475562870713360e-02 -1.1322973834570504e+01 -6.9794911301858860e+01 5.3719034851881155e+01 -7.2655866548155529e+01 6.3460889448486263e+01 -9.4927269476278150e-02 -8.5147740955461941e+00
1.2100000000000000e+00 -2.7631381530634679e-02 -1.1420397465989424e+01 -7.2040994476177787e+01 4.7045573282289396e+01 -6.8692111538586261e+01 7.0463563847754571e+01 -9.4634445921142216e-02 -8.5723523592354880e+00
1.2200000000000000e+00 -2.6541264323681101e-02 -1.1514060721514582e+01 -6.8376267809829400e+01 5.0455499013135601e+01 -6.8073232707375951e+01 6.4700287763271731e+01 -9.4785354287121926e-02 -8.6458938045919407e+00
1.2300000000000000e+00 -2.7716246428101943e-02 -1.1607087628732176e+01 -6.9931832754946214e+01 6.8398988159603491e+01 -7.0055230425076587e+01 8.8048308238192988e+01 -9.5015325341007512e-02 -8.7179062571516379e+00
1.2400000000000000e+00 -2.7322888280551558e-02 -1.1702602206240151e+01 -7.0828708299036151e+01 5.2919085093514283e+01 -7.0154452529382084e+01 7.1791854936507221e+01 -9.5831347691073404e-02 -8.7933184435771796e+00
1.2500000000000000e+00 -2.7176445179585208e-02 -1.1807475165500758e+01 -6.7383897290107285e+01 5.6281304671613917e+01 -7.1602360965541720e+01 7.0229878870495682e+01 -9.4718966736625054e-02 -8.8554559974540350e+00
1.2600000000000000e+00 -2.8265781427815880e-02 -1.1911814662187812e+01 -7.0831398488043050e+01 5.7232851596085169e+01 -7.2643583822889866e+01 8.2314591795613225e+01 -9.5699061226923579e-02 -8.9346766352720195e+00
1.2700000000000000e+00 -2.7391982797988094e-02 -1.1989351511460102e+01 -6.9094282337958262e+01 5.8286951594171590e+01 -6.8417080469634882e+01 7.8140544126861940e+01 -9.4507260915338481e-02 -9.0031086682742920e+00
1.2800000000000000e+00 -2.6407788693057006e-02 -1.2085874687899464e+01 -7.1175143429746285e+01 9.7256489177857148e+01 -7.2887508115009098e+01 7.0749566557384767e+01 -9.5400633058525003e-02 -9.0669487468812022e+00
1.2900000000000000e+00 -3.1313314964805550e-02 -1.2189557729699565e+01 -6.9261578501020026e+01 5.8645051893102540e+01 -7.0922571675900898e+01 6.8552031656569127e+01 -9.4631642250309830e-02 -9.1423619518060928e+00
1.3000000000000000e+00 -2.7474887507689619e-02 -1.2274214032447643e+01 -7.3933930188750921e+01 8.3790700675664127e+01 -7.0736689326202210e+01 5.5168244753137635e+01 -9.3994750309616071e-02 -9.2200602648660137e+00
1.3100000000000001e+00 -3.4863993756702572e-02 -1.2380920620768574e+01 -7.0832546448912495e+01 7.4232168244312561e+01 -6.7727325031587668e+01 6.9469760136657825e+01 -9.6368649656520422e-02 -9.2849725697432994e+00
1.3200000000000001e+00 -3.0490702882371518e-02 -1.2477917599806839e+01 -6.9451720301670562e+01 9.5326428467087140e+01 -7.1428583584757575e+01 7.5137792678086726e+01 -9.4309206933724909e-02 -9.3528763301664970e+00
1.3300000000000001e+00 -1.3780364375317366e-02 -1.2602015714118068e+01 -6.7526168705908191e+01 7.5253041086853983e+01 -6.7262917102166057e+01 7.3760611929223828e+01 -1.0290000154987593e-01 -9.4084484833586171e+00
1.3400000000000001e+00 -5.1120338553692087e-02 -1.2570580963135139e+01 -6.9212510533021558e+01 7.2403835990686417e+01 -7.0810720178297643e+01 8.6310785862773940e+01 -8.6332447347274840e-02 -9.6266516106765856e+00
1.3500000000000001e+00 -2.9625336985097468e-02 -1.2758947101954265e+01 -6.9333732108940765e+01 6.6454626908811321e+01 -6.9801637821749864e+01 6.0970982458392861e+01 -9.4678604654328272e-02 -9.5756708564038071e+00
1.3600000000000001e+00 -2.7588694436485400e-02 -1.2880934669908791e+01 -6.7492782682679589e+01 8.2134090027602781e+01 -6.8009063657366752e+01 6.9772849112453272e+01 -9.7488066489784947e-02 -9.6524798332959065e+00
1.3700000000000001e+00 -2.9327747753666589e-02 -1.2955396510742064e+01 -7.0834775144218298e+01 7.2003253035300617e+01 -7.6449806869025835e+01 3.8498299533233649e+01 -9.4346978503706283e-02 -9.7126305301633327e+00
1.3799999999999999e+00 -2.8863456066474100e-02 -1.3054141194420430e+01 -6.7307800362299673e+01 7.8864297068352059e+01 -6.8489914172157484e+01 8.0073116367545538e+01 -9.5431070895683881e-02 -9.7941243676197853e+00
1.3899999999999999e+00 -2.9759616596302278e-02 -1.3152487738439085e+01 -6.7190342390176227e+01 8.6238367848142929e+01 -6.7146272284340384e+01 6.6838837891996192e+01 -9.3339953590157732e-02 -9.8560176257749426e+00
1.3999999999999999e+00 -2.9555182483156285e-02 -1.3248759235582501e+01 -6.9587283056704990e+01 6.8875408042853280e+01 -6.5654385364328817e+01 7.1655648712224547e+01 -9.3692520819828012e-02 -9.9296733431142936e+00
1.4099999999999999e+00 -3.0036490250919912e-02 -1.3347965043856352e+01 -6.8841921542962851e+01 7.7249021326717326e+01 -7.0490228920207258e+01 7.5106168543738661e+01 -9.3212300594709974e-02 -1.0006254297932763e+01
1.4199999999999999e+00 -3.1067376589307388e-02 -1.3447843452837828e+01 -7.0873238274630225e+01 8.7129086428235397e+01 -6.8518728808399416e+01 8.2351119409487694e+01 -9.5662591175070130e-02 -1.0078939498268507e+01
1.4299999999999999e+00 -3.0019655066450528e-02 -1.3534237356273334e+01 -6.6394607299840345e+01 7.4394314608699034e+01 -6.6510109270944525e+01 8.8087446601950404e+01 -9.4484022781720342e-02 -1.0144710804650154e+01
1.4399999999999999e+00 -3.0173112182030296e-02 -1.3641399124887410e+01 -6.9698295697611186e+01 9.6071435618596098e+01 -6.7608724372632537e+01 9.3777881718763496e+01 -9.5245852024770816e-02 -1.0235024403218187e+01
1.4500000000000000e+00 -3.0649634372196442e-02 -1.3738318006230120e+01 -6.4860221369822156e+01 8.2540578980271547e+01 -6.4908759012838019e+01 7.0745336098226900e+01 -9.4304269810051244e-02 -1.0299379318408361e+01
1.4600000000000000e+00 -3.0302431601767141e-02 -1.3825444143675291e+01 -6.8498312572862602e+01 6.1580270325950963e+01 -6.4040205481976770e+01 8.6827214795571081e+01 -9.5286897586320279e-02 -1.0371524927993585e+01
1.4700000000000000e+00 -2.9597660559967043e-02 -1.3925197254102384e+01 -6.7873964950626885e+01 8.6770305003862930e+01 -6.6096414993018556e+01 8.2266603379821362e+01 -9.4419013593933718e-02 -1.0446210634219508e+01
1.4800000000000000e+00 -3.1019881423708203e-02 -1.4023960242259106e+01 -6.4461842398363245e+01 8.4704823600732155e+01 -6.5871395066308594e+01 8.4831120932706312e+01 -9.5217297082236044e-02 -1.0515049156463755e+01
1.4900000000000000e+00 -3.0428856535789528e-02 -1.4124933746358510e+01 -6.5083392977665653e+01 7.7615209498116073e+01 -6.6678397348933146e+01 7.2411498845497505e+01 -9.4521970914868622e-02 -1.0583578918388609e+01
1.5000000000000000e+00 -3.0222584382877667e-02 -1.4230208882548967e+01 -6.5601628460921845e+01 8.1363656748764996e+01 -6.3519470666075733e+01 9.0721821043926269e+01 -9.4733589201479187e-02 -1.0663501551834443e+01
1.5100000000000000e+00 -3.1586864298948927e-02 -1.4307367084578406e+01 -6.7899517530953162e+01 8.6778032051125194e+01 -6.8215097202448163e+01 7.6322331180771698e+01 -9.4499928633249727e-02 -1.0738842108522734e+01
1.5200000000000000e+00 -3.1538438381946823e-02 -1.4419321639205775e+01 -6.4990752900004495e+01 7.8274305049874386e+01 -6.5535368783123644e+01 6.5429164450382800e+01 -9.4215305669644922e-02 -1.0806846102613505e+01
1.5300000000000000e+00 -3.1087000790251149e-02 -1.4508310727253555e+01 -6.5207821828672820e+01 7.7393486308289098e+01 -6.5884169084655355e+01 9.3076307546009659e+01 -9.4565818528315318e-02 -1.0874075610735479e+01
1.5400000000000000e+00 -3.1595032766131008e-02 -1.4608508200871958e+01 -6.4975401586148635e+01 7.9250735077217684e+01 -6.6390663940243286e+01 8.6865934010904297e+01 -9.4530242056459907e-02 -1.0952273366699325e+01
1.5500000000000000e+00 -3.1767913533648939e-02 -1.4702056347755880e+01 -6.4732702147289842e+01 7.4784745688471375e+01 -6.6729810172520217e+01 8.7639886061187795e+01 -9.4339312588661933e-02 -1.1023480459764240e+01
1.5600000000000001e+00 -3.1826660174458406e-02 -1.4808755304998327e+01 -6.4287940708779004e+01 7.7487148464183107e+01 -6.6765666594275217e+01 9.4519822442423688e+01 -9.3885495950607453e-02 -1.1102251178612072e+01
1.5700000000000001e+00 -3.3009813214032312e-02 -1.4906407439127356e+01 -6.3957840385501555e+01 8.3348094711083888e+01 -6.2644540725800368e+01 8.9478441283474098e+01 -9.4221701564632110e-02 -1.1172406668538994e+01
1.5800000000000001e+00 -3.1783902332881767e-02 -1.5004002785843463e+01 -6.1423055300564997e+01 9.1077222199496504e+01 -6.3573445336466023e+01 8.8822129592342904e+01 -9.3006478845428953e-02 -1.1241745681105170e+01
1.5900000000000001e+00 -3.2907915558536463e-02 -1.5103837870470720e+01 -6.4311712569601852e+01 8.6849671831172074e+01 -6.2931326397916138e+01 8.1558233437281800e+01 -9.4418602305487043e-02 -1.1324665695818180e+01
1.6000000000000001e+00 -3.2660527379721416e-02 -1.5205538593398007e+01 -6.4856153903848835e+01 7.6734028309290906e+01 -6.2761985675883111e+01 7.5698200445587347e+01 -9.3798886229037620e-02 -1.1394126288197738e+01
1.6100000000000001e+00 -3.2165037676062866e-02 -1.5308935586132302e+01 -6.2382616493720150e+01 9.3598577394230716e+01 -6.3642107975796939e+01 6.9005185390857818e+01 -9.4146159148044167e-02 -1.1469756974611736e+01
1.6200000000000001e+00 -3.3375867226499698e-02 -1.5408254280710166e+01 -6.2252188286644454e+01 8.5700353196138209e+01 -6.2151387574945424e+01 8.1822720972400290e+01 -9.4289411421742297e-02 -1.1537529220605242e+01
1.6299999999999999e+00 -3.3921204310680242e-02 -1.5507676604158624e+01 -6.2529415117936580e+01 7.4460932270936951e+01 -6.1880007490089774e+01 9.9721237664208346e+01 -9.2841492338076759e-02 -1.1615654210178523e+01
1.6399999999999999e+00 -3.4069117089898904e-02 -1.5601439170741823e+01 -6.1923232045252341e+01 7.9930131312249799e+01 -6.1735750726353665e+01 8.7395054578027086e+01 -9.3361794954885322e-02 -1.1700600662590258e+01
1.6499999999999999e+00 -3.2199633620691351e-02 -1.5696746649342627e+01 -6.0901853732538754e+01 9.4566753796334922e+01 -6.2413941107613269e+01 9.0612400174558800e+01 -9.3680379585022400e-02 -1.1774000208670135e+01
1.6599999999999999e+00 -3.2632726796467483e-02 -1.5792481285100106e+01 -6.2691578777657817e+01 8.3233112454422496e+01 -6.0847216292978352e+01 6.7767945252140535e+01 -9.3844735314390859e-02 -1.1846837576326697e+01
1.6699999999999999e+00 -3.4008015281231499e-02 -1.5910347046468701e+01 -6.0791282182898350e+01 8.2177915744744311e+01 -6.2468670146222607e+01 7.7116845949451232e+01 -9.3170742954626129e-02 -1.1933553987143666e+01
1.6799999999999999e+00 -3.3721478522162729e-02 -1.6012330479684913e+01 -6.1530502232081560e+01 8.3274825446732621e+01 -6.1852025938006662e+01 8.4353053545965039e+01 -9.3593269570297705e-02 -1.1992474202948614e+01
1.6899999999999999e+00 -3.3372463426933049e-02 -1.6098520889108404e+01 -6.1474963784964572e+01 7.9446020317891538e+01 -6.2041537890550458e+01 7.4453644936204029e+01 -9.3456171747513639e-02 -1.2070944123859253e+01
1.7000000000000000e+00 -3.4461287346203309e-02 -1.6215613695855925e+01 -6.1571891001761010e+01 8.7007452116930324e+01 -5.9883505251733105e+01 7.6200245442182762e+01 -9.3686290974415831e-02 -1.2143510159175722e+01
1.7100000000000000e+00 -3.4305397573763094e-02 -1.6310664031597931e+01 -6.1339752652100273e+01 8.3087317280213682e+01 -5.9912682547198592e+01 8.5773919775897809e+01 -9.2801318010864914e-02 -1.2225290738153204e+01
1.7200000000000000e+00 -3.4612437092568900e-02 -1.6409724563720317e+01 -6.1820276195366269e+01 8.8282138539125526e+01 -5.9671749822508389e+01 8.0146169072537390e+01 -9.2483139197882758e-02 -1.2306994084317390e+01
1.7300000000000000e+00 -3.3189829502940714e-02 -1.6505973302066007e+01 -6.0501077554105819e+01 8.1720229217808864e+01 -5.9966161271846929e+01 7.9377840818247705e+01 -9.3322076074179014e-02 -1.2367683742995100e+01
1.7400000000000000e+00 -3.4045853820010151e-02 -1.6627055878509942e+01 -6.0751566919892028e+01 7.7327817104638299e+01 -6.0605001490423263e+01 7.8422592331576425e+01 -9.1773720005034962e-02 -1.2460431971398995e+01
1.7500000000000000e+00 -3.4495514752190752e-02 -1.6726042027583837e+01 -6.0278590144407346e+01 7.6664465642578165e+01 -5.9525478320488304e+01 8.2090747190283025e+01 -9.2961538842829511e-02 -1.2535318641209479e+01
1.7600000000000000e+00 -3.4493814771186765e-02 -1.6820668816189595e+01 -5.9683872982085397e+01 7.4971959287177270e+01 -5.9056812382159379e+01 8.6271579493132649e+01 -9.2209306915145409e-02 -1.2600671989942715e+01
1.7700000000000000e+00 -3.4396459254854905e-02 -1.6919149892399879e+01 -5.8448417427038251e+01 7.1193644388810142e+01 -6.0548403897301299e+01 8.4914650061378552e+01 -9.2355401303826898e-02 -1.2694137439966052e+01
1.7800000000000000e+00 -3.3725188553103080e-02 -1.7017326481584796e+01 -5.8884671886743533e+01 7.4444288947783377e+01 -5.7842573723319397e+01 7.5582110690317421e+01 -9.1515726226048519e-02 -1.2754214665543122e+01
1.7900000000000000e+00 -3.4157259194658687e-02 -1.7125640534655826e+01 -5.9977631109525589e+01 8.4954756491469539e+01 -5.7911371138917360e+01 6.9825297189291916e+01 -9.2697998822854955e-02 -1.2832733433533479e+01
1.8000000000000000e+00 -3.4623366755006699e-02 -1.7217082899539669e+01 -6.0373844255554793e+01 8.8827469772769419e+01 -5.9856899248855001e+01 8.3283645470218133e+01 -9.2510954662836029e-02 -1.2923781759345104e+01
1.8100000000000001e+00 -3.5269321500759315e-02 -1.7338236427087242e+01 -5.9167325255436374e+01 7.8317070866778963e+01 -5.8530173108553988e+01 7.0878165048258126e+01 -9.1949290153538768e-02 -1.2998649698730029e+01
1.8200000000000001e+00 -3.5638067553414483e-02 -1.7447784226949530e+01 -5.8615053544288998e+01 7.4444979676930302e+01 -5.7976470034965580e+01 7.4569334423312682e+01 -9.2958909855317143e-02 -1.3068926652324555e+01
1.8300000000000001e+00 -3.4119749886196753e-02 -1.7535199508288088e+01 -5.8376106710925349e+01 7.6374551283511579e+01 -5.9656227655688639e+01 8.4856325177394240e+01 -9.2041598312304060e-02 -1.3155412558780863e+01
1.8400000000000001e+00 -3.5501697732664261e-02 -1.7634700800665534e+01 -5.8850645287819169e+01 7.5702590327261703e+01 -5.7695582785611961e+01 7.8735204368738280e+01 -9.2582094904009857e-02 -1.3229393397574317e+01
1.8500000000000001e+00 -3.5999447935592337e-02 -1.7752849916163257e+01 -5.8078322258679698e+01 8.1788722746919348e+01 -5.8701023479430191e+01 7.5329259358637970e+01 -9.1106720363546279e-02 -1.3306514754029308e+01
1.8600000000000001e+00 -3.5297682271568272e-02 -1.7852747058690749e+01 -5.7875994321285482e+01 7.9232438089792979e+01 -5.9016138696376998e+01 7.9456678435844992e+01 -9.3027900439177635e-02 -1.3393963637179843e+01
1.8700000000000001e+00 -3.5216760924964230e-02 -1.7966808472382649e+01 -5.8070276238139300e+01 7.7044290620712346e+01 -5.7104390857305702e+01 6.2998657700973951e+01 -9.2207066904778312e-02 -1.3471474103348871e+01
1.8799999999999999e+00 -3.5397071255894808e-02 -1.8069851174464247e+01 -5.8148822678360368e+01 7.2323400098937910e+01 -5.8716744850742224e+01 8.3071038720560210e+01 -9.2809593282905722e-02 -1.3539416582517989e+01
1.8899999999999999e+00 -3.5739480023142957e-02 -1.8158553295561290e+01 -5.6949289870386657e+01 8.1600667236387565e+01 -5.7485226384596196e+01 7.1311980178859315e+01 -9.3025809927900230e-02 -1.3613708913397383e+01
1.8999999999999999e+00 -3.6166410757937223e-02 -1.8264959660506658e+01 -5.8333704621935794e+01 7.1214154175909641e+01 -5.7650909072452720e+01 8.1649474750865707e+01 -9.1814064427309577e-02 -1.3711434149780201e+01
1.9099999999999999e+00 -3.6714236939377323e-02 -1.8374704868288234e+01 -5.7380830523729685e+01 7.4699216633855585e+01 -5.7409385129251575e+01 7.3988360787498550e+01 -9.1369571188221047e-02 -1.3789626536732314e+01
1.9199999999999999e+00 -3.5672074334691252e-02 -1.8469688037996029e+01 -5.7839232054904038e+01 7.5855624537614830e+01 -5.7623115394400806e+01 7.8076856470812174e+01 -9.1631078202032340e-02 -1.3867779887877250e+01
