# MHz S DB R 50
1.0000000000000000e+00 -2.3704542656296256e-02 -9.5542306122081690e+00 -8.1424625981225134e+01 3.7463987764144257e+01 -7.8008884381591187e+01 -1.2072155021092556e+01 -1.1480513185419380e-01 -7.2817818112906618e+00
1.0100000000000000e+00 -2.4568323542260351e-02 -9.6536884615603356e+00 -7.8063715191118078e+01 9.8591534463139297e+01 -7.1301697119344936e+01 6.9068737102846796e+01 -1.1412234020942327e-01 -7.3522499316942307e+00
1.0200000000000000e+00 -2.4531870097649754e-02 -9.7405491617296480e+00 -7.5917304363902787e+01 1.0286201194693338e+02 -7.4250937953678701e+01 1.0671998199402903e+02 -1.1476509853272406e-01 -7.4199225032139591e+00
1.0300000000000000e+00 -2.4563455837917629e-02 -9.8365907428105839e+00 -8.0715975362724990e+01 2.3319196319459657e+01 -7.2516012231503439e+01 5.5230302046681288e+01 -1.1522906665158034e-01 -7.4912425022618736e+00
1.0400000000000000e+00 -2.5602717294379074e-02 -9.9304487026269417e+00 -7.6263475541650948e+01 1.0639205401973345e+02 -7.4568672093212726e+01 4.8129776808568671e+01 -1.1384824387570476e-01 -7.5676614473542436e+00
1.0500000000000000e+00 -2.4991176710787752e-02 -1.0022169913271682e+01 -7.5446370135213016e+01 7.2613282980193688e+01 -7.8597904492804318e+01 9.6682062737303880e+01 -1.1485657802502988e-01 -7.6373810136273512e+00
1.0600000000000001e+00 -2.5839193909665222e-02 -1.0122447082497153e+01 -7.8763207801198249e+01 3.5811680961330154e+01 -7.5634696332923724e+01 1.0190396347948305e+02 -1.1520363657530455e-01 -7.7014736528887440e+00
1.0700000000000001e+00 -2.5082441645954152e-02 -1.0204459155960578e+01 -7.4822482919145656e+01 4.5186608896278280e+01 -7.2152453780013673e+01 5.8692151179081151e+01 -1.1602805560363497e-01 -7.7767885972525947e+00
1.0800000000000001e+00 -2.5804560643271236e-02 -1.0309691841858102e+01 -8.3461621413489979e+01 9.1628652654334616e+01 -7.1476456649855734e+01 3.8012339556535061e+01 -1.1584761960331680e-01 -7.8435031124526722e+00
1.0900000000000001e+00 -2.5795251479791215e-02 -1.0400100201553858e+01 -8.0251793809731168e+01 6.5902054234887913e+01 -7.2669335719018903e+01 7.7176553928079088e+01 -1.1464408853756462e-01 -7.9124363476432213e+00
1.1000000000000001e+00 -2.5660503977486329e-02 -1.0490766690385598e+01 -7.1666991794982550e+01 8.3573364094837160e+01 -8.6884246892580691e+01 1.7644500294670416e+02 -1.1454993232425206e-01 -7.9791183757405042e+00
1.1100000000000001e+00 -2.6196693269782915e-02 -1.0585880577649915e+01 -7.0446741142183043e+01 6.2221141461731946e+01 -7.9425883594011324e+01 1.1171345463930255e+02 -1.1570494110517504e-01 -8.0508088448133694e+00
1.1200000000000001e+00 -2.6871712682162045e-02 -1.0679080292068537e+01 -7.4409347368905841e+01 6.0049964209171172e+01 -7.4494556847816156e+01 7.4805136856201329e+01 -1.1521523358675481e-01 -8.1158458928357362e+00
1.1299999999999999e+00 -2.5534352380479186e-02 -1.0765922382050217e+01 -7.8029300859206060e+01 9.5934928368093850e+01 -7.0094546340645792e+01 3.9728512938551027e+01 -1.1594941623546093e-01 -8.1984676287599001e+00
1.1399999999999999e+00 -2.7054628211527942e-02 -1.0865529846291256e+01 -7.1973570018876686e+01 9.6608405991717831e+01 -7.2098074782769018e+01 6.1815097072922349e+01 -1.1575129879140100e-01 -8.2580686786583151e+00
1.1499999999999999e+00 -2.6545354951966364e-02 -1.0958603678730309e+01 -7.1396398481610476e+01 4.2689497481692122e+01 -7.4042185037208057e+01 1.1418166153966913e+01 -1.1678928215967667e-01 -8.3376190298670938e+00
1.1599999999999999e+00 -2.7825674528464607e-02 -1.1070733437244527e+01 -8.3866087294961119e+01 3.3290096315859977e+01 -7.0470497951330231e+01 9.2734977012829319e+01 -1.1622021745541813e-01 -8.4044623639648020e+00
1.1699999999999999e+00 -2.7248254467994133e-02 -1.1146443228690215e+01 -7.6770584937953188e+01 4.6928189631977745e+01 -6.9987227982314963e+01 6.6091649906696702e+01 -1.1631043118573810e-01 -8.4721209219053879e+00
1.1799999999999999e+00 -2.6754800229609237e-02 -1.1245395891411583e+01 -7.3311741729281209e+01 3.9287152466530650e+01 -7.5742205413028614e+01 5.1128844047693569e+01 -1.1604733809092536e-01 -8.5446509408474629e+00
1.1899999999999999e+00 -2.6814656521855860e-02 -1.1326098524992769e+01 -6.9750205141243185e+01 1.0669696992175558e+02 -7.9700902917294357e+01 9.9789791500108308e+01 -1.1405683459883194e-01 -8.6153524016760681e+00
1.2000000000000000e+00 -2.8425371416468968e-02 -1.1432847788751053e+01 -7.2447170317992416e+01 6.0255826829149512e+01 -7.4524305905945042e+01 6.9889773114771614e+01 -1.1737852758001563e-01 -8.6855505257480932e+00
1.2100000000000000e+00 -2.8650496801352860e-02 -1.1527628656257576e+01 -7.3456482388785432e+01 3.7866248354376722e+01 -7.0376069900265961e+01 7.2841979100673086e+01 -1.1599306403985411e-01 -8.7464691094383724e+00
1.2200000000000000e+00 -2.8237108530613477e-02 -1.1619007431107541e+01 -7.0873321565346032e+01 4.5864841719789588e+01 -6.9758126684860969e+01 6.7144361090463150e+01 -1.1701364006837417e-01 -8.8108110758292568e+00
1.2300000000000000e+00 -3.0004977824912078e-02 -1.1719806712467662e+01 -7.1969332630818741e+01 6.7529163204949427e+01 -7.3675410164981130e+01 8.6467818152071516e+01 -1.1672438020119896e-01 -8.8958055320645126e+00
1.2400000000000000e+00 -2.8044265327807974e-02 -1.1816579901181468e+01 -7.2364058825877066e+01 4.3010285481994210e+01 -7.1952322524234631e+01 7.5765396493782205e+01 -1.1693530585804901e-01 -8.9623754378493548e+00
1.2500000000000000e+00 -2.8030098921668731e-02 -1.1919069108962253e+01 -6.8427614196818098e+01 5.5424605202488785e+01 -7.4925750151775631e+01 7.2856073866855056e+01 -1.1646245023263435e-01 -9.0300506806894933e+00
1.2600000000000000e+00 -2.8375676675775580e-02 -1.2009931520300972e+01 -7.3546690031892069e+01 6.3558191572446390e+01 -7.5432381358590334e+01 7.5193025845361888e+01 -1.1558390723574924e-01 -9.1036670800529489e+00
1.2700000000000000e+00 -2.8738945244369971e-02 -1.2104372198770772e+01 -7.1036832948462802e+01 5.8511462239300393e+01 -7.0938962640339810e+01 8.2170098802828548e+01 -1.1618894001791392e-01 -9.1746609555802632e+00
1.2800000000000000e+00 -3.0013905303789005e-02 -1.2206207863022188e+01 -7.4746746176637316e+01 1.0114131181330934e+02 -7.4647014241472334e+01 7.5250559371327043e+01 -1.1681918283148296e-01 -9.2556689733907263e+00
1.2900000000000000e+00 -2.9521158330609521e-02 -1.2307844193884483e+01 -6.9886672791767424e+01 5.0836728682166360e+01 -7.3070845299428754e+01 6.5291294726763653e+01 -1.1437003244088470e-01 -9.3235461616331801e+00
1.3000000000000000e+00 -2.8062225978031333e-02 -1.2383484347526318e+01 -7.8652844091786264e+01 8.4862895180967925e+01 -7.2615791459445873e+01 5.3703793437854273e+01 -1.1625924346106729e-01 -9.3934936458276201e+00
1.3100000000000001e+00 -3.1853635163428803e-02 -1.2466207500257047e+01 -7.5233246243448789e+01 7.3577155753395999e+01 -7.0185085823158701e+01 6.8320132060493066e+01 -1.1624270634226357e-01 -9.4672527762393965e+00
1.3200000000000001e+00 -3.1951143400418353e-02 -1.2612331794055278e+01 -7.2035786636346899e+01 1.0636489254558947e+02 -7.3917736793746457e+01 5.5125561069351484e+01 -1.1979102986251269e-01 -9.5288583115567818e+00
1.3300000000000001e+00 -3.7530056095704846e-02 -1.2652172819334504e+01 -6.9375461373597830e+01 7.1762894855324035e+01 -6.8917789188295146e+01 7.5066997002072640e+01 -1.2242872485392742e-01 -9.6718512676308688e+00
1.3400000000000001e+00 -4.5594638129152071e-02 -1.2669194562105636e+01 -7.1181157756850581e+01 7.4878431752671105e+01 -7.3617980004453642e+01 7.8998465184379185e+01 -1.2916531504335968e-01 -9.7480984915857753e+00
1.3500000000000001e+00 -3.0894569602524916e-02 -1.2873760677470415e+01 -7.2244328880005881e+01 5.9309826397097993e+01 -7.3524520032510736e+01 5.5331406147999068e+01 -1.1760459682885054e-01 -9.7521936181291515e+00
1.3600000000000001e+00 -3.0648194799412484e-02 -1.2945548606870103e+01 -7.0393085235764616e+01 8.5154571049690432e+01 -7.0627105761775809e+01 6.8893865918126096e+01 -1.1912465977751933e-01 -9.8149704957406190e+00
1.3700000000000001e+00 -2.8575110514809519e-02 -1.3054002963106525e+01 -7.4403553986722756e+01 6.4193851518851517e+01 -8.2709526355186739e+01 1.3758952223041140e+01 -1.1723860487529947e-01 -9.8908447126597245e+00
1.3799999999999999e+00 -3.0061555837682233e-02 -1.3168691064523573e+01 -7.0137293547195313e+01 7.7705387771912442e+01 -7.0724250176385667e+01 7.8466500597716930e+01 -1.1687090410408317e-01 -9.9658463270038755e+00
1.3899999999999999e+00 -3.1491259690868557e-02 -1.3269584701511659e+01 -6.9862566054687733e+01 8.7256024061978906e+01 -6.9181986723865109e+01 6.3429412026711482e+01 -1.1748996784796213e-01 -1.0032957704326540e+01
1.3999999999999999e+00 -3.1383034708414068e-02 -1.3361851029856663e+01 -7.2694015418633910e+01 7.0221564957646294e+01 -6.7850561349733127e+01 6.7781084590716048e+01 -1.1633413696117761e-01 -1.0102845071027849e+01
1.4099999999999999e+00 -3.2309191409911675e-02 -1.3472550923086438e+01 -7.1702994372917956e+01 8.2703417768782671e+01 -7.2836619928717127e+01 6.8047640955425706e+01 -1.1679358485605869e-01 -1.0178397203532487e+01
1.4199999999999999e+00 -3.2369007865388683e-02 -1.3565441242269278e+01 -7.5082622448149095e+01 8.2172366347015213e+01 -7.0864598806192319e+01 7.7941368151675576e+01 -1.1839695419978233e-01 -1.0252217278877451e+01
1.4299999999999999e+00 -3.1626063803183294e-02 -1.3656143917345936e+01 -6.8766760605980238e+01 7.0881569370260522e+01 -6.9550461248532415e+01 8.3201428432069079e+01 -1.1684903433803734e-01 -1.0324057911405744e+01
1.4399999999999999e+00 -3.2118319099766604e-02 -1.3748362870233919e+01 -7.3678271620394227e+01 1.0349965846424139e+02 -6.9100057735323489e+01 8.8717693794014082e+01 -1.1710221773399931e-01 -1.0405692549987561e+01
1.4500000000000000e+00 -3.2223160038028088e-02 -1.3857045662623522e+01 -6.7185228934202769e+01 7.9646233162116872e+01 -6.7455367646338203e+01 6.6337453297050573e+01 -1.1709993966031583e-01 -1.0470873903521094e+01
1.4600000000000000e+00 -3.1991976824756782e-02 -1.3948350376434473e+01 -7.1238704439145891e+01 5.9016256501246538e+01 -6.5873293066113007e+01 8.7048647710829968e+01 -1.1635550679542207e-01 -1.0541204056200883e+01
1.4700000000000000e+00 -3.2978086818904732e-02 -1.4046244075507655e+01 -7.0911410950275041e+01 8.3728501170035415e+01 -6.8500243999824477e+01 8.2501219124997220e+01 -1.1712428001967984e-01 -1.0621586788651447e+01
1.4800000000000000e+00 -3.3424372579057227e-02 -1.4147930711849860e+01 -6.6384938358504357e+01 8.4414309356276718e+01 -6.9272383879167364e+01 9.1167140837422480e+01 -1.1807921256012550e-01 -1.0687587927814945e+01
1.4900000000000000e+00 -3.3731557643882359e-02 -1.4236154169777663e+01 -6.7333903378261994e+01 7.9791221312670103e+01 -6.9140568221312066e+01 6.7282720152828887e+01 -1.1715342004154053e-01 -1.0761799703726862e+01
1.5000000000000000e+00 -3.2945669157099247e-02 -1.4351999723429103e+01 -6.9860069412301058e+01 8.0755508399561037e+01 -6.5713924531846459e+01 8.7464124603974426e+01 -1.1756097049315287e-01 -1.0827095911755466e+01
1.5100000000000000e+00 -3.4116340568236619e-02 -1.4426588120199028e+01 -7.1570977105908909e+01 9.4363062834116079e+01 -7.3163342640054836e+01 6.7120604414501287e+01 -1.1731095824334742e-01 -1.0906542251198896e+01
1.5200000000000000e+00 -3.4133652529518867e-02 -1.4519570419258025e+01 -6.7186867640613087e+01 7.2911025290763916e+01 -6.8292083854130169e+01 6.0837130273648533e+01 -1.1820892927556421e-01 -1.0979051770412521e+01
1.5300000000000000e+00 -3.3352861390603665e-02 -1.4621269509619188e+01 -6.8337329144666100e+01 7.5516418159328595e+01 -6.8211804929730874e+01 9.8249593184423873e+01 -1.1729947121893591e-01 -1.1046727401546525e+01
1.5400000000000000e+00 -3.4093039770123186e-02 -1.4727184585481229e+01 -6.7952296950311194e+01 7.9977355186040697e+01 -6.9239452992983800e+01 8.7218981895115661e+01 -1.1613828400921615e-01 -1.1125128996187879e+01
1.5500000000000000e+00 -3.3314421330714557e-02 -1.4822270075549948e+01 -6.7938308042876528e+01 7.6334633465468499e+01 -6.9860954543545489e+01 9.0847025343336782e+01 -1.1703832388977943e-01 -1.1205806902501079e+01
1.5600000000000001e+00 -3.4197036924495501e-02 -1.4932464202008807e+01 -6.7107252103265736e+01 7.3600730429615126e+01 -7.1161459513095892e+01 9.7460657493854754e+01 -1.1681531411372231e-01 -1.1269783354854889e+01
1.5700000000000001e+00 -3.4087695612537813e-02 -1.5018363025439779e+01 -6.6614105690276887e+01 7.9791614687171545e+01 -6.5067239422600906e+01 9.2584195520250077e+01 -1.1775371075760625e-01 -1.1356844403138362e+01
1.5800000000000001e+00 -3.4261722031020805e-02 -1.5112468075862042e+01 -6.3233000820071709e+01 9.2503877787099157e+01 -6.6380460528954274e+01 8.6867231166584546e+01 -1.1549868013091941e-01 -1.1412486009577794e+01
1.5900000000000001e+00 -3.5164072693838602e-02 -1.5218100781482018e+01 -6.7583441814840171e+01 8.4733499019085457e+01 -6.5963675443142208e+01 7.9286017243813774e+01 -1.1709588720726762e-01 -1.1498032948094286e+01
1.6000000000000001e+00 -3.5492473247592624e-02 -1.5312513250816925e+01 -6.7756275912296729e+01 7.7758226356409168e+01 -6.4573753521144511e+01 7.6128298966209528e+01 -1.1814075583158440e-01 -1.1566792126796084e+01
1.6100000000000001e+00 -3.4706932003525870e-02 -1.5422648067003362e+01 -6.4868181486826813e+01 9.5525372585675228e+01 -6.6549785652024042e+01 6.1583615644124443e+01 -1.1656672741512017e-01 -1.1642123089475248e+01
1.6200000000000001e+00 -3.5037768911905173e-02 -1.5515115159074904e+01 -6.5335662339279295e+01 9.0124484210527527e+01 -6.4687145210256446e+01 8.3405359328912354e+01 -1.1579870293381005e-01 -1.1718191666045694e+01
1.6299999999999999e+00 -3.5543539671394273e-02 -1.5611266170130991e+01 -6.5510565372551639e+01 7.2519647211147827e+01 -6.4708152752681599e+01 1.0113008592517282e+02 -1.1509760383382844e-01 -1.1790685522167655e+01
1.6399999999999999e+00 -3.5167956932277443e-02 -1.5725503839205331e+01 -6.4190960390481322e+01 7.6043131949199662e+01 -6.4278570153043916e+01 9.0490455328840184e+01 -1.1532950966443412e-01 -1.1873758387191641e+01
1.6499999999999999e+00 -3.5082784587600724e-02 -1.5812096724827406e+01 -6.3324596104464803e+01 9.8008975327999124e+01 -6.5476170814632866e+01 9.3870051983787135e+01 -1.1669401074026822e-01 -1.1943655854186135e+01
1.6599999999999999e+00 -3.5084213835449095e-02 -1.5921941473483773e+01 -6.5344736757387182e+01 8.0878678435186160e+01 -6.3055096867715427e+01 6.2451331529879795e+01 -1.1696457269746632e-01 -1.2022099290329971e+01
1.6699999999999999e+00 -3.6206713895352217e-02 -1.6011446559363865e+01 -6.3126608014627223e+01 8.2693300352580067e+01 -6.5129382984633452e+01 7.2577591069673218e+01 -1.1657685221777622e-01 -1.2091662599405797e+01
1.6799999999999999e+00 -3.6166550081604867e-02 -1.6128003913466962e+01 -6.3979528907202010e+01 8.2897593376330505e+01 -6.4968296911084806e+01 8.5726935721710106e+01 -1.1694887218135150e-01 -1.2175528502648151e+01
1.6899999999999999e+00 -3.5555794095000801e-02 -1.6203387470250760e+01 -6.4381401248711299e+01 7.9278614510181299e+01 -6.5599698089414886e+01 7.0737733957824801e+01 -1.1690068026126878e-01 -1.2245448652466749e+01
1.7000000000000000e+00 -3.5985909907739436e-02 -1.6316842718261480e+01 -6.4071628072887876e+01 8.5742365039639452e+01 -6.2364191083788008e+01 7.7249007688925843e+01 -1.1625150113945260e-01 -1.2312955548713312e+01
1.7100000000000000e+00 -3.6652100153297479e-02 -1.6426616162551024e+01 -6.4333219319551688e+01 9.2273069177821256e+01 -6.3204295115710039e+01 9.1721240789087744e+01 -1.1595866225490330e-01 -1.2394247834026935e+01
1.7200000000000000e+00 -3.6427981685605230e-02 -1.6531143433614872e+01 -6.4728699222609620e+01 8.9701324746576915e+01 -6.2952879835964609e+01 8.0384126209284005e+01 -1.1681227980202923e-01 -1.2466380256640059e+01
1.7300000000000000e+00 -3.6022307493351099e-02 -1.6628078220452622e+01 -6.2909197294122620e+01 8.4348666130553866e+01 -6.3273343394554018e+01 8.0483437772704534e+01 -1.1610603594938995e-01 -1.2556565611944109e+01
1.7400000000000000e+00 -3.6058826781919129e-02 -1.6737549294024273e+01 -6.4501418704489481e+01 8.0821571966568314e+01 -6.4383617744613900e+01 8.5038520199135760e+01 -1.1606078068034581e-01 -1.2626806481237862e+01
1.7500000000000000e+00 -3.6488902262404102e-02 -1.6835146364346063e+01 -6.3001593988778026e+01 8.2642052199393419e+01 -6.2836790598435385e+01 8.3560988577563052e+01 -1.1553693227149443e-01 -1.2700868183740560e+01
1.7600000000000000e+00 -3.7543623957150628e-02 -1.6934097884117396e+01 -6.2625094110423369e+01 7.7988475454665831e+01 -6.1612260875328971e+01 8.7642176118311582e+01 -1.1699400385749832e-01 -1.2772056372833152e+01
1.7700000000000000e+00 -3.6496871982871076e-02 -1.7034867039790438e+01 -6.1270092551284428e+01 6.9915664960596899e+01 -6.4461406440785083e+01 8.7114902150022971e+01 -1.1538382735534983e-01 -1.2855154312727134e+01
1.7800000000000000e+00 -3.6304411768706794e-02 -1.7129939333053560e+01 -6.1210569958603003e+01 7.8731199712103063e+01 -6.0183238220660925e+01 7.9196394803111446e+01 -1.1471162429354224e-01 -1.2928382367740346e+01
1.7900000000000000e+00 -3.6650248873799633e-02 -1.7250587709035472e+01 -6.3443514304537054e+01 9.0346985617168883e+01 -6.0911666306026092e+01 6.9495832673051538e+01 -1.1552301491512894e-01 -1.3011846555429306e+01
1.8000000000000000e+00 -3.6832659093562731e-02 -1.7330914827706170e+01 -6.3600768527496179e+01 9.5946175007983058e+01 -6.3580566648828125e+01 8.6482509461257834e+01 -1.1576087727926634e-01 -1.3089909763944808e+01
1.8100000000000001e+00 -3.6134777189604443e-02 -1.7456506604371476e+01 -6.2421360460972238e+01 7.7689112298912292e+01 -6.1926768664647426e+01 6.6823510332668462e+01 -1.1583184348250969e-01 -1.3165295468219588e+01
1.8200000000000001e+00 -3.7014639233885357e-02 -1.7559203676060591e+01 -6.1724377927581386e+01 7.5911719496218083e+01 -6.0842827862052779e+01 7.3028808089189567e+01 -1.1538891250376800e-01 -1.3242618478807241e+01
1.8300000000000001e+00 -3.6706718461903431e-02 -1.7645789435084513e+01 -6.1542943219087419e+01 7.9738017349148734e+01 -6.4506323886253796e+01 8.7335878688651405e+01 -1.1439734569472765e-01 -1.3309455644753301e+01
1.8400000000000001e+00 -3.8246016392871937e-02 -1.7747847922540910e+01 -6.2011894481920336e+01 8.2021560330285752e+01 -6.0518348172594408e+01 8.2550921458663893e+01 -1.1650509025463376e-01 -1.3394108606348611e+01
1.8500000000000001e+00 -3.8391786064922238e-02 -1.7869825837255608e+01 -6.0859570730394864e+01 8.6256786317391402e+01 -6.1910538475657766e+01 7.9138643800958747e+01 -1.1515831821547819e-01 -1.3473033122552959e+01
1.8600000000000001e+00 -3.8536349455104188e-02 -1.7971309801317354e+01 -6.1027884663018725e+01 8.0933973658275065e+01 -6.2866511632511376e+01 8.7651896094757944e+01 -1.1598904596897786e-01 -1.3555003244124761e+01
1.8700000000000001e+00 -3.7958594112177259e-02 -1.8051745566178248e+01 -6.1247027932040545e+01 7.3495157087667238e+01 -5.9338325287054573e+01 5.8153834318288013e+01 -1.1568129396836602e-01 -1.3625118569584750e+01
1.8799999999999999e+00 -3.7274726825831030e-02 -1.8174071545418485e+01 -6.1162491942681847e+01 7.7106741440194284e+01 -6.2333846610118542e+01 9.0847377848334759e+01 -1.1633700019155410e-01 -1.3703345113731919e+01
1.8899999999999999e+00 -3.8045359031441753e-02 -1.8272551553964639e+01 -5.9392361115205183e+01 8.2054960535812725e+01 -5.9729858103320488e+01 7.2261867112594629e+01 -1.1591717212349872e-01 -1.3791728969333725e+01
1.8999999999999999e+00 -3.7767554609766114e-02 -1.8388555392069780e+01 -6.1575886407927825e+01 6.7346713814173327e+01 -6.0139439179544851e+01 8.5526874235722104e+01 -1.1566078889201666e-01 -1.3871646364403070e+01
1.9099999999999999e+00 -3.8712355705786357e-02 -1.8505076192065598e+01 -6.0017730635988904e+01 7.4449760398371339e+01 -5.9969851344479622e+01 7.2454002843510452e+01 -1.1516300239385419e-01 -1.3944797987120314e+01
1.9199999999999999e+00 -3.8331724218617573e-02 -1.8588745420598890e+01 -6.1239926974707082e+01 7.5443312096831548e+01 -6.0344160046700551e+01 7.8626125553608134e+01 -1.1622736693943317e-01 -1.4038624798433402e+01
