# MHz S DB R 50
1.0000000000000000e+00 -2.3494850745705197e-02 -9.5412284590773435e+00 -8.4341632905509044e+01 2.7739442735070881e+01 -7.7132486630372796e+01 -1.3388146618484811e+01 -1.1980207668438611e-01 -7.3286720863197816e+00
1.0100000000000000e+00 -2.3794338145718928e-02 -9.6383904618802561e+00 -7.9043446558151174e+01 9.4318523020213746e+01 -7.1385676286816690e+01 7.7305906503097262e+01 -1.1927599882415538e-01 -7.3923547486275725e+00
1.0200000000000000e+00 -2.5198996142926467e-02 -9.7284265182212142e+00 -7.5018677691416599e+01 9.3116984579029392e+01 -7.3381334354992006e+01 1.0662547468092259e+02 -1.1968624720266180e-01 -7.4649876066021807e+00
1.0300000000000000e+00 -2.4367564980053675e-02 -9.8148367878254152e+00 -7.9668734086751698e+01 1.1571924820910031e+01 -7.1619500222171652e+01 5.3102922037179908e+01 -1.1975539705408234e-01 -7.5295762653150220e+00
1.0400000000000000e+00 -2.4719492186130294e-02 -9.9246190153059342e+00 -7.6289167077868498e+01 9.6414948751612812e+01 -7.5163545407817651e+01 4.5441422787306422e+01 -1.1846887701035091e-01 -7.6124332455285035e+00
1.0500000000000000e+00 -2.5498613659954362e-02 -1.0006900433306688e+01 -7.4810002269356289e+01 7.9000995626333520e+01 -7.7714538732719078e+01 1.0417359950900396e+02 -1.2013846582153637e-01 -7.6691726102084168e+00
1.0600000000000001e+00 -2.5366873024818243e-02 -1.0101627314142663e+01 -7.7368928594578605e+01 2.5954543822046123e+01 -7.4750874120925005e+01 1.0089873249858057e+02 -1.2027799925961655e-01 -7.7436101480467556e+00
1.0700000000000001e+00 -2.4984782655057949e-02 -1.0196483063749062e+01 -7.3473280246553159e+01 3.3714881568371773e+01 -7.2401645147604057e+01 5.8973331322302649e+01 -1.1993550416758778e-01 -7.8115965094420838e+00
1.0800000000000001e+00 -2.5982336811724085e-02 -1.0287731962339482e+01 -8.8943510140010574e+01 7.9270066280488777e+01 -7.3263791965315420e+01 5.1821113498370842e+01 -1.2034013313518001e-01 -7.8874381663397584e+00
1.0900000000000001e+00 -2.5672289854346511e-02 -1.0390102820548785e+01 -8.0478839230580718e+01 8.2117234620703954e+01 -7.1839344451984815e+01 7.7219707402878910e+01 -1.2016195576651106e-01 -7.9525338481007761e+00
1.1000000000000001e+00 -2.5953582220646643e-02 -1.0472518421323473e+01 -7.0686285350181279e+01 8.0183442024375324e+01 -8.5804185615584828e+01 -1.7997407825799203e+02 -1.1960813761333512e-01 -8.0221167228760741e+00
1.1100000000000001e+00 -2.6180056480457667e-02 -1.0569966312804885e+01 -7.0556903354892185e+01 6.0850331530987894e+01 -7.6787585030861365e+01 1.1768855193300521e+02 -1.2039440052633686e-01 -8.0902314354653537e+00
1.1200000000000001e+00 -2.6531722097580611e-02 -1.0664917447234368e+01 -7.4826873348655681e+01 5.3497584306919734e+01 -7.4969414985047081e+01 6.4035378687073091e+01 -1.2116533447176962e-01 -8.1584521101383860e+00
1.1299999999999999e+00 -2.5675357212192745e-02 -1.0755118409444067e+01 -7.4700623460479278e+01 1.0198910724000075e+02 -7.0347210173571980e+01 3.8348123513679013e+01 -1.2036620109363333e-01 -8.2456241796434711e+00
1.1399999999999999e+00 -2.6713496485443224e-02 -1.0855042199715998e+01 -7.2045303373586606e+01 9.5088406890846372e+01 -7.1810339758576106e+01 5.8009017458879882e+01 -1.2026715865644211e-01 -8.3039485271287123e+00
1.1499999999999999e+00 -2.6121077388881364e-02 -1.0957522611662526e+01 -7.2455650523365676e+01 4.7936963116196907e+01 -7.7100849770680796e+01 1.6050629052373260e+01 -1.2126630068144970e-01 -8.3794575906054654e+00
1.1599999999999999e+00 -2.7452963455262561e-02 -1.1053840083540145e+01 -8.8846790460272175e+01 4.0688323611945869e+01 -7.0455713874051554e+01 8.2576475755938475e+01 -1.2096719111531626e-01 -8.4482013959177529e+00
1.1699999999999999e+00 -2.7805455969258690e-02 -1.1142205161485414e+01 -7.4940376754425898e+01 3.4695264373656748e+01 -7.0180187492294223e+01 6.6414523867752067e+01 -1.2159182333592530e-01 -8.5176947726805210e+00
1.1799999999999999e+00 -2.6578158563248730e-02 -1.1227441934798369e+01 -7.3952964641575036e+01 2.5929983179348334e+01 -7.6731467504149407e+01 5.8803622495032741e+01 -1.2119386329631747e-01 -8.5902230468925573e+00
1.1899999999999999e+00 -2.8478501436025289e-02 -1.1329845560739370e+01 -6.9590324498082452e+01 1.2978290214174211e+02 -7.5875007419469981e+01 7.9155884168515584e+01 -1.1901514146022378e-01 -8.6614734676079248e+00
1.2000000000000000e+00 -2.8327642285211962e-02 -1.1425616290068648e+01 -7.1834389558539016e+01 5.7756565296897250e+01 -7.5419624161437696e+01 7.7840718510823137e+01 -1.2202747833808426e-01 -8.7239574476200907e+00
1.2100000000000000e+00 -2.8590549247127742e-02 -1.1518361076478074e+01 -7.4505660038172877e+01 3.6108355573365237e+01 -7.0594777572551649e+01 7.2448203882977509e+01 -1.2119847966604010e-01 -8.7965401471528288e+00
1.2200000000000000e+00 -2.8541634078069162e-02 -1.1619515850010293e+01 -6.9890872365461206e+01 5.2570973066082495e+01 -6.9504644165238290e+01 6.4234857575003957e+01 -1.2150339719664353e-01 -8.8680306017068080e+00
1.2300000000000000e+00 -2.9253250175413737e-02 -1.1711172543066430e+01 -7.2858729928030101e+01 7.2237905300339378e+01 -7.3248940795586265e+01 8.4536754062812022e+01 -1.2146337101286711e-01 -8.9373781991783190e+00
1.2400000000000000e+00 -2.9597240044407711e-02 -1.1812311105316972e+01 -7.2492882960249801e+01 4.9316039144413672e+01 -7.2398864760659080e+01 7.4662145959237947e+01 -1.2193515822081259e-01 -9.0060552480733822e+00
1.2500000000000000e+00 -2.7893972967338834e-02 -1.1901174849834524e+01 -6.8904981299125893e+01 5.2804334054674406e+01 -7.3817243784013641e+01 6.8646318807541718e+01 -1.2162379385461611e-01 -9.0854956119821111e+00
1.2600000000000000e+00 -2.8912475283031182e-02 -1.2008363661909469e+01 -7.3418742852936290e+01 6.2806398493723719e+01 -7.4837447337588983e+01 8.2950603390103353e+01 -1.2184653625019566e-01 -9.1495748374514232e+00
1.2700000000000000e+00 -2.9440030760579224e-02 -1.2085727472210525e+01 -7.1309131600378223e+01 4.4926026486032072e+01 -6.9702080828725542e+01 8.4868869481162520e+01 -1.2116202480519386e-01 -9.2195750186392988e+00
1.2800000000000000e+00 -2.8679589603506448e-02 -1.2199646165783994e+01 -7.4119514505218845e+01 1.0499057954433158e+02 -7.5632117254749275e+01 7.5363141205003672e+01 -1.2150984890036096e-01 -9.2953754909909101e+00
1.2900000000000000e+00 -3.0785036515935203e-02 -1.2295049774037029e+01 -7.0467123429238001e+01 5.1598270504485669e+01 -7.3670429035870598e+01 6.5441113480436243e+01 -1.2152444190324407e-01 -9.3682666311676623e+00
1.3000000000000000e+00 -2.7536393811258011e-02 -1.2366980500129774e+01 -7.8064784715734433e+01 8.5986129761463573e+01 -7.2910485164712924e+01 5.3027325482556826e+01 -1.2150314735532540e-01 -9.4288439248496214e+00
1.3100000000000001e+00 -3.3954092241712759e-02 -1.2461527542770014e+01 -7.4446623629871794e+01 6.7561135968771907e+01 -7.0387568043207082e+01 7.0131555224222282e+01 -1.2046259976470333e-01 -9.5147832791411862e+00
1.3200000000000001e+00 -3.5645219411519519e-02 -1.2604715536284649e+01 -7.1476802209032854e+01 1.0381185204453372e+02 -7.3886927001625978e+01 6.6571616521408018e+01 -1.2431241335281272e-01 -9.5382944599175001e+00
1.3300000000000001e+00 -1.5597019670865358e-02 -1.2687773245966548e+01 -6.9310838710658970e+01 7.4461490103047637e+01 -6.9637155061689541e+01 7.2290150828812273e+01 -1.2954524912774634e-01 -9.6318593436171245e+00
1.3400000000000001e+00 -7.0003270538503859e-02 -1.2714753339156204e+01 -7.2310275421011553e+01 6.4195178809676506e+01 -7.5335419568844742e+01 8.9902702732907215e+01 -9.9809500304202881e-02 -9.7154008891433605e+00
1.3500000000000001e+00 -3.0807916282353975e-02 -1.2862180944561707e+01 -7.2645398144753486e+01 6.2268932524842718e+01 -7.4275880084031868e+01 5.3947631688767430e+01 -1.2258006952385334e-01 -9.7970089135199014e+00
1.3600000000000001e+00 -2.9258573481449730e-02 -1.2981699373719477e+01 -7.0104544108048941e+01 8.1257991057156801e+01 -7.0834460424343604e+01 6.3237211834964938e+01 -1.2403968232859239e-01 -9.8727943353257288e+00
1.3700000000000001e+00 -2.9313945239786678e-02 -1.3048925914958870e+01 -7.4419088618570612e+01 6.4787489324396716e+01 -8.0295848264299451e+01 -6.4702009129890135e+00 -1.2094060952338870e-01 -9.9383213676768243e+00
1.3799999999999999e+00 -3.1329566835850794e-02 -1.3150290498041054e+01 -6.9637830235366479e+01 7.7462857971426857e+01 -7.1088503326789620e+01 7.4408943239489830e+01 -1.2155836278592429e-01 -1.0014184088373446e+01
1.3899999999999999e+00 -3.0983755853884881e-02 -1.3258392689466495e+01 -6.9270736313782720e+01 9.0384492270950432e+01 -6.8894173968733014e+01 6.3221233521276133e+01 -1.2173393800227711e-01 -1.0085408195380502e+01
1.3999999999999999e+00 -3.1600929894481662e-02 -1.3343647263252679e+01 -7.2436554140424377e+01 6.5993071599190671e+01 -6.7450253070375709e+01 6.4040453593571485e+01 -1.2089076746058797e-01 -1.0155502538919317e+01
1.4099999999999999e+00 -3.1552955411125690e-02 -1.3440834733884278e+01 -7.1021019789217462e+01 8.6982745036441187e+01 -7.3514450371085687e+01 6.8060581914134914e+01 -1.2007729515102913e-01 -1.0224417522252480e+01
1.4199999999999999e+00 -3.1727364255847372e-02 -1.3539532708693091e+01 -7.5395656012231342e+01 9.0374586110029142e+01 -7.1483943607940432e+01 8.0399073731400804e+01 -1.2198488358007800e-01 -1.0292115479850844e+01
1.4299999999999999e+00 -3.1733124537149104e-02 -1.3636136369563435e+01 -6.9570643851331127e+01 7.0505093014277776e+01 -6.9233424178118966e+01 8.6525944941055755e+01 -1.2158178113098511e-01 -1.0368067881146517e+01
1.4399999999999999e+00 -3.1447444448365655e-02 -1.3735525455168798e+01 -7.2909663616615077e+01 1.0587287961302010e+02 -6.9483664847209567e+01 8.5855567042114856e+01 -1.2121177041340855e-01 -1.0443451470251217e+01
1.4500000000000000e+00 -3.2938265540267520e-02 -1.3836858646765124e+01 -6.6795598412189293e+01 7.9631128937170942e+01 -6.7594579155140366e+01 6.5146356344893462e+01 -1.2139868835238798e-01 -1.0522509382590048e+01
1.4600000000000000e+00 -3.1242631055365750e-02 -1.3926891575688039e+01 -7.1252663710324939e+01 5.2907630917976320e+01 -6.6266829175633234e+01 8.6348173116417186e+01 -1.2203793295831955e-01 -1.0587971841709480e+01
1.4700000000000000e+00 -3.2998336454449662e-02 -1.4024870963283263e+01 -7.1217197436990631e+01 7.6350139043168440e+01 -6.8268480869563106e+01 7.6377049411710004e+01 -1.2069736598410291e-01 -1.0655093085240569e+01
1.4800000000000000e+00 -3.2407181959126306e-02 -1.4123072972090529e+01 -6.5851747117403576e+01 8.4588377963244014e+01 -6.9000077431447806e+01 8.5212408793212774e+01 -1.2257247938550561e-01 -1.0735789368115082e+01
1.4900000000000000e+00 -3.3246037471109741e-02 -1.4222302245700426e+01 -6.7237202246156428e+01 7.8913765303882926e+01 -6.9229873642588743e+01 7.2864638027323707e+01 -1.2180955150740400e-01 -1.0803083546148308e+01
1.5000000000000000e+00 -3.2182304679561360e-02 -1.4318635339384063e+01 -6.9059564996990332e+01 8.0073430938629841e+01 -6.6118394287341474e+01 8.7961713077391437e+01 -1.2238023421729524e-01 -1.0875571093673340e+01
1.5100000000000000e+00 -3.3964297814080620e-02 -1.4418207677011322e+01 -7.1589507464919336e+01 8.9626281852007409e+01 -7.1871652307883565e+01 7.4537122984823171e+01 -1.2195725020168724e-01 -1.0959218892300632e+01
1.5200000000000000e+00 -3.3926857740379714e-02 -1.4520432528171922e+01 -6.8059552325833323e+01 7.5782732456341435e+01 -6.8348797878078685e+01 5.9402301511385176e+01 -1.2136815793032787e-01 -1.1019747994967204e+01
1.5300000000000000e+00 -3.3729593578562977e-02 -1.4606771710946026e+01 -6.8211591968857860e+01 7.4391938901864421e+01 -6.8372805147768204e+01 9.6794627359850196e+01 -1.2205409776529855e-01 -1.1092957393402520e+01
1.5400000000000000e+00 -3.3936219422520390e-02 -1.4702894502897637e+01 -6.7542086786247822e+01 7.2889377034141560e+01 -6.8524824028128478e+01 8.7488488127070369e+01 -1.2154582932242558e-01 -1.1171606849036891e+01
1.5500000000000000e+00 -3.4031137695796868e-02 -1.4810846742270295e+01 -6.7607098249185739e+01 7.3706708908836532e+01 -6.9831062688269398e+01 9.2052540631190439e+01 -1.2155134327579417e-01 -1.1235918602274127e+01
1.5600000000000001e+00 -3.3793548213414001e-02 -1.4894473099318461e+01 -6.7492646794346769e+01 7.4231086013255464e+01 -6.9734030533120560e+01 9.9361627225291741e+01 -1.2069722802390076e-01 -1.1313285629795015e+01
1.5700000000000001e+00 -3.5411769748833102e-02 -1.5006999923795540e+01 -6.6448269520218901e+01 8.1634872107869384e+01 -6.4639884861194332e+01 9.1837633054956314e+01 -1.2160708764742353e-01 -1.1384137094602924e+01
1.5800000000000001e+00 -3.4761787531025427e-02 -1.5105825242262265e+01 -6.3388858430506758e+01 9.4337060077259480e+01 -6.5906194638496757e+01 9.1405904774698342e+01 -1.2100347011659771e-01 -1.1461814022120993e+01
1.5900000000000001e+00 -3.4881097265850126e-02 -1.5208606411081526e+01 -6.7047517761227326e+01 8.6305479952028605e+01 -6.5475859201680095e+01 7.9218557243858157e+01 -1.2162138929879578e-01 -1.1537786671075358e+01
1.6000000000000001e+00 -3.5569433409923031e-02 -1.5302965746458989e+01 -6.8095911728394498e+01 7.3862397493194848e+01 -6.5031082840682046e+01 7.5558666806320872e+01 -1.2109001918542590e-01 -1.1603123294896571e+01
1.6100000000000001e+00 -3.4713671377885592e-02 -1.5409997114226170e+01 -6.4536845410763505e+01 9.5281101722716116e+01 -6.6267257581514130e+01 6.4740631893313832e+01 -1.2132123007049567e-01 -1.1685779305554666e+01
1.6200000000000001e+00 -3.5882383655760852e-02 -1.5509575104198941e+01 -6.5117132760925202e+01 8.9078142392460947e+01 -6.4485990449296210e+01 8.4042642882001530e+01 -1.2117102146467883e-01 -1.1756770717918601e+01
1.6299999999999999e+00 -3.5669649754831126e-02 -1.5622780001006024e+01 -6.5208165558814997e+01 7.1821205737801421e+01 -6.4588349786679061e+01 1.0080342365473449e+02 -1.2113576286750737e-01 -1.1840917318725756e+01
1.6399999999999999e+00 -3.5659012755924452e-02 -1.5701940105654314e+01 -6.4321588816003413e+01 7.7214406956554484e+01 -6.4328966164409664e+01 9.1250926575551162e+01 -1.2117102745561475e-01 -1.1914942680079065e+01
1.6499999999999999e+00 -3.4524345182045606e-02 -1.5808120501070759e+01 -6.3589088882637981e+01 9.7855553856983221e+01 -6.5021414421774566e+01 9.1971167513273798e+01 -1.2023663768816208e-01 -1.1995303017813232e+01
1.6599999999999999e+00 -3.6419120756567086e-02 -1.5897821698724661e+01 -6.5462471111054853e+01 8.3942200614584578e+01 -6.2987258774157155e+01 6.3139053464712994e+01 -1.2105475994435255e-01 -1.2063530114560372e+01
1.6699999999999999e+00 -3.6364952690163918e-02 -1.6016524593117222e+01 -6.2963412028169181e+01 7.9734379757029416e+01 -6.5351333996614670e+01 7.6675203459677746e+01 -1.2055286062651564e-01 -1.2141307408336468e+01
1.6799999999999999e+00 -3.6925046395565451e-02 -1.6101944475468191e+01 -6.3630288977408682e+01 8.3778252358264396e+01 -6.4478999017454285e+01 8.5948763126359765e+01 -1.2005034812978629e-01 -1.2214250382475809e+01
1.6899999999999999e+00 -3.5208576405346005e-02 -1.6196578400286356e+01 -6.3716162843454960e+01 8.0582469218451379e+01 -6.5191084552847457e+01 6.9332489122218604e+01 -1.2055134694075406e-01 -1.2289774488839020e+01
1.7000000000000000e+00 -3.5824888680567324e-02 -1.6309304590346677e+01 -6.4090967441654684e+01 8.4290350590771396e+01 -6.2303072180507115e+01 7.4830191902214892e+01 -1.2049252066156863e-01 -1.2357342364771084e+01
1.7100000000000000e+00 -3.5828178268082794e-02 -1.6407247636720495e+01 -6.3894905974315407e+01 8.8645743562948667e+01 -6.2878615750560954e+01 8.9037252739502549e+01 -1.2075743291434513e-01 -1.2439159327857366e+01
1.7200000000000000e+00 -3.6880645134205081e-02 -1.6513230955611306e+01 -6.4276129470321393e+01 9.1961260166839409e+01 -6.2496278898965720e+01 8.4328415762814004e+01 -1.2027299657955856e-01 -1.2509890619214646e+01
1.7300000000000000e+00 -3.5789766323426918e-02 -1.6618653879210598e+01 -6.3047431437769639e+01 8.3938162319479204e+01 -6.2952207468557589e+01 7.9257482292212515e+01 -1.2046710101744725e-01 -1.2591744905338160e+01
1.7400000000000000e+00 -3.7225382729768206e-02 -1.6716601376265714e+01 -6.4133833841065652e+01 8.2086485315308124e+01 -6.4243935975808043e+01 8.2029470103346682e+01 -1.2083252961517037e-01 -1.2669904292449001e+01
1.7500000000000000e+00 -3.7562966468631102e-02 -1.6817457923248259e+01 -6.2975739828869322e+01 8.1007636107104531e+01 -6.2401808436656090e+01 8.5482824039330950e+01 -1.2024651475671792e-01 -1.2748600627724450e+01
1.7600000000000000e+00 -3.7597598816348492e-02 -1.6913187548910738e+01 -6.2508008838420530e+01 7.7119878757626523e+01 -6.1531360686554535e+01 8.9757793211124394e+01 -1.2111751935079455e-01 -1.2830322995720401e+01
1.7700000000000000e+00 -3.7383576644193874e-02 -1.7005958064011800e+01 -6.0805800479016234e+01 7.1184662620250151e+01 -6.4325361394435447e+01 8.6977279059379399e+01 -1.2006357715795898e-01 -1.2906354404588688e+01
1.7800000000000000e+00 -3.6221134700027871e-02 -1.7115725937616450e+01 -6.1273669329232483e+01 7.8091120630988996e+01 -6.0449713459533108e+01 8.0778617961411157e+01 -1.1919251140861246e-01 -1.2972101982461286e+01
1.7900000000000000e+00 -3.7133477484592184e-02 -1.7218531797532403e+01 -6.3090095548029424e+01 8.8612549213203451e+01 -6.0416017256190429e+01 7.0859138538758003e+01 -1.1970131630170927e-01 -1.3052973753055902e+01
1.8000000000000000e+00 -3.7271010405350982e-02 -1.7328436193883725e+01 -6.3199057721682841e+01 9.4890741191226653e+01 -6.3270682210296023e+01 8.7642441592187637e+01 -1.1979255273573812e-01 -1.3131562995115274e+01
1.8100000000000001e+00 -3.7400476631869933e-02 -1.7421221014317293e+01 -6.2133692816770250e+01 7.8424986445883533e+01 -6.1899396083676621e+01 6.8122612745010414e+01 -1.1925003503010453e-01 -1.3215755786644058e+01
1.8200000000000001e+00 -3.7835045810325395e-02 -1.7545759532637000e+01 -6.1872391183167295e+01 7.6744065256530263e+01 -6.0663506796656648e+01 7.3302197833507307e+01 -1.1938212019315558e-01 -1.3286633813670813e+01
1.8300000000000001e+00 -3.7092717685212800e-02 -1.7637827805272249e+01 -6.1188160918106306e+01 7.9734695623685766e+01 -6.3609435491251290e+01 8.8610217347942992e+01 -1.1890820348855222e-01 -1.3361329875417669e+01
1.8400000000000001e+00 -3.8942204441141999e-02 -1.7738928985888986e+01 -6.1347691316249154e+01 7.9387825510547088e+01 -6.0513171572097903e+01 8.3070961294197957e+01 -1.1911887859757316e-01 -1.3444573157082516e+01
1.8500000000000001e+00 -3.8740483439886467e-02 -1.7841933848546518e+01 -6.0757639376443187e+01 8.5300294945495963e+01 -6.1826869423501016e+01 7.9486078502716438e+01 -1.1915646529165337e-01 -1.3521217738676151e+01
1.8600000000000001e+00 -3.7228618786231259e-02 -1.7943112387328096e+01 -6.0872269812849296e+01 8.1365237672934754e+01 -6.2745587855696925e+01 8.7680283392181209e+01 -1.2079522802896413e-01 -1.3598510752812627e+01
1.8700000000000001e+00 -3.7478094586682303e-02 -1.8045732310443853e+01 -6.1331195924569492e+01 7.8295008407613665e+01 -6.0157549157037423e+01 6.1749661268443290e+01 -1.1967838161076895e-01 -1.3672569030612230e+01
1.8799999999999999e+00 -3.8091467767868259e-02 -1.8146083424190508e+01 -6.0694749691579084e+01 7.1376471104445599e+01 -6.1467464833064120e+01 8.5874024371030586e+01 -1.2153263470382600e-01 -1.3745540601488342e+01
1.8899999999999999e+00 -3.7739240552230990e-02 -1.8250968176508710e+01 -5.9399611635573351e+01 8.2353202849174309e+01 -5.9519114466627130e+01 7.1080916420787190e+01 -1.1983153855972975e-01 -1.3839189094517650e+01
1.8999999999999999e+00 -3.8241984924336385e-02 -1.8359983123597285e+01 -6.1457888072424794e+01 6.8399447627031833e+01 -6.0230305079106046e+01 8.5771103309702326e+01 -1.1782055259770130e-01 -1.3926266950650607e+01
1.9099999999999999e+00 -3.8608610545492646e-02 -1.8473142015339238e+01 -6.0362347220727585e+01 7.5676317837044920e+01 -5.9809575065841997e+01 7.4059485344224228e+01 -1.1853533778014645e-01 -1.3991018388241146e+01
1.9199999999999999e+00 -3.8443076773670856e-02 -1.8562607563725514e+01 -6.0418943524638628e+01 7.6626255839245530e+01 -6.0483275529337426e+01 7.9764296883696687e+01 -1.1934814245731795e-01 -1.4082697204786566e+01
