# MHz S DB R 50
1.0000000000000000e+00 -4.1826567954405241e-03 -9.0202952588706395e+00 -7.3934516526433782e+01 6.3768717708107786e+01 -7.6600775188680700e+01 1.1321487814413821e+02 -1.1778187615179116e-03 -6.7228805511776617e+00
1.0100000000000000e+00 -3.9490422965841356e-03 -9.1168226930433640e+00 -7.9549625039118212e+01 4.5461139735379909e+01 -7.8245340717561447e+01 1.5668358969276991e+02 -2.1948468379241713e-03 -6.7893214685011429e+00
1.0200000000000000e+00 -3.0913422871210916e-03 -9.1945118932654797e+00 -6.8872241233999432e+01 4.6221752468734245e+01 -7.5752894703155562e+01 6.1885877108093823e+01 -2.3139837891479244e-03 -6.8545631579348161e+00
1.0300000000000000e+00 -3.3865708412834589e-03 -9.2875764984688391e+00 -7.5906119291249638e+01 5.8492200303769529e+01 -7.6907345986536257e+01 4.3113858978242163e+01 -2.3101548521943138e-03 -6.9232945788540725e+00
1.0400000000000000e+00 -2.3447462206011198e-03 -9.3585750553979299e+00 -7.2561493569050711e+01 8.8112217075890456e+01 -7.0695490217749978e+01 4.8094574013983980e+01 -3.5585476605412289e-03 -6.9879041064633105e+00
1.0500000000000000e+00 -4.7660911607998084e-03 -9.4845827755492920e+00 -7.7784281022496472e+01 6.4444710230387429e+01 -7.4534678622986917e+01 5.4096829058786817e+01 -2.1390112781529509e-03 -7.0581965579792172e+00
1.0600000000000001e+00 -4.6336135640193373e-03 -9.5662984961805275e+00 -7.2664556829299272e+01 8.7582414660427133e+01 -7.5715572974856514e+01 5.5945123406441134e+01 -2.3701184023561224e-03 -7.1259641842403267e+00
1.0700000000000001e+00 -5.3274029269238018e-03 -9.6542249310524983e+00 -8.8360401014526033e+01 1.5186122684616873e+01 -7.5948104427817128e+01 9.3563736769433476e+01 -2.2196601879670066e-03 -7.1873149663311695e+00
1.0800000000000001e+00 -5.3200718469065605e-03 -9.7499828500332750e+00 -7.4204412012426701e+01 8.4730416459600491e+01 -7.5564399993826697e+01 1.6907938645731278e+01 -3.1132412328057041e-03 -7.2589313218563207e+00
1.0900000000000001e+00 -5.2766688751357078e-03 -9.8419534568092892e+00 -7.3073131558877435e+01 9.1741454872968404e+01 -8.3699570957922020e+01 9.6973262227140410e+01 -4.0952790306337484e-03 -7.3254289449909145e+00
1.1000000000000001e+00 -5.4440135358126878e-03 -9.9339129755985027e+00 -7.2822200027348231e+01 -2.4025589056797267e+00 -7.0990715181881910e+01 9.0768203493773598e+01 -3.0223545147224171e-03 -7.3907216817074834e+00
1.1100000000000001e+00 -6.6180104070721127e-03 -1.0034945194281143e+01 -7.5233850301830103e+01 4.4559651339289211e+01 -7.0955755073306079e+01 3.4716968242270575e+01 -3.1050428964862877e-03 -7.4617808403224535e+00
1.1200000000000001e+00 -6.0204349520390473e-03 -1.0109881406331729e+01 -7.5691901876888011e+01 1.6098333847603055e+02 -7.2417242116434409e+01 2.7271966977348391e+01 -3.9862828288689187e-03 -7.5228903494584385e+00
1.1299999999999999e+00 -5.6111183124232418e-03 -1.0212987688070445e+01 -7.2974019088500270e+01 -1.4956995402359994e+00 -7.3404252570616848e+01 5.0902161057200061e+01 -3.2041033368622575e-03 -7.5959205330039312e+00
1.1399999999999999e+00 -6.6853240770015782e-03 -1.0291052106395409e+01 -7.9069664728264314e+01 8.8557149278993506e+01 -7.1137258576591549e+01 8.6938995486215106e+01 -4.3882732692431918e-03 -7.6628968493442136e+00
1.1499999999999999e+00 -7.0787862386092384e-03 -1.0392092894518472e+01 -8.2278097276512781e+01 5.3837303276290214e+01 -7.6886489632635431e+01 1.1398324376611090e+02 -3.5104173942337455e-03 -7.7264020792791905e+00
1.1599999999999999e+00 -6.9387041303521904e-03 -1.0477439686155806e+01 -7.0519635450879804e+01 4.6709194661448549e+01 -7.4241852267279299e+01 4.9677924644012492e+01 -4.2404920611983886e-03 -7.7977922181741777e+00
1.1699999999999999e+00 -5.9750433839858520e-03 -1.0566184008733304e+01 -7.5144569896967525e+01 7.6639203475142637e+01 -7.3192383508524344e+01 3.2100633856474879e+01 -4.5913573765672348e-03 -7.8613958848100030e+00
1.1799999999999999e+00 -7.0397219443665187e-03 -1.0659307308874963e+01 -7.5821085357194718e+01 6.7278261293191250e+01 -8.8496290539447756e+01 -9.5210040954891554e+01 -4.3072383524941152e-03 -7.9298072931188255e+00
1.1899999999999999e+00 -8.5045753983989149e-03 -1.0759908975167280e+01 -7.5266491541167980e+01 -2.5005034756358061e+01 -7.0442681561848445e+01 6.2388377899581350e+01 -4.9348780638558062e-03 -7.9954022227207684e+00
1.2000000000000000e+00 -7.1170317838200048e-03 -1.0842078744359469e+01 -7.5325882361489334e+01 4.8930672290337242e+01 -7.6887660616722840e+01 2.6761294246945429e+01 -5.2107411799700316e-03 -8.0699802957832212e+00
1.2100000000000000e+00 -7.7960368462251916e-03 -1.0946211154143114e+01 -7.3924601024469098e+01 4.7407507378336625e+01 -7.0755669482845903e+01 7.9714400398748225e+01 -4.8682525392515575e-03 -8.1337672764582543e+00
1.2200000000000000e+00 -7.4072219126437317e-03 -1.1033898417452340e+01 -7.8739027750829024e+01 3.9061580147617413e+01 -8.2994774500781887e+01 1.4098605622392792e+00 -4.4451637804521407e-03 -8.2054110494937547e+00
1.2300000000000000e+00 -8.0699332872775972e-03 -1.1123250330399072e+01 -7.5283351575162456e+01 1.0537756618340487e+02 -7.3557047670784115e+01 2.9279061819031331e+00 -5.0647860498063586e-03 -8.2738251345959775e+00
1.2400000000000000e+00 -5.7545295893696100e-03 -1.1208929204815586e+01 -7.6786545286215585e+01 2.6175824968390618e+01 -7.4356155655287068e+01 7.1853224282091830e+01 -5.2369206097549852e-03 -8.3382886877797322e+00
1.2500000000000000e+00 -7.0836907596988196e-03 -1.1298265468456085e+01 -7.8023086236584930e+01 7.6850564446292935e+01 -7.5728374731239484e+01 6.0140156148191195e+01 -6.1250191568195458e-03 -8.4046267228944913e+00
1.2600000000000000e+00 -9.4632508403971038e-03 -1.1388473640309032e+01 -6.8332377578375741e+01 7.7232987215421602e+01 -6.9639175579030052e+01 8.2969244383145352e+01 -5.5734612992908803e-03 -8.4728758565435474e+00
1.2700000000000000e+00 -8.1735951564510974e-03 -1.1498472136466681e+01 -7.1075178465226770e+01 7.1991160134215804e+01 -7.3234379289152670e+01 5.8872368766337480e+01 -5.7630179061016178e-03 -8.5505205858749509e+00
1.2800000000000000e+00 -1.0699547211258887e-02 -1.1597591055560324e+01 -7.0265862655705106e+01 5.0561504050940158e+01 -7.9252193914532000e+01 1.1730158486317522e+02 -6.1686795918251556e-03 -8.6249262144719925e+00
1.2900000000000000e+00 -8.9542526404935742e-03 -1.1691237704940171e+01 -7.9781299332322718e+01 6.4818288985454288e+01 -6.9806194222367267e+01 7.6624221871562540e+01 -5.7198697243615506e-03 -8.6686490052415852e+00
1.3000000000000000e+00 -9.0780589047784622e-03 -1.1768370314107527e+01 -6.8770437743987912e+01 6.4110679913031134e+01 -6.9282905525856108e+01 6.6749978316235570e+01 -7.5433071606546146e-03 -8.7536113771233435e+00
1.3100000000000001e+00 -7.0632037441569319e-03 -1.1865723889420989e+01 -6.9590540424879379e+01 6.8856466130200459e+01 -6.9188625308150463e+01 3.4309933754858534e+01 -8.3361041474984826e-03 -8.8260200330292413e+00
1.3200000000000001e+00 -5.5564088029485658e-03 -1.1968915223717330e+01 -8.0183175570206771e+01 3.9309920375497960e+01 -7.1105542242479842e+01 5.6228030370194858e+01 -8.9221567955908975e-03 -8.8656025111473209e+00
1.3300000000000001e+00 -5.2067107087930111e-03 -1.2148822625217433e+01 -7.3309109663528247e+01 3.8076614396342769e+01 -7.6031920449306597e+01 8.5465133153309658e+00 3.5317556691890207e-04 -8.9253694812829067e+00
1.3400000000000001e+00 -5.4266675224545861e-02 -1.2202056459225838e+01 -7.5608774204500051e+01 -3.1014053332906464e+00 -7.3527695154477982e+01 7.3688668291887481e+01 -1.4873317967598363e-02 -8.8304670677745669e+00
1.3500000000000001e+00 -9.5712177983465364e-03 -1.2253387218380865e+01 -7.3847161144631855e+01 8.3619630775819232e+01 -7.0428704186606581e+01 8.9415037447700627e+01 -6.3405713542452708e-03 -9.0945043406755506e+00
1.3600000000000001e+00 -9.8500726289660941e-03 -1.2337889350265190e+01 -7.5082202677337548e+01 2.2390529639897249e+01 -7.4357173307045144e+01 8.3032162827698400e+01 -1.1824877796935383e-02 -9.1813250589872375e+00
1.3700000000000001e+00 -8.5747218806578943e-03 -1.2421377532521223e+01 -7.9210324397669012e+01 7.1626788540028187e+01 -7.1512303167122283e+01 7.1468131663570361e+01 -8.6017656574793981e-03 -9.2414282176474849e+00
1.3799999999999999e+00 -8.5650995185100991e-03 -1.2509840915561048e+01 -7.2643336251162765e+01 4.8584637422622521e+01 -7.4065958795268926e+01 4.0132191806430676e+01 -7.1620346167674299e-03 -9.3112370799933277e+00
1.3899999999999999e+00 -1.0527962071267605e-02 -1.2600851873228704e+01 -7.4609319814924021e+01 6.9318049085224274e+01 -7.4035870352829335e+01 1.0350568855003996e+02 -5.5676316321266487e-03 -9.3751013157416079e+00
1.3999999999999999e+00 -1.0856386219327224e-02 -1.2718096916369680e+01 -7.3090196901901152e+01 6.8564281275671448e+01 -7.4014650995014691e+01 7.8999465640370445e+01 -6.6104352114279780e-03 -9.4494989433421868e+00
1.4099999999999999e+00 -9.6550868002122300e-03 -1.2795590617276606e+01 -6.9448877316194924e+01 6.7150597278965932e+01 -7.8138768959392394e+01 8.7731474256115575e+01 -6.1757480664869149e-03 -9.5100730676458962e+00
1.4199999999999999e+00 -1.0133212454630020e-02 -1.2899886329087282e+01 -7.5122633886806724e+01 4.2434363274676343e+01 -6.9526288104215496e+01 6.6906882622065311e+01 -7.0854748786386493e-03 -9.5820690499997045e+00
1.4299999999999999e+00 -1.0474045308236309e-02 -1.3002644039139549e+01 -7.1532943367789102e+01 6.8798317844597165e+01 -7.3231256187043471e+01 5.9305353860973426e+01 -8.6916949308165157e-03 -9.6490398407771938e+00
1.4399999999999999e+00 -1.1305198286283992e-02 -1.3100777616877574e+01 -6.7419651593104987e+01 5.6616388414690661e+01 -6.9559501790008568e+01 4.1086031557615158e+01 -7.2839215405430492e-03 -9.7184341376525367e+00
1.4500000000000000e+00 -1.0307036578177031e-02 -1.3184624899602554e+01 -7.3351509995331924e+01 5.6276638932329050e+01 -7.0776184172799518e+01 7.6232126431764200e+01 -7.8874447166536587e-03 -9.7881017096031169e+00
1.4600000000000000e+00 -1.0962320777036291e-02 -1.3287589964721663e+01 -6.8405517682171407e+01 8.1333054742250809e+01 -6.9741894640802542e+01 1.2155154138946433e+02 -8.3659172633904870e-03 -9.8557896530325220e+00
1.4700000000000000e+00 -1.0256570858784841e-02 -1.3360785181539187e+01 -8.0414609729308367e+01 1.6129248257880249e+02 -7.3283784245909771e+01 6.6364347396445311e+01 -8.3689369141011303e-03 -9.9315721879178174e+00
1.4800000000000000e+00 -1.0956346784296307e-02 -1.3463197547780277e+01 -7.0643030730575134e+01 7.1538605885339678e+01 -7.4168663852327740e+01 8.2843834365231118e+01 -7.5329350041329589e-03 -1.0002426099961866e+01
1.4900000000000000e+00 -1.1368576476235452e-02 -1.3562208914829412e+01 -7.3549901919810424e+01 5.0263703284397955e+01 -6.9475528907028504e+01 6.1475508760260993e+01 -7.2983889431898269e-03 -1.0069573671630968e+01
1.5000000000000000e+00 -1.0753585214383988e-02 -1.3652824842712244e+01 -6.9946934109726996e+01 7.5581033739859308e+01 -6.8178041561399766e+01 6.6987298050670901e+01 -9.3502217042512707e-03 -1.0154272076883352e+01
1.5100000000000000e+00 -1.1841104813823363e-02 -1.3749415413633916e+01 -7.2328831933203546e+01 5.4201849267181260e+01 -7.3919697135725755e+01 9.8646586225565343e+01 -8.2561199565153922e-03 -1.0212751010406233e+01
1.5200000000000000e+00 -1.1902499816247070e-02 -1.3843120686697151e+01 -6.9525403194889748e+01 8.5465521411088972e+01 -7.0647659427783353e+01 8.1447075530442717e+01 -9.0714665538690429e-03 -1.0286113572568190e+01
1.5300000000000000e+00 -1.1751788888659345e-02 -1.3943529904484736e+01 -6.8494901900286948e+01 4.5191527059386047e+01 -6.9915566886850641e+01 9.5176648403710558e+01 -8.6607386434809034e-03 -1.0359616462679805e+01
1.5400000000000000e+00 -1.2062830761943224e-02 -1.4043009805753794e+01 -6.9666967589263137e+01 4.7030614079043978e+01 -7.0300261746079627e+01 5.0978251706409466e+01 -8.2460395002823105e-03 -1.0433966712225256e+01
1.5500000000000000e+00 -1.1450584590160883e-02 -1.4138442261859357e+01 -6.9195777532384284e+01 6.8945580912721894e+01 -6.6307177421805207e+01 8.2312848718527036e+01 -8.4307320015208579e-03 -1.0504464910210309e+01
1.5600000000000001e+00 -1.1954701412584484e-02 -1.4227635354811751e+01 -6.7844784159328796e+01 8.4461065041951102e+01 -7.7631695148878947e+01 6.0057973872768763e+01 -8.1974532701819813e-03 -1.0571330123490203e+01
1.5700000000000001e+00 -1.2101084463780143e-02 -1.4331746762658151e+01 -7.1439488045788380e+01 1.0129216458835970e+02 -6.7951752042879889e+01 8.2274370357772597e+01 -8.3859684993899900e-03 -1.0644005693660793e+01
1.5800000000000001e+00 -1.2455171975841329e-02 -1.4421784223198538e+01 -7.0905970804409733e+01 7.6516648527927515e+01 -7.1062833798277140e+01 6.0748207217592466e+01 -9.2510572544979245e-03 -1.0715387082230611e+01
1.5900000000000001e+00 -1.2183385569290675e-02 -1.4527719318272494e+01 -6.9168650905868844e+01 7.6853991055736955e+01 -6.9854437275804145e+01 6.8278836550496294e+01 -9.0454885433897455e-03 -1.0794503242328707e+01
1.6000000000000001e+00 -1.2798299478738192e-02 -1.4635328372162737e+01 -6.8004096922224051e+01 8.7519147540748776e+01 -6.8674418241686780e+01 8.1802628769617073e+01 -8.8076252479705689e-03 -1.0858447123293866e+01
1.6100000000000001e+00 -1.2335777812277800e-02 -1.4717622377775131e+01 -6.6751324555179480e+01 8.0896520144089948e+01 -6.6539353267627149e+01 8.3726653000925324e+01 -8.8542427069971032e-03 -1.0933028481687275e+01
1.6200000000000001e+00 -1.4135116729613595e-02 -1.4812566058715117e+01 -6.8059123980674883e+01 9.1514032153355402e+01 -6.6140764594287987e+01 8.0170166066775465e+01 -8.1895670298869402e-03 -1.1002984687574557e+01
1.6299999999999999e+00 -1.2283433878220952e-02 -1.4919097711690336e+01 -6.5631273047530186e+01 8.2731683730899746e+01 -6.9222169375176236e+01 8.5490401465749073e+01 -8.6590576887581282e-03 -1.1081635925519382e+01
1.6399999999999999e+00 -1.3385970081597719e-02 -1.5007510599963027e+01 -6.7272748638795349e+01 8.3906368929798518e+01 -6.5088531054010701e+01 7.3110539913269150e+01 -8.7762489136810687e-03 -1.1149337564124698e+01
1.6499999999999999e+00 -1.2683110947140468e-02 -1.5119550365350079e+01 -6.6973719364662045e+01 5.9111474006078844e+01 -6.5667753773509801e+01 8.8730224682179781e+01 -8.7474277213932874e-03 -1.1220866908654502e+01
1.6599999999999999e+00 -1.3480449019249271e-02 -1.5214304784712313e+01 -6.8804055055402230e+01 6.6327551633771805e+01 -6.5790921547265000e+01 8.0407150028479236e+01 -9.9762478351822417e-03 -1.1303930517639934e+01
1.6699999999999999e+00 -1.2979623602933296e-02 -1.5302399634988902e+01 -6.8372893493769766e+01 8.8427515054537452e+01 -7.0041053755827576e+01 4.0406727996517517e+01 -8.7011770950087431e-03 -1.1369250620724033e+01
1.6799999999999999e+00 -1.3433413494163498e-02 -1.5400579450903908e+01 -6.5963685058216029e+01 8.0228015663455082e+01 -7.0354928770990611e+01 8.1798930240847113e+01 -9.3713138237590636e-03 -1.1441191386107954e+01
1.6899999999999999e+00 -1.3668135994258855e-02 -1.5500653818317828e+01 -6.9409139007603216e+01 6.9983841782571702e+01 -7.3348364180531803e+01 8.5139854670851918e+01 -9.3841879980736589e-03 -1.1518234991443146e+01
1.7000000000000000e+00 -1.3690492218682730e-02 -1.5611577939153442e+01 -6.4683693560232925e+01 7.3805724589408811e+01 -6.5976199741547077e+01 6.8125489010233139e+01 -9.8754019852859681e-03 -1.1595990476419137e+01
1.7100000000000000e+00 -1.4328741186893024e-02 -1.5698599910121905e+01 -6.3055269905154717e+01 9.0101149890971868e+01 -6.5471529693139345e+01 7.1080272685713823e+01 -9.2511333225059576e-03 -1.1662011149968647e+01
1.7200000000000000e+00 -1.4801022390554929e-02 -1.5795535735182929e+01 -6.6389326402029141e+01 7.5377213234017816e+01 -6.3943455282765370e+01 9.1267722981089889e+01 -9.6254644646509430e-03 -1.1740695052202621e+01
1.7300000000000000e+00 -1.3325393319020835e-02 -1.5902913827102623e+01 -6.8725323164762770e+01 7.9700406522142387e+01 -6.6114834256197724e+01 9.2369592122572172e+01 -9.9373661037161481e-03 -1.1813264722273203e+01
1.7400000000000000e+00 -1.4270104806477665e-02 -1.6001757167561106e+01 -6.5132192159557007e+01 9.9791626608883135e+01 -6.4493464418549621e+01 9.4289596614786532e+01 -9.5156757714237837e-03 -1.1888966874253272e+01
1.7500000000000000e+00 -1.3626671545166431e-02 -1.6084902490990828e+01 -6.5925277047033035e+01 8.4005701614665995e+01 -6.6855221244530853e+01 8.3218274590812101e+01 -9.0321016862271349e-03 -1.1966792094633973e+01
1.7600000000000000e+00 -1.4713545323112281e-02 -1.6196250039110502e+01 -6.5379671192231555e+01 6.8085705806836444e+01 -6.6589437189707724e+01 7.7978097054156578e+01 -9.5177959832687814e-03 -1.2036313485028922e+01
1.7700000000000000e+00 -1.5181778488525177e-02 -1.6312677290512816e+01 -6.6847468451658841e+01 8.1663753293832059e+01 -6.3361906447447822e+01 8.4730019210257026e+01 -9.2940963937668541e-03 -1.2115054404059183e+01
1.7800000000000000e+00 -1.5342680563201412e-02 -1.6398290740202036e+01 -6.6022166970585189e+01 8.2547411193489623e+01 -6.5757641396396650e+01 8.6894031349736196e+01 -9.2616818063220221e-03 -1.2194948319162888e+01
1.7900000000000000e+00 -1.4699281918797919e-02 -1.6498181482816570e+01 -6.4373030919426469e+01 8.1834242480429296e+01 -6.6463193085994504e+01 7.3453371859030497e+01 -9.7651916061544265e-03 -1.2264516371733670e+01
1.8000000000000000e+00 -1.5105706783523947e-02 -1.6600369617892635e+01 -6.3554745396625407e+01 8.1694123709277548e+01 -6.4983507892644909e+01 7.8765559074886554e+01 -8.8855125608281425e-03 -1.2334387361997985e+01
1.8100000000000001e+00 -1.4219492770839191e-02 -1.6694419545549280e+01 -6.5742403433852985e+01 8.4263137200690565e+01 -6.1150976932489115e+01 7.6035800899862338e+01 -8.8129802455046910e-03 -1.2415486240857359e+01
1.8200000000000001e+00 -1.4578169621034687e-02 -1.6799285545962441e+01 -6.5015409841636185e+01 6.9395342338763513e+01 -6.7166482108059725e+01 8.2843282474328575e+01 -8.9114302652401542e-03 -1.2497992455155041e+01
1.8300000000000001e+00 -1.5709503920875324e-02 -1.6910023535368378e+01 -6.2800501761004561e+01 8.6476960101280270e+01 -6.5578970857732685e+01 7.3661474927744763e+01 -9.2696434953853518e-03 -1.2559413517938376e+01
1.8400000000000001e+00 -1.5254256339040435e-02 -1.7009708161872680e+01 -6.5125165771888788e+01 7.2256091285577128e+01 -6.1851525464973925e+01 8.2074616475669799e+01 -9.8523794478039377e-03 -1.2646318624940861e+01
1.8500000000000001e+00 -1.5365569133137809e-02 -1.7095765381868606e+01 -6.2824566117438742e+01 7.2350955592321441e+01 -6.6188109178582678e+01 8.3929914464581486e+01 -9.7195214429474566e-03 -1.2723082215858064e+01
1.8600000000000001e+00 -1.5001481186768233e-02 -1.7206746171727222e+01 -6.4768220938920379e+01 7.8001662940261582e+01 -6.3882964254712178e+01 7.6557240823796519e+01 -9.4379430128993958e-03 -1.2794420237124642e+01
1.8700000000000001e+00 -1.6246284825759381e-02 -1.7323195536388290e+01 -6.3117170414684139e+01 9.1625099104718018e+01 -6.2251352512964296e+01 8.7536525280354994e+01 -9.5449894146665600e-03 -1.2871260710462648e+01
1.8799999999999999e+00 -1.6922216309823865e-02 -1.7403469721138368e+01 -6.2809217623815897e+01 7.1047212466034537e+01 -6.3636183487546887e+01 8.9062055815293988e+01 -8.9985937180131464e-03 -1.2954837176465581e+01
1.8899999999999999e+00 -1.6155102340593391e-02 -1.7510376902566005e+01 -6.4114800230586312e+01 7.9705148152244362e+01 -6.4773909555696250e+01 6.8093266841316876e+01 -9.9282116279447632e-03 -1.3026617374171892e+01
1.8999999999999999e+00 -1.5558486736783287e-02 -1.7607747315372432e+01 -6.3979259293352555e+01 7.9287411298190904e+01 -6.4986933018238204e+01 6.7191022806409919e+01 -9.8006327034680756e-03 -1.3098015817699709e+01
1.9099999999999999e+00 -1.5922097406050294e-02 -1.7718132359744793e+01 -6.2755864306529190e+01 7.6356814699436271e+01 -6.3135941680929321e+01 7.7645618979728766e+01 -9.7898562377460030e-03 -1.3182237249067244e+01
1.9199999999999999e+00 -1.5676935448548125e-02 -1.7834668447151699e+01 -6.1043627038577419e+01 8.3118262013072439e+01 -6.1960384829472382e+01 9.3416398658188768e+01 -9.8089278084123096e-03 -1.3262160184607282e+01
