# MHz S DB R 50
1.0000000000000000e+00 -9.8768540114990370e-03 -8.6797739840240080e+00 -7.3034761244752872e+01 5.7848509273209189e+01 -7.5691293025963304e+01 9.7491079948348258e+01 2.8114836478433457e-02 -6.3087844919977627e+00
1.0100000000000000e+00 -1.0069819934594472e-02 -8.7721306293192409e+00 -7.6871239450908746e+01 6.1738589372235232e+01 -7.5777874773431648e+01 1.4266758661922617e+02 2.7747645910969131e-02 -6.3704842551839533e+00
1.0200000000000000e+00 -8.6217685483079773e-03 -8.8519552793400518e+00 -6.8679548672171080e+01 4.6913845824766767e+01 -7.5783450131932241e+01 6.8054517526451690e+01 2.7092777109386366e-02 -6.4374639061179835e+00
1.0300000000000000e+00 -9.7565845079658868e-03 -8.9465330130334788e+00 -7.2881723670691244e+01 6.2702921019174681e+01 -7.4858429197248114e+01 4.2567049129956544e+01 2.6961629542008370e-02 -6.5017355521600280e+00
1.0400000000000000e+00 -7.9225477103658584e-03 -9.0251257632565380e+00 -7.2179665418990581e+01 7.4062076842742883e+01 -6.8889640698887618e+01 5.1185634804763765e+01 2.6433260105696882e-02 -6.5709512804057368e+00
1.0500000000000000e+00 -9.8194223621893353e-03 -9.1469519571436564e+00 -7.4798426723420391e+01 6.4934799410797410e+01 -7.3446173050098650e+01 5.7841836505804118e+01 2.7222888424424094e-02 -6.6436394248421484e+00
1.0600000000000001e+00 -1.0760409062163559e-02 -9.2276026727994100e+00 -7.3264203952002177e+01 8.6680837639609038e+01 -7.4425140988922848e+01 4.8250845693127637e+01 2.7421848842414682e-02 -6.7091567514687949e+00
1.0700000000000001e+00 -1.0280134321217226e-02 -9.3204953086349338e+00 -8.2376614484486325e+01 1.7993393990100213e+01 -7.3483668928290427e+01 7.9826519771942714e+01 2.6552973403046208e-02 -6.7774593987877632e+00
1.0800000000000001e+00 -1.0055379481079872e-02 -9.4055198611773196e+00 -7.2531676856645973e+01 8.2720429041995075e+01 -7.4363859022258609e+01 2.7500003256988716e+01 2.6543805124649360e-02 -6.8409454799088625e+00
1.0900000000000001e+00 -1.0341421501032039e-02 -9.5004107569528369e+00 -7.2225299114928688e+01 8.1692975182935101e+01 -8.0673740181571731e+01 7.8241324395391899e+01 2.5709732159408111e-02 -6.9122471050140026e+00
1.1000000000000001e+00 -1.0250106879507863e-02 -9.5972884041074646e+00 -7.1398740715151121e+01 1.0377370676863062e+01 -7.0932573346552573e+01 8.7436366254815923e+01 2.6461174269306026e-02 -6.9768666429153603e+00
1.1100000000000001e+00 -1.0689217358996932e-02 -9.6893629126928555e+00 -7.2633938073775511e+01 4.3518884560032291e+01 -6.9292412639475586e+01 3.7425001867113373e+01 2.5412465950177408e-02 -7.0401705418478420e+00
1.1200000000000001e+00 -1.0490788705364119e-02 -9.7812478577004693e+00 -7.5974246100359849e+01 1.4800114468356313e+02 -7.0824821102181318e+01 2.6756051412214354e+01 2.5829727331869508e-02 -7.1114891868335812e+00
1.1299999999999999e+00 -1.0457921424344263e-02 -9.8784901715364768e+00 -7.1835175142413547e+01 1.0223893950878546e+00 -7.1116445601747131e+01 5.7829633436772120e+01 2.5692943174406357e-02 -7.1760524282111868e+00
1.1399999999999999e+00 -1.0800512504489997e-02 -9.9712760655710291e+00 -7.5021962735850238e+01 7.6134634721199049e+01 -6.9213224716708595e+01 7.7352375136541127e+01 2.5190531362066511e-02 -7.2476331855485858e+00
1.1499999999999999e+00 -1.1492563535970765e-02 -1.0063118306945441e+01 -7.7451114524137267e+01 5.3180496072734485e+01 -7.3631701381927073e+01 1.0164289221272530e+02 2.5188078622393556e-02 -7.3169548076169617e+00
1.1599999999999999e+00 -1.1491535738886118e-02 -1.0157448476844294e+01 -6.9693343009786901e+01 4.7046767428520461e+01 -7.2694097693993839e+01 4.8723632997087208e+01 2.4760130049363942e-02 -7.3797161894428873e+00
1.1699999999999999e+00 -1.1128268357965326e-02 -1.0246206130757718e+01 -7.1997348939659219e+01 7.4514968976085683e+01 -7.1987277412795677e+01 3.0921525039247630e+01 2.4957508315387768e-02 -7.4461851866125928e+00
1.1799999999999999e+00 -1.1012070113517009e-02 -1.0346857304997776e+01 -7.4593316690205214e+01 6.1828634741413211e+01 -8.6573289067970478e+01 8.3240994104995607e+01 2.4509008688547093e-02 -7.5155981901795599e+00
1.1899999999999999e+00 -1.1451275990648931e-02 -1.0442637836749757e+01 -7.1949258388173007e+01 -2.7180641857925298e+01 -6.8800722238856878e+01 7.4981996131989533e+01 2.4777467975245625e-02 -7.5876246684132216e+00
1.2000000000000000e+00 -1.0038561026565557e-02 -1.0516577504061788e+01 -7.3198212770364705e+01 5.5035159109848458e+01 -7.4034756776248102e+01 3.9491250958541592e+01 2.4461946674481830e-02 -7.6540509274705677e+00
1.2100000000000000e+00 -1.2278954969499828e-02 -1.0617809136702245e+01 -7.2838757068113750e+01 5.2490222441602363e+01 -6.9666890413888808e+01 7.3379090482018697e+01 2.4448764040100303e-02 -7.7236335139618086e+00
1.2200000000000000e+00 -1.2117381155464365e-02 -1.0698417587407844e+01 -7.5357829642830183e+01 3.0733496919544454e+01 -7.9214817526216962e+01 1.3965095117922733e+01 2.4558352242131903e-02 -7.7921460554241548e+00
1.2300000000000000e+00 -1.1706169704765882e-02 -1.0784374946227588e+01 -7.2890368541690947e+01 9.1677188439518019e+01 -7.1895388044478949e+01 1.5336428942652546e+01 2.3638453941667463e-02 -7.8563060377476770e+00
1.2400000000000000e+00 -9.8492783166317741e-03 -1.0873054627586919e+01 -7.4511545869067376e+01 4.4034045713757550e+01 -7.3899685486077431e+01 6.9683347073323617e+01 2.3513268760856791e-02 -7.9284495468424145e+00
1.2500000000000000e+00 -1.1303070006786986e-02 -1.0971834474154551e+01 -7.4209753179767446e+01 8.3212727063293514e+01 -7.3018310266874664e+01 5.8591355215048317e+01 2.3291924734344403e-02 -7.9928801997868781e+00
1.2600000000000000e+00 -1.0258278861936183e-02 -1.1064493214536729e+01 -6.7089287815897237e+01 7.1409233619396460e+01 -6.8903587867736888e+01 7.8346833442292692e+01 2.3922305527803393e-02 -8.0590734135354793e+00
1.2700000000000000e+00 -1.1739505769576143e-02 -1.1148934970445653e+01 -6.8874513207134740e+01 7.2171023810271862e+01 -7.1405189020767509e+01 6.3450221756235372e+01 2.4366538130122697e-02 -8.1374253063995905e+00
1.2800000000000000e+00 -1.1871441510735398e-02 -1.1255446615682116e+01 -6.8670694470374414e+01 5.3237875139640209e+01 -7.9325085081022891e+01 8.2515568891628945e+01 2.2913226123163814e-02 -8.2056959574454105e+00
1.2900000000000000e+00 -1.4588256608451974e-02 -1.1338172972959939e+01 -7.5065243944548953e+01 6.4803552107128937e+01 -6.8687168013104440e+01 7.6576622712516937e+01 2.3461140836377254e-02 -8.2578861040164266e+00
1.3000000000000000e+00 -1.3015357121942246e-02 -1.1457703689004545e+01 -6.7221864822487092e+01 6.3938421268595505e+01 -6.8171567018617651e+01 6.6101638828220246e+01 2.2787126141096820e-02 -8.3422122232392013e+00
1.3100000000000001e+00 -1.0360354053233007e-02 -1.1549447576628268e+01 -6.9086044535571503e+01 6.9350337301074021e+01 -6.7225544480833676e+01 4.1787663267433700e+01 2.0887378280784328e-02 -8.4153356797879511e+00
1.3200000000000001e+00 -1.1836288499998359e-02 -1.1627918431117946e+01 -7.8290959007570848e+01 6.3935543138840643e+01 -6.9663319752017543e+01 6.1481651714469926e+01 2.2112471676208754e-02 -8.4797349076085400e+00
1.3300000000000001e+00 -2.0814328421064763e-02 -1.1694978275738649e+01 -7.0447124157623975e+01 4.4283331107362450e+01 -7.3032672067386216e+01 2.5206336339128807e+01 1.8009193260365493e-02 -8.5432892999933241e+00
1.3400000000000001e+00 -3.4444859994600209e-02 -1.1683052956486703e+01 -7.5861644382216895e+01 3.4743948400472050e+01 -7.2375296203424710e+01 7.8179522008966842e+01 1.8217193643404999e-02 -8.4104705446280885e+00
1.3500000000000001e+00 -1.3460639362364486e-02 -1.1930766740818404e+01 -7.0839989209399079e+01 8.7596131285199803e+01 -6.9311377098374990e+01 8.3501549955306416e+01 2.2111590097024569e-02 -8.6812346773922453e+00
1.3600000000000001e+00 -1.4662152419252974e-02 -1.2020034095962476e+01 -7.3426473535307252e+01 3.4776246217397293e+01 -7.1438153915177679e+01 8.7813981921074287e+01 1.9387786797767228e-02 -8.7580886768320632e+00
1.3700000000000001e+00 -1.3083306457687975e-02 -1.2120499426034586e+01 -7.5339424721633833e+01 8.1947763010302765e+01 -6.8921235851836116e+01 7.7483511066607022e+01 2.1283316548123377e-02 -8.8315827281736983e+00
1.3799999999999999e+00 -1.3027964220064163e-02 -1.2180304080655134e+01 -7.0787798265818665e+01 5.6981735619571353e+01 -7.2054142939235803e+01 4.3585965248040416e+01 2.1705070704482694e-02 -8.9002267585350054e+00
1.3899999999999999e+00 -1.3269210900928263e-02 -1.2288866008985757e+01 -7.2968590824828780e+01 6.8606918931337489e+01 -7.2840210145858848e+01 9.3348428616845723e+01 2.4888323351348662e-02 -8.9599473526389470e+00
1.3999999999999999e+00 -1.3883201406399788e-02 -1.2385466792658711e+01 -6.9730500382008756e+01 7.1702614423138044e+01 -7.1748403514906030e+01 8.6387161667423598e+01 2.2557577959686530e-02 -9.0316862564758473e+00
1.4099999999999999e+00 -1.3110236285881571e-02 -1.2490228044818714e+01 -6.7495367473836168e+01 7.7279419782820739e+01 -7.4453440881365992e+01 8.0743973919267773e+01 2.1762619600276902e-02 -9.1055354868999814e+00
1.4199999999999999e+00 -1.3796776394246377e-02 -1.2583714923301812e+01 -7.2806528102901325e+01 5.6014259071684975e+01 -6.8932818826883803e+01 7.0666488012113803e+01 2.2471346075124323e-02 -9.1697800707600070e+00
1.4299999999999999e+00 -1.3935569538304181e-02 -1.2673757283206172e+01 -6.9220686107272357e+01 7.3443767915612796e+01 -7.0198845897288621e+01 6.5004592535313421e+01 2.0774684563340567e-02 -9.2380531830795789e+00
1.4399999999999999e+00 -1.3603080164263795e-02 -1.2783551889626464e+01 -6.5581842267619592e+01 6.3692958447725587e+01 -6.8277681692676524e+01 4.7326862422010265e+01 2.0914372047043793e-02 -9.3102499709831275e+00
1.4500000000000000e+00 -1.3898853941804411e-02 -1.2862483799451716e+01 -7.0645630246361137e+01 6.2655739728411241e+01 -6.8974823687685912e+01 7.9112772760242720e+01 2.1049092741863666e-02 -9.3812955182241105e+00
1.4600000000000000e+00 -1.3549512697429825e-02 -1.2957376813426583e+01 -6.6586453463278687e+01 8.4049965523129103e+01 -6.7795949060758332e+01 1.1233284566196606e+02 2.0841865539449285e-02 -9.4518536243719939e+00
1.4700000000000000e+00 -1.2909000852413453e-02 -1.3042953468042235e+01 -7.6952362937374062e+01 1.1773806662881489e+02 -7.1602239165702201e+01 6.5922199849950715e+01 2.0458799342467145e-02 -9.5235690501718118e+00
1.4800000000000000e+00 -1.3899288182721327e-02 -1.3152887383589235e+01 -6.8550824525139035e+01 7.8772356318443286e+01 -7.1392720723060862e+01 8.1191616463232847e+01 2.1478011648078922e-02 -9.5909357441171856e+00
1.4900000000000000e+00 -1.3897297772675735e-02 -1.3248008561551261e+01 -7.1166268173098757e+01 5.7554039212010991e+01 -6.6965783366478519e+01 7.4609839282745796e+01 2.0980224572231136e-02 -9.6645068965053671e+00
1.5000000000000000e+00 -1.4145314297180678e-02 -1.3333179545589701e+01 -6.8650472436124844e+01 7.3711597293265910e+01 -6.6678626293300709e+01 7.2116392733071095e+01 2.0341388806084770e-02 -9.7427168523398269e+00
1.5100000000000000e+00 -1.4785264919910770e-02 -1.3440828016727353e+01 -6.9206276926817367e+01 6.8042677702805861e+01 -7.1472248191539506e+01 9.5295048112215824e+01 2.1004828780263066e-02 -9.8080393214318313e+00
1.5200000000000000e+00 -1.4317616777654646e-02 -1.3535332918354566e+01 -6.8151833054780383e+01 8.6364576027564738e+01 -6.7936179489269051e+01 8.3419636036615955e+01 2.0189667873524386e-02 -9.8802775890370107e+00
1.5300000000000000e+00 -1.4441785079787176e-02 -1.3626286926415824e+01 -6.6940937320525066e+01 5.4598613289906268e+01 -6.7407108106019265e+01 9.7724530294886890e+01 2.0225463672700936e-02 -9.9444737498304931e+00
1.5400000000000000e+00 -1.4953946905900588e-02 -1.3735448967618931e+01 -6.7900154540847936e+01 5.3559030100372347e+01 -6.7971578893382457e+01 6.1391394801771071e+01 1.9674216980237923e-02 -1.0023658663891714e+01
1.5500000000000000e+00 -1.5047259292460516e-02 -1.3835628137024864e+01 -6.7140674113694189e+01 6.7387135791889008e+01 -6.4884986779076442e+01 8.3080317268134706e+01 2.0239892701040110e-02 -1.0093318863438030e+01
1.5600000000000001e+00 -1.4593342842887290e-02 -1.3923292198360139e+01 -6.6053617905422243e+01 8.9183833989563226e+01 -7.3682053078820275e+01 8.0953395643651874e+01 1.9485015702337547e-02 -1.0162257167389537e+01
1.5700000000000001e+00 -1.4217769538200366e-02 -1.4025443111059753e+01 -6.8454922602762181e+01 9.8200167899242587e+01 -6.6076431096478927e+01 8.3804319055919834e+01 2.0597279876439598e-02 -1.0238691781089743e+01
1.5800000000000001e+00 -1.4949841873143160e-02 -1.4120680323623031e+01 -6.7854961589946242e+01 7.7616941014422551e+01 -6.8045641309917897e+01 6.5203317514128514e+01 2.0193352223518281e-02 -1.0314639760275227e+01
1.5900000000000001e+00 -1.5182902453894922e-02 -1.4213589180156973e+01 -6.7438113950047267e+01 7.6323319450792752e+01 -6.7330459907688521e+01 7.3687687618259361e+01 1.9965436934162372e-02 -1.0385762712927502e+01
1.6000000000000001e+00 -1.4626386238467237e-02 -1.4320122888963425e+01 -6.5820917853322840e+01 8.6574623521087958e+01 -6.6671667026218870e+01 8.0790874252206578e+01 2.0289847178243930e-02 -1.0455288594800280e+01
1.6100000000000001e+00 -1.5277365357794698e-02 -1.4412265956865610e+01 -6.4766974474648777e+01 7.7886054656754609e+01 -6.4148419408344523e+01 8.3730732259209518e+01 1.9394463816152591e-02 -1.0529425525608849e+01
1.6200000000000001e+00 -1.4566337230356927e-02 -1.4510859998446561e+01 -6.5867916982612456e+01 9.2585009629182679e+01 -6.4723666305148612e+01 8.0423241725972915e+01 1.9630287947709969e-02 -1.0593305239497933e+01
1.6299999999999999e+00 -1.4588484774206028e-02 -1.4624168700354076e+01 -6.3430204946002206e+01 8.2852175078735783e+01 -6.6099579110358945e+01 8.8941976261392597e+01 2.0575827215835979e-02 -1.0679830974886370e+01
1.6399999999999999e+00 -1.5141576969085442e-02 -1.4715952333517119e+01 -6.5084130063874866e+01 8.4779423083949212e+01 -6.3883329963304753e+01 7.5446230913896827e+01 1.9391832304598008e-02 -1.0747738883788212e+01
1.6499999999999999e+00 -1.4857179774589861e-02 -1.4811938607618217e+01 -6.4520278494206579e+01 6.5137505585070599e+01 -6.3079106651429754e+01 8.5353101966673790e+01 1.9835192707422608e-02 -1.0818648935979637e+01
1.6599999999999999e+00 -1.5486240295356193e-02 -1.4894594627919814e+01 -6.5544334326926588e+01 7.4700914718909473e+01 -6.3509465313031782e+01 8.3114552094687184e+01 1.8973425940064452e-02 -1.0894181784055277e+01
1.6699999999999999e+00 -1.5171896853785666e-02 -1.5001767524515881e+01 -6.5307981243173060e+01 8.9085262464615340e+01 -6.7053192494019896e+01 5.1146984412292412e+01 1.9724470658911086e-02 -1.0964667499794464e+01
1.6799999999999999e+00 -1.6090107691747201e-02 -1.5104760360392053e+01 -6.4287297621213156e+01 8.2067520065511602e+01 -6.7437666880474893e+01 8.1178941266017560e+01 1.9772106278674217e-02 -1.1032809549449116e+01
1.6899999999999999e+00 -1.6182995902699948e-02 -1.5194539887472617e+01 -6.6279995018639767e+01 7.3653484553511774e+01 -6.7953243178217292e+01 8.6080542499217685e+01 1.9453940471317526e-02 -1.1115153646840003e+01
1.7000000000000000e+00 -1.6155945409367121e-02 -1.5313863551776038e+01 -6.2426106935950749e+01 7.3534795355269623e+01 -6.3593818881032860e+01 6.9837306423931622e+01 1.9099340707877423e-02 -1.1189984573949554e+01
1.7100000000000000e+00 -1.6064609548060056e-02 -1.5408157919812405e+01 -6.1716806040081273e+01 8.7766565959440740e+01 -6.3241699056526684e+01 7.1989797849747518e+01 2.0080441516276904e-02 -1.1261679828890083e+01
1.7200000000000000e+00 -1.5855344863842078e-02 -1.5493086256402208e+01 -6.3758140932040028e+01 7.8142182229971027e+01 -6.2389696539591398e+01 9.1603310426893970e+01 1.9640630126953117e-02 -1.1342083929036825e+01
1.7300000000000000e+00 -1.4956704362961544e-02 -1.5615060991150562e+01 -6.5443546885720579e+01 8.0743614310639515e+01 -6.3828010421909973e+01 9.1847879506303315e+01 1.9878931075883371e-02 -1.1414779982117704e+01
1.7400000000000000e+00 -1.6515480572999577e-02 -1.5703006076800975e+01 -6.3017075172507973e+01 9.7999897034157328e+01 -6.2316534046653736e+01 8.8129510261909175e+01 1.9582545575214275e-02 -1.1484179402984537e+01
1.7500000000000000e+00 -1.4952143627191248e-02 -1.5812589589230774e+01 -6.3573912524832721e+01 8.4721868617423695e+01 -6.4160639058080804e+01 8.2031824855229118e+01 2.0061204330938578e-02 -1.1560854674928642e+01
1.7600000000000000e+00 -1.5097328217675354e-02 -1.5908692135540685e+01 -6.3110311434269171e+01 7.3059748418543805e+01 -6.4001098186879446e+01 7.7321969560159403e+01 1.9539917039563832e-02 -1.1632344572226309e+01
1.7700000000000000e+00 -1.6448996229405904e-02 -1.6009708621775044e+01 -6.3585023238279149e+01 8.4232275702469650e+01 -6.1476601868404629e+01 8.5187383621349440e+01 2.1075379867358544e-02 -1.1710785278698701e+01
1.7800000000000000e+00 -1.6828291741308492e-02 -1.6126825042332584e+01 -6.3061667930356776e+01 8.3401805994014424e+01 -6.2998091894443071e+01 8.5420935347826941e+01 2.0294109827692981e-02 -1.1791211731276931e+01
1.7900000000000000e+00 -1.5783824545695071e-02 -1.6226622840133292e+01 -6.2197363605737017e+01 8.2254139641709259e+01 -6.3521899768678686e+01 7.4696003668582733e+01 1.9359078065875928e-02 -1.1866750928733355e+01
1.8000000000000000e+00 -1.6467659304566971e-02 -1.6329978014639469e+01 -6.1499680722849888e+01 8.2724256416566803e+01 -6.2186644113851315e+01 8.0882248516197592e+01 1.9788856238772988e-02 -1.1935300676471854e+01
1.8100000000000001e+00 -1.5957579815610922e-02 -1.6422399995791089e+01 -6.2541152420578136e+01 8.5957625503917910e+01 -5.9184151991787019e+01 7.5177417942759661e+01 1.9395547795847831e-02 -1.2011533488365483e+01
1.8200000000000001e+00 -1.6664921372868360e-02 -1.6523329276802581e+01 -6.2014670102160835e+01 7.2636070093365703e+01 -6.3848496275713920e+01 8.2881358966479027e+01 1.9609313860931829e-02 -1.2088462580468569e+01
1.8300000000000001e+00 -1.6652594496707147e-02 -1.6627165733044873e+01 -6.1064863063779590e+01 8.4631783217781390e+01 -6.2623698174853530e+01 7.7029407302564451e+01 1.9249398509193327e-02 -1.2166371057982259e+01
1.8400000000000001e+00 -1.6239603312659841e-02 -1.6727185876962988e+01 -6.2442959001925985e+01 7.4462498173575668e+01 -5.9572162340503226e+01 8.2780516279981654e+01 1.9418553426616081e-02 -1.2248361582275678e+01
1.8500000000000001e+00 -1.7017324218376449e-02 -1.6827723814255741e+01 -6.0646931776920056e+01 7.4553735377392115e+01 -6.3098547587803246e+01 8.2378905431888015e+01 1.9833246810000579e-02 -1.2325379592814331e+01
1.8600000000000001e+00 -1.6202964230189219e-02 -1.6929869169463842e+01 -6.2066135410996218e+01 7.7714584491821668e+01 -6.1220189880667363e+01 7.7172051794999561e+01 1.9090344979967411e-02 -1.2397411308930623e+01
1.8700000000000001e+00 -1.7307849915500405e-02 -1.7044714690814182e+01 -6.1115977918241470e+01 8.8375609357366670e+01 -6.0059341406919991e+01 8.6085394877576576e+01 1.9995525047911224e-02 -1.2477039310002006e+01
1.8799999999999999e+00 -1.7745637731742158e-02 -1.7138172674445155e+01 -6.0619628803609814e+01 7.3340646218443922e+01 -6.1200224923450179e+01 8.4706198936596351e+01 2.0068688354348947e-02 -1.2552205414908604e+01
1.8899999999999999e+00 -1.7131568881238072e-02 -1.7243639200887756e+01 -6.0817097347517603e+01 7.4331289149943956e+01 -6.0993579614069198e+01 7.0089881189832838e+01 1.9120541070734812e-02 -1.2624690183197082e+01
1.8999999999999999e+00 -1.6715212116353205e-02 -1.7353928334648021e+01 -6.1453985873240924e+01 7.8282177453576722e+01 -6.2452937435160379e+01 7.1412510193446337e+01 1.9691007997904020e-02 -1.2700960547781822e+01
1.9099999999999999e+00 -1.7222779091518828e-02 -1.7455839529799050e+01 -5.9912082385991894e+01 7.5832004804330225e+01 -6.0178542604986511e+01 7.9128406942134035e+01 1.9517859319975656e-02 -1.2783250778569087e+01
1.9199999999999999e+00 -1.7187433604981924e-02 -1.7557221722326364e+01 -5.8856279588051322e+01 7.9372304572169611e+01 -5.9387962047586512e+01 8.5539915579722773e+01 1.9220635461993041e-02 -1.2860653617014252e+01
1.9299999999999999e+00 -1.7724770872014385e-02 -1.7667222849063194e+01 -5.9653147501877619e+01 7.8301876642931944e+01 -5.9094692784253446e+01 6.8231242792004039e+01 1.9487527129994190e-02 -1.2934267742061694e+01
