# MHz S DB R 50
1.0000000000000000e+00 -1.3227048478439290e-02 -8.8707495053814842e+00 -7.2133722241625492e+01 5.7063001985485613e+01 -7.4979250187768230e+01 9.2389152818856417e+01 -8.1874601830782771e-03 -6.6522073941960871e+00
1.0100000000000000e+00 -1.3350414939002962e-02 -8.9732818002616064e+00 -7.3593905386632287e+01 5.1615313716317218e+01 -7.5765921305138605e+01 1.2799572544195860e+02 -9.7483525074037285e-03 -6.7136528067362065e+00
1.0200000000000000e+00 -1.1967355057989050e-02 -9.0528343369389912e+00 -6.7952239850577584e+01 4.5919801195370802e+01 -7.5531184333458668e+01 6.8724868817639788e+01 -9.7129626257957610e-03 -6.7823133218667859e+00
1.0300000000000000e+00 -1.2756080758092123e-02 -9.1432958514447655e+00 -7.2478126888371946e+01 5.8526670757794541e+01 -7.4040176565999133e+01 4.4023203305946048e+01 -9.8784788607387056e-03 -6.8468995496429468e+00
1.0400000000000000e+00 -1.2789873082265975e-02 -9.2343725599384694e+00 -7.0792290381433986e+01 8.5861914592547947e+01 -6.9133087808317043e+01 5.0895958958338312e+01 -9.7047970999619322e-03 -6.9231087756689753e+00
1.0500000000000000e+00 -1.2878605759662513e-02 -9.3512124251660467e+00 -7.4287057540124266e+01 6.6748343136914713e+01 -7.2191380464776273e+01 4.7472226979664953e+01 -9.3685073800969468e-03 -6.9828127472157435e+00
1.0600000000000001e+00 -1.3366812905090210e-02 -9.4268682273095834e+00 -7.1582739085577060e+01 8.7648768597258396e+01 -7.3807744291457539e+01 5.1731214973410566e+01 -1.0086888412124958e-02 -7.0474247115691107e+00
1.0700000000000001e+00 -1.4175705823876044e-02 -9.5174980259838922e+00 -8.0467667330815488e+01 4.4558703530573673e+01 -7.3526746716734920e+01 8.3639385755866968e+01 -9.8860605839739251e-03 -7.1153007694185249e+00
1.0800000000000001e+00 -1.3609955215116586e-02 -9.6078585820956857e+00 -7.1953173560403741e+01 8.2731825986522637e+01 -7.2796386898754221e+01 1.9285168200102735e+01 -1.0152142558225425e-02 -7.1827433067049666e+00
1.0900000000000001e+00 -1.4202614961179550e-02 -9.7082492992378064e+00 -7.1162581211285570e+01 8.0631396078106377e+01 -7.6895332946085290e+01 6.4622057989428470e+01 -1.1544013537701776e-02 -7.2516884457263657e+00
1.1000000000000001e+00 -1.4242288566357533e-02 -9.7964993253832446e+00 -7.1215596379303193e+01 1.9273103662806793e+01 -6.9590214854032681e+01 8.3653947676370734e+01 -1.0964334268500554e-02 -7.3196250524911175e+00
1.1100000000000001e+00 -1.4614858879966297e-02 -9.8837646304003073e+00 -7.2044910135360155e+01 5.2080658209199100e+01 -6.8352138594717815e+01 3.5993585532763994e+01 -1.0935366523956474e-02 -7.3827114224088852e+00
1.1200000000000001e+00 -1.3555126190427324e-02 -9.9760578501074715e+00 -7.6104916643443929e+01 1.3673861687288201e+02 -7.0570274351681178e+01 3.2135119360148678e+01 -1.1477730082346408e-02 -7.4500679476786003e+00
1.1299999999999999e+00 -1.3783236716832119e-02 -1.0061877276710883e+01 -7.0963178417155589e+01 8.7147737980331090e+00 -7.1145847417245221e+01 5.9579666028177087e+01 -1.1543376252362510e-02 -7.5160687381869193e+00
1.1399999999999999e+00 -1.5298586551226453e-02 -1.0169981458683228e+01 -7.4361918755870818e+01 7.7022806864386723e+01 -6.8810310310471792e+01 8.0896382321662045e+01 -1.1745493125213915e-02 -7.5871333504999789e+00
1.1499999999999999e+00 -1.5392128648003347e-02 -1.0251325746973617e+01 -7.6947269660765571e+01 4.3284917675161466e+01 -7.2652199342513171e+01 9.0399895412945739e+01 -1.1899105046976093e-02 -7.6526469279976634e+00
1.1599999999999999e+00 -1.5804196005252132e-02 -1.0357634872761238e+01 -6.9311483968527625e+01 5.2599966494614051e+01 -7.1209999484601170e+01 5.7251183588681833e+01 -1.2114516290658420e-02 -7.7180385104459353e+00
1.1699999999999999e+00 -1.5161810786735773e-02 -1.0452024789529139e+01 -7.1102594550795175e+01 7.0784073013814776e+01 -7.1274690797571992e+01 3.3163067136512602e+01 -1.2752443842455502e-02 -7.7839150589920072e+00
1.1799999999999999e+00 -1.4659416519756567e-02 -1.0526489683561753e+01 -7.2888524637515133e+01 6.7541495903816227e+01 -8.7582657490303987e+01 1.3818330553366550e+01 -1.2288590694696306e-02 -7.8543144799162397e+00
1.1899999999999999e+00 -1.5566979978960151e-02 -1.0635089292296838e+01 -7.0577145645924574e+01 -2.0025451968338896e+01 -6.8312180324932044e+01 6.8005588635435387e+01 -1.2975998880440830e-02 -7.9204632619159305e+00
1.2000000000000000e+00 -1.4307444104631927e-02 -1.0713180662079756e+01 -7.2700596958761196e+01 4.4229183896830627e+01 -7.2613922458194025e+01 3.8771711105569707e+01 -1.3540682869477086e-02 -7.9946579143275356e+00
1.2100000000000000e+00 -1.5578624930289459e-02 -1.0810150128804546e+01 -7.2028415869888789e+01 5.0098093523691567e+01 -6.8708667774677664e+01 6.9737815317072460e+01 -1.3257214407796702e-02 -8.0644867116992280e+00
1.2200000000000000e+00 -1.5557101448910786e-02 -1.0913158192616818e+01 -7.3362533900645957e+01 5.0164929973311651e+01 -7.7355051765219770e+01 3.1184401710353111e+01 -1.2708021792914267e-02 -8.1260013341790724e+00
1.2300000000000000e+00 -1.5491989738721849e-02 -1.0992118026554239e+01 -7.1712769127193894e+01 8.9422102894288301e+01 -7.0425898435149804e+01 2.2694673744533702e+01 -1.3266641966040622e-02 -8.1982028577436470e+00
1.2400000000000000e+00 -1.5406621328834132e-02 -1.1083158555514084e+01 -7.3319599992364999e+01 4.4405232358179752e+01 -7.1431130029702388e+01 6.1082482147974162e+01 -1.3555281036360840e-02 -8.2630982348912596e+00
1.2500000000000000e+00 -1.4809384418240578e-02 -1.1175458503627359e+01 -7.3385960509303715e+01 7.8809024523355660e+01 -7.1392328250860174e+01 6.2582669677613268e+01 -1.4080678375134908e-02 -8.3331900686675535e+00
1.2600000000000000e+00 -1.4580561155956680e-02 -1.1258733852678985e+01 -6.7223066209352410e+01 7.1532134666289082e+01 -6.8121858846563200e+01 7.5201546844766241e+01 -1.3429102989977910e-02 -8.3989091064801311e+00
1.2700000000000000e+00 -1.6248755165369496e-02 -1.1364370402237599e+01 -6.8782824437584054e+01 7.1571345616460761e+01 -7.0299927982681609e+01 6.5033494183138956e+01 -1.3826771125974940e-02 -8.4778318625731188e+00
1.2800000000000000e+00 -1.6002109803249721e-02 -1.1463239749059984e+01 -6.7676617229128738e+01 5.0863905202019957e+01 -7.5675487439204772e+01 8.1978968563268026e+01 -1.4628635798709478e-02 -8.5391251838404649e+00
1.2900000000000000e+00 -2.0195241082881368e-02 -1.1545921437932709e+01 -7.3912193567098228e+01 6.0185752993644449e+01 -6.8144804521923561e+01 7.1291876023455373e+01 -1.4439260917070002e-02 -8.5913745604008209e+00
1.3000000000000000e+00 -1.5436833210977177e-02 -1.1650643069622966e+01 -6.6771106188007778e+01 6.5383202513139366e+01 -6.7558255057612357e+01 6.3761969971270439e+01 -1.4352171294672882e-02 -8.6734978036982060e+00
1.3100000000000001e+00 -1.8910099881318910e-02 -1.1735332441532742e+01 -6.7992783220738630e+01 7.0808333963044120e+01 -6.6351295628925769e+01 4.1989784447735289e+01 -1.6303135018685300e-02 -8.7645661470503118e+00
1.3200000000000001e+00 -1.1627095548033347e-02 -1.1821373455678492e+01 -7.5698081832231679e+01 6.0688978226427466e+01 -6.8879480522774372e+01 5.9340375360570263e+01 -1.8742001448050039e-02 -8.8153637025993135e+00
1.3300000000000001e+00 -1.2952571492477175e-02 -1.2015001625551694e+01 -7.0228599893289328e+01 4.9347802257427951e+01 -7.2882174632922357e+01 2.9099318319770560e+01 -8.1653816765608189e-03 -8.8464941920979872e+00
1.3400000000000001e+00 -6.3436753190435319e-02 -1.2075305529672869e+01 -7.2606978146596532e+01 2.5879523312004885e+01 -7.1182588093691635e+01 6.9950446491639994e+01 -2.3635577116433003e-02 -8.7519736764356146e+00
1.3500000000000001e+00 -1.6518475461202605e-02 -1.2120147767171666e+01 -7.0791197687300581e+01 8.5375997274265742e+01 -6.7841502744868308e+01 7.6762531554141205e+01 -1.5684442196217029e-02 -9.0251168574691967e+00
1.3600000000000001e+00 -1.8468777168754939e-02 -1.2231346211581849e+01 -7.2589859461550191e+01 3.9616721931529128e+01 -7.1146490962795198e+01 8.1342633828387889e+01 -2.0327153857528407e-02 -9.0970460739038330e+00
1.3700000000000001e+00 -1.8432752859113159e-02 -1.2323898379903261e+01 -7.3339185182465187e+01 7.8676427589733265e+01 -6.8281029803919935e+01 6.9186484157582299e+01 -1.4885973694930353e-02 -9.1663943613599592e+00
1.3799999999999999e+00 -1.6557382062155821e-02 -1.2394757409970083e+01 -7.0810174304260826e+01 6.2489638921822156e+01 -7.0912385605951357e+01 4.8947908792354269e+01 -1.5018157964565095e-02 -9.2328982594436262e+00
1.3899999999999999e+00 -1.7816444667463422e-02 -1.2485092567223846e+01 -7.1871067403682559e+01 6.9254420045457067e+01 -7.0965259113851886e+01 9.0355683201833273e+01 -1.4997151782899761e-02 -9.2984291909656029e+00
1.3999999999999999e+00 -1.7788709787197422e-02 -1.2586963880102411e+01 -6.9110436503156691e+01 6.7851574882282719e+01 -7.0935351636822645e+01 7.7977231230865144e+01 -1.5672247554278838e-02 -9.3714474739925251e+00
1.4099999999999999e+00 -1.7529869305673240e-02 -1.2681287631104247e+01 -6.6773844591326096e+01 7.1332545826172378e+01 -7.2253219951757387e+01 7.6743251506998860e+01 -1.5301398780423418e-02 -9.4367556108358386e+00
1.4199999999999999e+00 -1.6943265040169381e-02 -1.2776241490864031e+01 -7.1583782382248813e+01 5.4218202313218121e+01 -6.8659868884596762e+01 6.8097401764349272e+01 -1.5955435862665325e-02 -9.5107788396813024e+00
1.4299999999999999e+00 -1.7564550773843307e-02 -1.2876107657394700e+01 -6.8544465975044830e+01 7.2202287836750585e+01 -6.9442149879729683e+01 6.6067469266658676e+01 -1.6427895456167248e-02 -9.5789883760369801e+00
1.4399999999999999e+00 -1.8276107869291191e-02 -1.2978242615825224e+01 -6.5342223038214513e+01 6.0905284608962518e+01 -6.6882150950983743e+01 5.0144786646053305e+01 -1.6852605027045667e-02 -9.6450350732782422e+00
1.4500000000000000e+00 -1.7952190529912541e-02 -1.3048680757157475e+01 -7.0481574170501034e+01 6.7037874789805926e+01 -6.7571642038699821e+01 7.8267618239165913e+01 -1.6503371936731778e-02 -9.7158927537089657e+00
1.4600000000000000e+00 -1.7491428203826646e-02 -1.3157181203451271e+01 -6.5744281240193587e+01 8.1368916052949970e+01 -6.6749421601172656e+01 1.0595856785622124e+02 -1.7409259405692469e-02 -9.7876814696015604e+00
1.4700000000000000e+00 -1.8390304897054850e-02 -1.3253553668476373e+01 -7.5137121501070652e+01 1.0371538100289341e+02 -7.0427945520646432e+01 7.2565173444590812e+01 -1.7260321179964441e-02 -9.8582720443555978e+00
1.4800000000000000e+00 -1.7857947783546331e-02 -1.3349894167760846e+01 -6.7771063439950979e+01 7.4186364392601519e+01 -6.9275349876045297e+01 8.0861921997343075e+01 -1.6703733687428932e-02 -9.9241992440043454e+00
1.4900000000000000e+00 -1.8104732096383538e-02 -1.3448471999836887e+01 -6.9521265580863513e+01 5.9209852499173401e+01 -6.6564748947855733e+01 7.3865814484109450e+01 -1.6425248435658520e-02 -9.9974472763028572e+00
1.5000000000000000e+00 -1.8685033818327507e-02 -1.3529959133393193e+01 -6.7074700462890661e+01 7.1803806107843897e+01 -6.5475332595698305e+01 6.7980488941470725e+01 -1.7867101058993144e-02 -1.0075768645418471e+01
1.5100000000000000e+00 -1.9382345758749624e-02 -1.3646115245791352e+01 -6.8673496825488826e+01 6.8190809553594036e+01 -6.9192522319034339e+01 9.7647756149719655e+01 -1.7771300231032308e-02 -1.0141899637867654e+01
1.5200000000000000e+00 -1.8934445840363658e-02 -1.3749894026519124e+01 -6.6393825316598111e+01 8.5298852769702506e+01 -6.7301583788218522e+01 8.2442384490311341e+01 -1.7818616269826448e-02 -1.0217985672799639e+01
1.5300000000000000e+00 -1.8554245930732127e-02 -1.3831504896804022e+01 -6.5955911895363585e+01 5.5132546649924599e+01 -6.6079755317822645e+01 9.1367844761791176e+01 -1.6971285583278130e-02 -1.0288670875959497e+01
1.5400000000000000e+00 -2.0045898423992882e-02 -1.3932343440914794e+01 -6.7663705130102016e+01 5.5306635819480313e+01 -6.7000114649829641e+01 6.0729194978490263e+01 -1.7874323358672707e-02 -1.0361138009224664e+01
1.5500000000000000e+00 -1.8717996101162936e-02 -1.4029219217924112e+01 -6.6383085230664108e+01 6.9992682338111962e+01 -6.3917547115738643e+01 8.4429437519323244e+01 -1.7374595976553067e-02 -1.0428103574930120e+01
1.5600000000000001e+00 -1.9780588433567205e-02 -1.4128720456588320e+01 -6.5659145235692677e+01 8.4420941329875802e+01 -7.1323800815239650e+01 7.3018228069067192e+01 -1.7355457526274171e-02 -1.0498149355170012e+01
1.5700000000000001e+00 -1.9846248767690131e-02 -1.4231556756504167e+01 -6.6880843767595238e+01 9.5784623285376256e+01 -6.4849553788413118e+01 8.4689492107150954e+01 -1.6674089479462934e-02 -1.0568477108447921e+01
1.5800000000000001e+00 -1.8969006422161584e-02 -1.4315505606939633e+01 -6.6396142290519919e+01 8.0054913150622511e+01 -6.6789819334731519e+01 6.9146660879113909e+01 -1.7333123887731748e-02 -1.0648238344312650e+01
1.5900000000000001e+00 -1.9186114136965228e-02 -1.4429934583270184e+01 -6.6058030543343605e+01 7.7141859852343799e+01 -6.6174614042375296e+01 7.3724088101476823e+01 -1.7836981389123485e-02 -1.0720377395543597e+01
1.6000000000000001e+00 -1.9868891339775381e-02 -1.4523359605429448e+01 -6.4956606049966666e+01 8.5580816819705333e+01 -6.6115289861761838e+01 7.6342382841485005e+01 -1.7701143941962039e-02 -1.0783813645411204e+01
1.6100000000000001e+00 -1.9218397712459558e-02 -1.4611173287390923e+01 -6.4420266206015171e+01 7.8680028645260734e+01 -6.3570552602303479e+01 8.4864009625206776e+01 -1.7785671000755354e-02 -1.0858969734690325e+01
1.6200000000000001e+00 -1.9570340318334489e-02 -1.4723626787183200e+01 -6.4747916427679513e+01 8.6444132552260243e+01 -6.4091104920737138e+01 8.0893464682917710e+01 -1.8306752390648214e-02 -1.0934880534627300e+01
1.6299999999999999e+00 -1.9871156255842584e-02 -1.4829758982200747e+01 -6.3027530403856254e+01 8.0787213234631452e+01 -6.5842980153939763e+01 8.6541685426791560e+01 -1.7228696843081457e-02 -1.1012320887669361e+01
1.6399999999999999e+00 -1.9764956799946672e-02 -1.4910484525001307e+01 -6.4121054999775225e+01 8.2945753160403910e+01 -6.2985044735426847e+01 7.1330886661265396e+01 -1.7331253214392085e-02 -1.1081463572534595e+01
1.6499999999999999e+00 -1.9183606851123827e-02 -1.5010490119497378e+01 -6.4282753787294681e+01 6.2594376684485162e+01 -6.2661556924843993e+01 8.6004740995103134e+01 -1.8627758099512746e-02 -1.1157101904105064e+01
1.6599999999999999e+00 -2.0429960325120476e-02 -1.5108324465282376e+01 -6.5045076194356540e+01 7.2566322517438380e+01 -6.2492128252679997e+01 7.9437925394826664e+01 -1.8691773396071084e-02 -1.1230742346823996e+01
1.6699999999999999e+00 -2.0327211350229114e-02 -1.5212249140321829e+01 -6.4437012636434304e+01 8.5452116542147252e+01 -6.6580243764912012e+01 5.1810605004414832e+01 -1.7562005627095402e-02 -1.1300344114283140e+01
1.6799999999999999e+00 -2.0294641893180546e-02 -1.5313090819995338e+01 -6.3337906520022145e+01 7.9963951057296526e+01 -6.6318764326615309e+01 8.0541444385929580e+01 -1.8013523678896963e-02 -1.1375304276391732e+01
1.6899999999999999e+00 -2.0917003077218978e-02 -1.5411354614700841e+01 -6.5524478466951720e+01 7.2857677673249739e+01 -6.7416928574611120e+01 8.4333726893229326e+01 -1.8520769344635233e-02 -1.1452204186325643e+01
1.7000000000000000e+00 -2.0587679892775282e-02 -1.5515162165385421e+01 -6.1790976891631416e+01 7.6048785315549807e+01 -6.2576380843982385e+01 7.0660239361462686e+01 -1.8154582568708375e-02 -1.1521437983308905e+01
1.7100000000000000e+00 -2.1075631251513502e-02 -1.5615474701609932e+01 -6.0913847348895587e+01 8.7601756694743798e+01 -6.2409652009683242e+01 7.5178809615070406e+01 -1.8221180000472709e-02 -1.1594831421948440e+01
1.7200000000000000e+00 -2.0897372665230493e-02 -1.5701732241876536e+01 -6.3125362749273947e+01 7.9757786968368222e+01 -6.1577428838610885e+01 9.2191792707450517e+01 -1.9038673843867201e-02 -1.1672630023465238e+01
1.7300000000000000e+00 -1.9416921264989773e-02 -1.5814564269078675e+01 -6.4643341835041099e+01 8.0465933391239247e+01 -6.2845571863958682e+01 8.9062390836937141e+01 -1.8119321180748764e-02 -1.1739067602501351e+01
1.7400000000000000e+00 -2.0883861185542616e-02 -1.5901879148060837e+01 -6.2146285759563440e+01 9.2491291800051144e+01 -6.1435068691884297e+01 8.9881186384286067e+01 -1.8138935496304347e-02 -1.1821016343695012e+01
1.7500000000000000e+00 -2.0217044727543737e-02 -1.5998578928035938e+01 -6.2733029912710769e+01 8.2135868489992745e+01 -6.3071575086611574e+01 8.0103248574901002e+01 -1.8016169763039033e-02 -1.1891919770462650e+01
1.7600000000000000e+00 -2.1264235225336582e-02 -1.6109705264231941e+01 -6.2378288239067885e+01 7.5785459163452430e+01 -6.3014454212726527e+01 7.9637520640543414e+01 -1.7619657394528660e-02 -1.1963015007908558e+01
1.7700000000000000e+00 -2.1514804147883211e-02 -1.6208476389114978e+01 -6.3037483267013037e+01 8.2485446659738074e+01 -6.0773759328917350e+01 8.4958833603456213e+01 -1.7603241086856274e-02 -1.2048703915377470e+01
1.7800000000000000e+00 -2.1752160731091714e-02 -1.6330644877123657e+01 -6.2138668952711534e+01 8.2089478524835272e+01 -6.2308693259583244e+01 8.4159459053783536e+01 -1.7980900750380474e-02 -1.2118459195499923e+01
1.7900000000000000e+00 -2.1538778549414949e-02 -1.6413696118197702e+01 -6.1313554873068050e+01 8.0578182688704644e+01 -6.2481413192519184e+01 7.8894174219079048e+01 -1.8307228080826462e-02 -1.2196115405244704e+01
1.8000000000000000e+00 -2.0875015608656722e-02 -1.6517130039498891e+01 -6.0701210087246345e+01 8.2484436719479888e+01 -6.1221202830293748e+01 7.9315053233509914e+01 -1.8154495979918032e-02 -1.2264688504478041e+01
1.8100000000000001e+00 -2.1730971354658131e-02 -1.6624045166149230e+01 -6.2242223964549325e+01 8.4522450644977994e+01 -5.8731948297475199e+01 7.5312005734115985e+01 -1.8456038751673228e-02 -1.2346050702447151e+01
1.8200000000000001e+00 -2.2269467181594317e-02 -1.6711957741725996e+01 -6.1390818192708956e+01 7.2701240675606854e+01 -6.2840970416047661e+01 8.0278134795827114e+01 -1.8477225917373736e-02 -1.2417456163803273e+01
1.8300000000000001e+00 -2.1570142048116477e-02 -1.6822027013565044e+01 -6.0138425684825599e+01 8.3129012125828453e+01 -6.2091942747354395e+01 7.6765212468808656e+01 -1.9154766977309039e-02 -1.2503513164069981e+01
1.8400000000000001e+00 -2.1168545522240054e-02 -1.6917854988123185e+01 -6.1232698563339483e+01 7.1760109824811778e+01 -5.8688578196917760e+01 8.1175966710501513e+01 -1.8817056659271574e-02 -1.2572334403790240e+01
1.8500000000000001e+00 -2.2083192185391384e-02 -1.7021992538384339e+01 -5.9538181626566029e+01 7.2674864778488299e+01 -6.1828980153439794e+01 7.5580328487996780e+01 -1.8495534185594416e-02 -1.2657102254898376e+01
1.8600000000000001e+00 -2.1190847218991199e-02 -1.7136277690610950e+01 -6.0721693878146709e+01 7.4357175993857012e+01 -5.9817890384427130e+01 7.2757371766809101e+01 -1.9403097969295582e-02 -1.2725454276292831e+01
1.8700000000000001e+00 -2.1790268305365061e-02 -1.7237871912254647e+01 -5.9891372384836224e+01 8.4508373896068733e+01 -5.8588004650004244e+01 8.1196091769412405e+01 -1.8828593834534793e-02 -1.2812352305776123e+01
1.8799999999999999e+00 -2.2406828460055671e-02 -1.7339020458434227e+01 -5.9200900502900666e+01 6.8901228250416708e+01 -5.9948359075222221e+01 8.0663023182998543e+01 -1.8158323963989965e-02 -1.2882857106857708e+01
1.8899999999999999e+00 -2.1681570141268442e-02 -1.7428202602225461e+01 -6.0208081151527736e+01 7.6064538764780707e+01 -6.0630446115973101e+01 6.8170225195627836e+01 -1.9249468308148141e-02 -1.2957221593336332e+01
1.8999999999999999e+00 -2.1542169143420463e-02 -1.7525553331824177e+01 -6.0371838826637841e+01 7.7341466959550885e+01 -6.0624682517457813e+01 7.0185818022276308e+01 -1.8904189335448816e-02 -1.3027548665749826e+01
1.9099999999999999e+00 -2.2018652201214649e-02 -1.7640145796007381e+01 -5.9222023471096755e+01 7.5107490268293134e+01 -5.9382600488381570e+01 7.6226912552062899e+01 -1.8981415085515332e-02 -1.3115462388117118e+01
1.9199999999999999e+00 -2.2552867506560898e-02 -1.7748994192259211e+01 -5.8002789065900366e+01 8.1184916394400076e+01 -5.8673163813141159e+01 8.7290298993177984e+01 -1.9189481805348345e-02 -1.3191449299787489e+01
