# MHz S DB R 50
1.0000000000000000e+00 -1.3781854714128971e-02 -8.8893194792573524e+00 -7.2493313102057868e+01 5.4951094999050099e+01 -7.5800540028468760e+01 1.0473360145068034e+02 -4.5995910362972344e-03 -6.6752229327276176e+00
1.0100000000000000e+00 -1.3682109235011102e-02 -8.9771098435295009e+00 -7.8954907448568207e+01 5.4638544759828299e+01 -7.7985077049564154e+01 1.3583379126912843e+02 -6.0632055334313489e-03 -6.7337601536452656e+00
1.0200000000000000e+00 -1.2605848529695636e-02 -9.0584859656238521e+00 -6.9587227164817847e+01 4.9596336272499606e+01 -7.8213074041512940e+01 5.7250415257919514e+01 -6.2539888801073744e-03 -6.8002135998165452e+00
1.0300000000000000e+00 -1.3188149538586847e-02 -9.1560814831913842e+00 -7.3117283065427173e+01 6.2674811621169638e+01 -7.7690057397664958e+01 4.8605708771505675e+01 -6.9643577312272550e-03 -6.8693043967858927e+00
1.0400000000000000e+00 -1.2876554426783300e-02 -9.2552286787432152e+00 -7.2939361497136673e+01 8.6308144148552842e+01 -6.9814288558073201e+01 5.0212188336205955e+01 -6.0173696143476889e-03 -6.9420649219911823e+00
1.0500000000000000e+00 -1.4356561212560499e-02 -9.3500517748896730e+00 -7.4658759526897782e+01 6.3484920547738064e+01 -7.4277806695901475e+01 5.4355762188006665e+01 -5.9882407716826836e-03 -7.0024904955377307e+00
1.0600000000000001e+00 -1.4378640046099646e-02 -9.4409488869860141e+00 -7.2627203608140846e+01 8.6416858499887596e+01 -7.5062800277251824e+01 5.4810121386252497e+01 -6.3092294874984144e-03 -7.0686542859726202e+00
1.0700000000000001e+00 -1.4215740428896858e-02 -9.5285101081830597e+00 -8.6509459936419418e+01 3.8111512117215836e+00 -7.5021911339361623e+01 8.3393720356428062e+01 -7.3028469078559042e-03 -7.1383894636071927e+00
1.0800000000000001e+00 -1.3720379673872506e-02 -9.6199761474160681e+00 -7.3731905157395715e+01 8.5703184244649279e+01 -7.4762546973520728e+01 1.9262828760339019e+01 -7.3833273432356294e-03 -7.2069013213348878e+00
1.0900000000000001e+00 -1.4795516230181880e-02 -9.7207381332883767e+00 -7.2817674701314758e+01 8.5681688101967865e+01 -8.0624624927875900e+01 7.8256406964070123e+01 -8.4152964429315170e-03 -7.2737775434958856e+00
1.1000000000000001e+00 -1.4630566735057464e-02 -9.8002803998889920e+00 -7.2491794237366150e+01 5.2693695647910577e+00 -7.0971759837592515e+01 8.1578828062496029e+01 -7.6158186179677602e-03 -7.3398147817008965e+00
1.1100000000000001e+00 -1.5749924467013624e-02 -9.9034271670631266e+00 -7.4179777007658544e+01 4.4115710135740009e+01 -6.9967107406080288e+01 3.3240636347917494e+01 -7.8535753890288783e-03 -7.3983755565967320e+00
1.1200000000000001e+00 -1.4826285085766900e-02 -9.9906424272139027e+00 -7.6582807646283854e+01 1.4454607582303947e+02 -7.1303526928777472e+01 3.0419403774162713e+01 -7.9219531256351488e-03 -7.4680785206797173e+00
1.1299999999999999e+00 -1.4409870304718847e-02 -1.0072111995217423e+01 -7.2564840159846369e+01 -5.0009314205967104e-01 -7.1647472063464534e+01 5.9306109735193488e+01 -8.2151424395783719e-03 -7.5384626778408501e+00
1.1399999999999999e+00 -1.5515066908857580e-02 -1.0173200292272593e+01 -7.6693298506225176e+01 8.3715203694010071e+01 -7.0268024351010780e+01 8.8739678234403158e+01 -8.3853005040000709e-03 -7.6130658292677191e+00
1.1499999999999999e+00 -1.6151264903321843e-02 -1.0273934699233255e+01 -7.8438960046283640e+01 5.2314309208617701e+01 -7.4959797143731521e+01 1.1135168522785520e+02 -8.5203528066062958e-03 -7.6699456019901131e+00
1.1599999999999999e+00 -1.6700160132591260e-02 -1.0367423757487343e+01 -6.9889386798339558e+01 4.9241640184166421e+01 -7.2194544604785506e+01 4.5554707053395255e+01 -9.1644196670403518e-03 -7.7406261164148482e+00
1.1699999999999999e+00 -1.5231052706845568e-02 -1.0450662773555706e+01 -7.3039380031300055e+01 7.7680390583592555e+01 -7.1876951571285986e+01 2.1296715121567583e+01 -8.6104335335661555e-03 -7.8019796049140240e+00
1.1799999999999999e+00 -1.5882989065142867e-02 -1.0539462949313414e+01 -7.3999294159508764e+01 5.8711138663161023e+01 -9.2516658512395026e+01 -2.7686176054365497e+01 -9.4083147807920396e-03 -7.8762354470720934e+00
1.1899999999999999e+00 -1.5831947194481333e-02 -1.0645360198614862e+01 -7.0722478620202850e+01 -9.7501767499101373e+00 -7.2348646816824228e+01 6.9956568612571630e+01 -8.6582990991966261e-03 -7.9446048482476446e+00
1.2000000000000000e+00 -1.5409869199095752e-02 -1.0724897919914097e+01 -7.5912666095806856e+01 5.2107156194903389e+01 -7.3799200626891150e+01 2.6851172709143523e+01 -9.0893886033848060e-03 -8.0098466432121551e+00
1.2100000000000000e+00 -1.6456528679391021e-02 -1.0816725172728985e+01 -7.3443157811641328e+01 5.6585304028351949e+01 -6.9985536445789450e+01 7.4973304108261544e+01 -9.7780761148124288e-03 -8.0846549903920408e+00
1.2200000000000000e+00 -1.6566925630532768e-02 -1.0921145462301315e+01 -7.7862712795448644e+01 4.7296337215257907e+01 -7.8004175545404038e+01 1.2005735965837108e+01 -9.8077570971968828e-03 -8.1515994695327727e+00
1.2300000000000000e+00 -1.5399221761928240e-02 -1.1004018484605773e+01 -7.3901906173516792e+01 9.1086116681379679e+01 -7.1082269370987504e+01 1.8786297262497520e+01 -9.9262117316589061e-03 -8.2129544944379376e+00
1.2400000000000000e+00 -1.5758695459184340e-02 -1.1096482262245978e+01 -7.4940805054797295e+01 3.1603554319631588e+01 -7.4050270025341078e+01 6.3668898215540516e+01 -1.0069376795502395e-02 -8.2808041482379320e+00
1.2500000000000000e+00 -1.5725671427003100e-02 -1.1192125072225453e+01 -7.4390304331703391e+01 9.2806943996485145e+01 -7.4263998158707537e+01 5.0340503838306347e+01 -1.0301938710712243e-02 -8.3445602785359014e+00
1.2600000000000000e+00 -1.6885591233186628e-02 -1.1274207442875571e+01 -6.8496239633228726e+01 7.3149291415391716e+01 -6.9044685904137154e+01 7.8263901049198651e+01 -1.0720393620166080e-02 -8.4111897764891630e+00
1.2700000000000000e+00 -1.5945680690672846e-02 -1.1360692159909842e+01 -6.9790687391171915e+01 7.7730389879163639e+01 -7.2270167635475417e+01 6.1427291702526134e+01 -1.0142640672162742e-02 -8.4928762268557119e+00
1.2800000000000000e+00 -1.6499806586491379e-02 -1.1478852322422417e+01 -6.9779500673227730e+01 4.8537317411001041e+01 -7.7273572314622541e+01 9.8950471539865433e+01 -1.1313368411565355e-02 -8.5665964860751114e+00
1.2900000000000000e+00 -1.8489258484360317e-02 -1.1552147810723943e+01 -7.6156445596175459e+01 5.9263403335077342e+01 -6.9248067949934907e+01 7.7046532382251854e+01 -1.0146126337637494e-02 -8.6130470533818038e+00
1.3000000000000000e+00 -1.5993188501967716e-02 -1.1652915659811120e+01 -6.7999881439348769e+01 6.2304852412116155e+01 -6.9282978285555771e+01 6.5329958122499747e+01 -1.1729139877843107e-02 -8.6967872745408474e+00
1.3100000000000001e+00 -1.5070012109896292e-02 -1.1760477368767376e+01 -6.8992475294764134e+01 7.2468316334157578e+01 -6.8184863380811578e+01 3.6148714559088077e+01 -1.2404003549920724e-02 -8.7721958053260085e+00
1.3200000000000001e+00 -1.2031430956528850e-02 -1.1844459254020899e+01 -7.9769051807857807e+01 6.1346275004104278e+01 -6.9969260487037928e+01 5.9947699731506425e+01 -1.4739738821379961e-02 -8.8273914239669988e+00
1.3300000000000001e+00 -1.6716210593087862e-02 -1.1917605570606451e+01 -7.1471403853840144e+01 4.1746967281510557e+01 -7.4652992135539876e+01 1.8262290896806313e+01 -1.2830282292809081e-02 -8.8454821240452208e+00
1.3400000000000001e+00 -1.4244935790392954e-02 -1.1844462030589710e+01 -7.5740553355298360e+01 1.4374409368035614e+01 -7.2977569959475233e+01 6.8267999597499028e+01 -2.0060941780558998e-03 -8.6953412958249885e+00
1.3500000000000001e+00 -1.7365027940363494e-02 -1.2130172560530022e+01 -7.3217096288721635e+01 8.0857763684462967e+01 -7.0089686265813043e+01 8.8745586895558517e+01 -1.1619942659086410e-02 -9.0487092234408912e+00
1.3600000000000001e+00 -2.2424939159215746e-02 -1.2211239476939820e+01 -7.4894662749130475e+01 2.7900384441249511e+01 -7.2644196040466596e+01 8.1509555991083474e+01 -1.2423136662463549e-02 -9.1234815257053015e+00
1.3700000000000001e+00 -1.7899519775812660e-02 -1.2330796688470375e+01 -7.5166924609627813e+01 8.5533953320697634e+01 -6.9767657605399393e+01 7.6522693315198140e+01 -1.2959557607521413e-02 -9.1848832326822745e+00
1.3799999999999999e+00 -1.8174314269602608e-02 -1.2413630974802254e+01 -7.2435971269311096e+01 6.1748947349204933e+01 -7.4874957544622845e+01 4.5966508520794115e+01 -1.1014112334560807e-02 -9.2543276552985869e+00
1.3899999999999999e+00 -1.9017953415288613e-02 -1.2500216483360333e+01 -7.3157029089020384e+01 5.8845641951817072e+01 -7.2726923944096683e+01 9.6267712352444363e+01 -8.5322407161245555e-03 -9.3150855662705361e+00
1.3999999999999999e+00 -1.8474792611437352e-02 -1.2605590496829569e+01 -7.1377712969684552e+01 7.2252279105876283e+01 -7.2729795916476363e+01 8.5015613201683678e+01 -1.1758776030439686e-02 -9.3861780632501333e+00
1.4099999999999999e+00 -1.7633455698426375e-02 -1.2701344093569567e+01 -6.8737155357395707e+01 6.9041294134319614e+01 -7.5730272694276138e+01 8.6713680513000398e+01 -1.0698150792468223e-02 -9.4550083338923852e+00
1.4199999999999999e+00 -1.8425972401432324e-02 -1.2791676214397389e+01 -7.3359674907236126e+01 6.1952994751025948e+01 -6.9846504184761699e+01 6.8160289300152471e+01 -1.1184489140170227e-02 -9.5244902979788915e+00
1.4299999999999999e+00 -1.9480245276792939e-02 -1.2898208395243506e+01 -7.0263472404401270e+01 7.2906911116782808e+01 -7.1074595270653717e+01 6.7228455220863623e+01 -1.3044990798905755e-02 -9.5939153777188224e+00
1.4399999999999999e+00 -1.8607406894927007e-02 -1.2991691861560726e+01 -6.6374331779335037e+01 5.9931116587522396e+01 -6.8823057258446966e+01 4.3503645564086241e+01 -1.3191378928441248e-02 -9.6620088077613833e+00
1.4500000000000000e+00 -1.8979573118380763e-02 -1.3064817097550600e+01 -7.2080200978115926e+01 6.0704907287350721e+01 -6.9989617574602207e+01 8.0191258807075087e+01 -1.2957925962190569e-02 -9.7325587175356425e+00
1.4600000000000000e+00 -1.9491274590531321e-02 -1.3176699127939974e+01 -6.7205697343862624e+01 8.2280392006221390e+01 -6.8008399172631840e+01 1.1476486981765862e+02 -1.3886114925520172e-02 -9.8053773506709945e+00
1.4700000000000000e+00 -1.8799858161761683e-02 -1.3260665250736004e+01 -8.0797381616425938e+01 1.3532908652602228e+02 -7.2108372995952692e+01 6.7305125524088623e+01 -1.3256760815177189e-02 -9.8751902113505654e+00
1.4800000000000000e+00 -1.9320277598146647e-02 -1.3357825707459630e+01 -6.9334084721373188e+01 7.6306480209291990e+01 -7.1639116272404920e+01 8.4830666181518950e+01 -1.2692567550055309e-02 -9.9436338317777953e+00
1.4900000000000000e+00 -1.9162048483980676e-02 -1.3459773258536718e+01 -7.2804499906744013e+01 6.1642483053694484e+01 -6.8041901953659618e+01 6.9902195817214732e+01 -1.2679341952747608e-02 -1.0016396940229914e+01
1.5000000000000000e+00 -1.9345803573826013e-02 -1.3557908695943270e+01 -6.8286588312246039e+01 7.0803123516845204e+01 -6.7073170717507551e+01 7.1210826757953924e+01 -1.4173995121363086e-02 -1.0091150675068100e+01
1.5100000000000000e+00 -2.0675730716531827e-02 -1.3660142674487183e+01 -7.0012565332392867e+01 6.7871578020901651e+01 -7.0872532214425931e+01 1.0076133854851680e+02 -1.3354603259920496e-02 -1.0159879900833793e+01
1.5200000000000000e+00 -1.9493025171522294e-02 -1.3760945436389049e+01 -6.8928881078600369e+01 8.7728900131886732e+01 -6.9428649307278647e+01 8.0870746687938592e+01 -1.3821399132810249e-02 -1.0226459699364010e+01
1.5300000000000000e+00 -1.9670849721281081e-02 -1.3851413608703009e+01 -6.7530293686452140e+01 5.2607925908390058e+01 -6.8184466479188970e+01 9.7708815085623399e+01 -1.4019929635161684e-02 -1.0304020658747621e+01
1.5400000000000000e+00 -2.0732631361064718e-02 -1.3954955787288194e+01 -6.9166242989889767e+01 5.0852901580060909e+01 -6.8791661202558046e+01 5.8056598814812524e+01 -1.4222576688292559e-02 -1.0375588156238663e+01
1.5500000000000000e+00 -2.0213794246283553e-02 -1.4036586438300047e+01 -6.8535211019582661e+01 7.1870279452691733e+01 -6.5334146312581694e+01 8.5659524052047487e+01 -1.3639239223035319e-02 -1.0444548492496452e+01
1.5600000000000001e+00 -1.9802813335774303e-02 -1.4136123858848842e+01 -6.6780981700205444e+01 8.3183714047608859e+01 -7.5225337766851666e+01 7.4448510431185809e+01 -1.3779257984881924e-02 -1.0513369213218857e+01
1.5700000000000001e+00 -2.0285658410631388e-02 -1.4242390113248600e+01 -6.8769095160137056e+01 9.9504200818657068e+01 -6.7117570362696299e+01 8.6417843800741807e+01 -1.4117072400739197e-02 -1.0585054708555024e+01
1.5800000000000001e+00 -2.0230204476996801e-02 -1.4345787108017296e+01 -6.8476838311289285e+01 8.2056884825983289e+01 -6.8826719003758569e+01 6.3538881126512329e+01 -1.4025271184509646e-02 -1.0663514499520986e+01
1.5900000000000001e+00 -2.0459017097698109e-02 -1.4433322118539058e+01 -6.7409994396976259e+01 7.6707261624787407e+01 -6.8579991796529427e+01 7.4647980532964709e+01 -1.4012511419338907e-02 -1.0728269357692586e+01
1.6000000000000001e+00 -2.0594915980280619e-02 -1.4541259566383914e+01 -6.7412756682582483e+01 9.1962088020906265e+01 -6.7181419224363225e+01 7.8504771719383172e+01 -1.4044746997408816e-02 -1.0796221844511219e+01
1.6100000000000001e+00 -2.1309103800229538e-02 -1.4640071189337680e+01 -6.6003133323844537e+01 7.9919440973731824e+01 -6.5042054128977028e+01 8.3758317921688288e+01 -1.4158851293303222e-02 -1.0874741233815092e+01
1.6200000000000001e+00 -2.1190910315583424e-02 -1.4739371812067146e+01 -6.6616097527991656e+01 8.8779689286260592e+01 -6.5580908205304738e+01 8.3828375650221560e+01 -1.4140933991764254e-02 -1.0946844344235718e+01
1.6299999999999999e+00 -2.0334150984379067e-02 -1.4843311000052662e+01 -6.4632255244087688e+01 8.3461943521775524e+01 -6.7289899917093393e+01 8.9424100453648890e+01 -1.2636430969652612e-02 -1.1029227819882717e+01
1.6399999999999999e+00 -2.1588766867201750e-02 -1.4923622236557728e+01 -6.6498795382081042e+01 8.5166155227662628e+01 -6.4460405167370013e+01 7.4526857117451087e+01 -1.4419529937191500e-02 -1.1092734559885113e+01
1.6499999999999999e+00 -2.0808827279888784e-02 -1.5029203460553902e+01 -6.6173634040537024e+01 6.1861035737170191e+01 -6.4101662569595248e+01 8.7512752000479267e+01 -1.3414526717553960e-02 -1.1166167899107620e+01
1.6599999999999999e+00 -2.0908921787452048e-02 -1.5117312474506640e+01 -6.7349548423854984e+01 7.3723960787327570e+01 -6.3956093869771337e+01 8.0477646214015621e+01 -1.4863910121970397e-02 -1.1243444304977853e+01
1.6699999999999999e+00 -2.0392833656356465e-02 -1.5225374039335307e+01 -6.6415259557615798e+01 8.9571875015899082e+01 -6.8561632369529434e+01 4.6390741721729228e+01 -1.4040983906713210e-02 -1.1312851505784243e+01
1.6799999999999999e+00 -2.1386035399888221e-02 -1.5335596448383100e+01 -6.5122091939400235e+01 7.8896840743794584e+01 -6.7882395360634973e+01 8.0618952317060788e+01 -1.4143094301458442e-02 -1.1386244757150076e+01
1.6899999999999999e+00 -2.0868730165034065e-02 -1.5428775456503539e+01 -6.7282242889599729e+01 7.2697907872091875e+01 -7.0293076727002472e+01 8.4400967652667291e+01 -1.4504667430027065e-02 -1.1461620150133292e+01
1.7000000000000000e+00 -2.1980931984753802e-02 -1.5535315711646561e+01 -6.3319982374037508e+01 7.3283071412554364e+01 -6.4090270407705546e+01 6.8221163230359579e+01 -1.4668492276007845e-02 -1.1542042266956097e+01
1.7100000000000000e+00 -2.0243926735591014e-02 -1.5614798893250846e+01 -6.2329894237719500e+01 9.1278805319808740e+01 -6.3804208264833946e+01 6.8837800801585843e+01 -1.4647332480995454e-02 -1.1606736712708084e+01
1.7200000000000000e+00 -2.2379026327132987e-02 -1.5713531511508885e+01 -6.4804068255456642e+01 7.8936959320719367e+01 -6.3047691461960810e+01 9.4367308185678581e+01 -1.4300342167624255e-02 -1.1679280057406231e+01
1.7300000000000000e+00 -2.1288290474590223e-02 -1.5818218507772645e+01 -6.6827117929683212e+01 7.9847927407769504e+01 -6.4513574347479349e+01 9.0273137028745893e+01 -1.4202146084446988e-02 -1.1761613048248909e+01
1.7400000000000000e+00 -2.2072764146607880e-02 -1.5924478880577656e+01 -6.4099591727291738e+01 9.8191546767450461e+01 -6.2944977697781603e+01 8.9586768407317052e+01 -1.3961676632588176e-02 -1.1830180781688330e+01
1.7500000000000000e+00 -2.2205124787970980e-02 -1.6028972065458252e+01 -6.4130543814821920e+01 8.4842740554192702e+01 -6.5223801624716003e+01 7.9501883140706454e+01 -1.4183760638332285e-02 -1.1910516795833141e+01
1.7600000000000000e+00 -2.2203393266718840e-02 -1.6134843778523305e+01 -6.3575864314820826e+01 6.8180629460555295e+01 -6.4599295338060173e+01 8.1180803647532173e+01 -1.4315784269862129e-02 -1.1983520140649564e+01
1.7700000000000000e+00 -2.2182878918563468e-02 -1.6235443864188912e+01 -6.5203069679288092e+01 8.4120279341296865e+01 -6.2246258159433296e+01 8.5474508663207473e+01 -1.3924287455800597e-02 -1.2057288588024386e+01
1.7800000000000000e+00 -2.2180518626070359e-02 -1.6346218750880780e+01 -6.3865147714032766e+01 8.4339808098357011e+01 -6.4004075927688646e+01 8.4433570052270696e+01 -1.4314342962792005e-02 -1.2131037894174852e+01
1.7900000000000000e+00 -2.2216872575959636e-02 -1.6433365072589599e+01 -6.2640343918674887e+01 7.9853001175303262e+01 -6.4633698020105399e+01 7.5953397190778389e+01 -1.5301869265642417e-02 -1.2211169991187514e+01
1.8000000000000000e+00 -2.2659325410613343e-02 -1.6546579713532726e+01 -6.2073845228164906e+01 8.4284663818954741e+01 -6.3204958674762686e+01 7.8260192243101230e+01 -1.4522406348048369e-02 -1.2279140716401313e+01
1.8100000000000001e+00 -2.1802218070941844e-02 -1.6637600848034729e+01 -6.3805482964524245e+01 8.5485423078690971e+01 -5.9749961246149766e+01 7.3413448696652978e+01 -1.4205116685669313e-02 -1.2357834435871709e+01
1.8200000000000001e+00 -2.3004759701705214e-02 -1.6738905613184791e+01 -6.3056417096900745e+01 6.8515104017198524e+01 -6.4782134389543941e+01 8.0949234839283378e+01 -1.4729899739461575e-02 -1.2431861850696391e+01
1.8300000000000001e+00 -2.3297940487805861e-02 -1.6847678015957346e+01 -6.1855422911887061e+01 8.4506637136576970e+01 -6.3667753491459422e+01 7.4468986866148384e+01 -1.4286792878620936e-02 -1.2513592177669192e+01
1.8400000000000001e+00 -2.2676765270232404e-02 -1.6928306205322670e+01 -6.3359079314368323e+01 7.0756574053870082e+01 -6.0380980223227326e+01 8.2870191533052477e+01 -1.5290430334541111e-02 -1.2589782822462569e+01
1.8500000000000001e+00 -2.3005034313916487e-02 -1.7044421837299023e+01 -6.1799187963959142e+01 7.3314527937230153e+01 -6.4315106624400585e+01 8.0617748529132285e+01 -1.4537678286611212e-02 -1.2666744192968844e+01
1.8600000000000001e+00 -2.2005803787208553e-02 -1.7143470893898133e+01 -6.3162936539357929e+01 7.8973906462926990e+01 -6.2293106606818441e+01 7.6440930430411157e+01 -1.5300122381380307e-02 -1.2743533475227990e+01
1.8700000000000001e+00 -2.2727233124413299e-02 -1.7256404272529267e+01 -6.1749763063207098e+01 8.9943362895637577e+01 -6.0701770018573242e+01 8.7827011249424757e+01 -1.5024025345730677e-02 -1.2822006075602301e+01
1.8799999999999999e+00 -2.3205068258482953e-02 -1.7356355802976736e+01 -6.1006751417409504e+01 7.2112033456698839e+01 -6.2133965022607782e+01 8.6000538741384347e+01 -1.4570815856214704e-02 -1.2902849133738886e+01
1.8899999999999999e+00 -2.3011911990418882e-02 -1.7461795771620164e+01 -6.2110456952080483e+01 7.8057325012590113e+01 -6.3021113340711992e+01 6.8417105265332893e+01 -1.4569907252654165e-02 -1.2976418341756625e+01
1.8999999999999999e+00 -2.2184109765533574e-02 -1.7567060719463946e+01 -6.2111185212049200e+01 7.9524955443749775e+01 -6.3239990037956844e+01 7.3149448434046064e+01 -1.5153263838817987e-02 -1.3045938299432146e+01
1.9099999999999999e+00 -2.2614454513845708e-02 -1.7668575036856524e+01 -6.1097576907110984e+01 7.6985035643851006e+01 -6.1546144331115578e+01 8.0111105716219242e+01 -1.5226328950556178e-02 -1.3129043093643805e+01
1.9199999999999999e+00 -2.3400148409501598e-02 -1.7777707543689043e+01 -5.9834073243079892e+01 8.2744958189714410e+01 -6.0530104696636585e+01 9.1118705699282330e+01 -1.4901001045409843e-02 -1.3206877118310489e+01
