# MHz S DB R 50
1.0000000000000000e+00 -9.8755942329583173e-03 -7.9300147812111650e+00 -7.2930658814595773e+01 6.0971981232207703e+01 -7.6374774599545404e+01 9.7702299070038436e+01 8.6015434828816059e-02 -5.5654298300336107e+00
1.0100000000000000e+00 -9.6229425954486615e-03 -8.0255730236770528e+00 -7.5152376818793968e+01 6.3404725298064058e+01 -7.8823337227821952e+01 1.3576048972421711e+02 8.5124258376264875e-02 -5.6308302704636581e+00
1.0200000000000000e+00 -8.0837718852003210e-03 -8.1096242688785427e+00 -6.8223336028591319e+01 5.0274551351342232e+01 -7.5416536045503449e+01 7.3443374568918230e+01 8.5133377794569975e-02 -5.6959095474522625e+00
1.0300000000000000e+00 -8.4704876063777662e-03 -8.2168432342251911e+00 -7.3431656879706992e+01 6.2256390711578788e+01 -7.7051231118062788e+01 4.1864097336208637e+01 8.4491393789142125e-02 -5.7668997842002332e+00
1.0400000000000000e+00 -6.8217572291165533e-03 -8.2950524713005080e+00 -7.2161407661750289e+01 8.6107735288200459e+01 -6.9451738431762450e+01 5.7091264389589867e+01 8.4454495080010211e-02 -5.8305060526733197e+00
1.0500000000000000e+00 -9.3822898582137555e-03 -8.4064124980482955e+00 -7.5998064206905894e+01 6.7101104230629687e+01 -7.4405544598523306e+01 6.3987538624308598e+01 8.5135559797013621e-02 -5.8995633857851768e+00
1.0600000000000001e+00 -8.7616180543310627e-03 -8.4831495645970048e+00 -7.2867454354763439e+01 8.6943060177352635e+01 -7.4852942261663543e+01 5.8908583063902853e+01 8.5136008798303353e-02 -5.9615505046033013e+00
1.0700000000000001e+00 -9.0038229562760877e-03 -8.5730060164476285e+00 -8.2240965375442840e+01 6.2441123713692512e+00 -7.4687741335744150e+01 8.2889369085927910e+01 8.4493471313193014e-02 -6.0333440227041413e+00
1.0800000000000001e+00 -9.0992834152787590e-03 -8.6710812139964304e+00 -7.3549817972391267e+01 8.2345664778055720e+01 -7.4632862757414259e+01 2.0601706862764274e+01 8.4185893013296598e-02 -6.1006318204880978e+00
1.0900000000000001e+00 -9.4801835198779615e-03 -8.7735192565725928e+00 -7.2724931419190796e+01 8.6626750504587875e+01 -7.8260723002531421e+01 6.4149640150534836e+01 8.3377029586035378e-02 -6.1632744558718855e+00
1.1000000000000001e+00 -8.9948556418051190e-03 -8.8488222091856397e+00 -7.2243042697601936e+01 7.3111118792810590e+00 -7.1232881570615618e+01 8.7587079375882553e+01 8.4190613343719078e-02 -6.2317968570755280e+00
1.1100000000000001e+00 -1.0647853255913001e-02 -8.9550149212189822e+00 -7.1971121711303397e+01 4.2175876286004318e+01 -6.8911075364304509e+01 3.6791589671142773e+01 8.3982123467372716e-02 -6.2980046023181799e+00
1.1200000000000001e+00 -9.4399893598212867e-03 -9.0424459447909218e+00 -7.7020505383607201e+01 1.5060484198506057e+02 -7.1225302058990792e+01 2.6165139216046640e+01 8.3666959518782474e-02 -6.3604753273046315e+00
1.1299999999999999e+00 -9.2314217430493235e-03 -9.1225948742455643e+00 -7.2143356193797302e+01 9.7662590376052787e+00 -7.1299030860952129e+01 5.7207400746307172e+01 8.4044693085009503e-02 -6.4275528215058371e+00
1.1399999999999999e+00 -1.0092638294658052e-02 -9.2238173978351963e+00 -7.8000904547870405e+01 8.4805424224898019e+01 -6.9550961762600565e+01 8.4829889549965117e+01 8.3193092932491983e-02 -6.5012508288116058e+00
1.1499999999999999e+00 -1.0884701092137180e-02 -9.3215809114533297e+00 -8.0281382758562799e+01 2.6789397459283844e+01 -7.4330647583446492e+01 1.0727122552868525e+02 8.3342533662120216e-02 -6.5671461258952899e+00
1.1599999999999999e+00 -1.0579843424607743e-02 -9.4132333649144559e+00 -6.9801808541613880e+01 4.3097333209868339e+01 -7.3869059206970007e+01 5.7272005837075781e+01 8.3221808051994667e-02 -6.6319819782484677e+00
1.1699999999999999e+00 -1.1027918264135560e-02 -9.5102507780535976e+00 -7.1515066064279409e+01 7.3788751765742504e+01 -7.2717365155591750e+01 3.4853298255640766e+01 8.2900031296676335e-02 -6.7001679333147637e+00
1.1799999999999999e+00 -1.0340823777009445e-02 -9.5902644551473912e+00 -7.5599685596719894e+01 5.4343396999853553e+01 -8.9136946011992393e+01 9.3734290939964406e+00 8.2490346138052742e-02 -6.7748625316897257e+00
1.1899999999999999e+00 -1.0841870292624307e-02 -9.7016684318974900e+00 -7.3611086863911936e+01 2.6712903494860019e+00 -7.0142878210244362e+01 5.6334789807824272e+01 8.1809772627054744e-02 -6.8462387474511868e+00
1.2000000000000000e+00 -1.0148576002290310e-02 -9.7723845776580394e+00 -7.4036973072048681e+01 4.1749266837384027e+01 -7.3306504475382951e+01 4.3489818901240803e+01 8.2076015702842425e-02 -6.9155475338735837e+00
1.2100000000000000e+00 -1.0902251085504650e-02 -9.8696237787354129e+00 -7.2390693802386821e+01 5.1456460434420308e+01 -6.9427624264380000e+01 7.2106096827755991e+01 8.2628327108150462e-02 -6.9838566344866324e+00
1.2200000000000000e+00 -1.0828831079103936e-02 -9.9685273908396379e+00 -7.6673614421476145e+01 4.8702731030830243e+01 -7.8311093591022015e+01 1.4852171642324477e+01 8.2578071435004202e-02 -7.0422517208976263e+00
1.2300000000000000e+00 -1.1252602871005341e-02 -1.0047582502530151e+01 -7.2968891838835802e+01 9.6706642585966193e+01 -7.1352108477633109e+01 2.0985716702528496e+01 8.2652880066445195e-02 -7.1141092513289452e+00
1.2400000000000000e+00 -1.0453342930645669e-02 -1.0135038674865015e+01 -7.3463115804016667e+01 3.9853736918473608e+01 -7.2755304581982443e+01 6.6485573474182189e+01 8.2132320625032201e-02 -7.1797317305689274e+00
1.2500000000000000e+00 -1.0104875109946815e-02 -1.0236695245005011e+01 -7.4978955467946506e+01 7.9502487513766141e+01 -7.5084708203162947e+01 5.9326537513578522e+01 8.1588075872008364e-02 -7.2477555447278554e+00
1.2600000000000000e+00 -9.8000209584251409e-03 -1.0328578475208280e+01 -6.7855815066654856e+01 7.7951139831444138e+01 -6.9191354590420971e+01 7.8413276299675118e+01 8.1238969563635161e-02 -7.3163123132763586e+00
1.2700000000000000e+00 -9.5916101031203356e-03 -1.0419990369297743e+01 -7.0517664317471201e+01 7.6483343054868840e+01 -7.1053600828440096e+01 6.8700599706335822e+01 8.1268576249487065e-02 -7.3928509552546648e+00
1.2800000000000000e+00 -1.2730184137667576e-02 -1.0528384054915675e+01 -6.8462036436800815e+01 5.1803415648992882e+01 -7.6658353573838994e+01 7.8036927216551263e+01 8.0085576812169407e-02 -7.4589025727026224e+00
1.2900000000000000e+00 -1.5628121875793329e-02 -1.0618771973508379e+01 -7.7439687202204112e+01 6.9666495566724109e+01 -6.9166163098825777e+01 7.5239818625502835e+01 8.1178087496744017e-02 -7.5144200695376711e+00
1.3000000000000000e+00 -1.1716147673465190e-02 -1.0694368882184097e+01 -6.7798448291496300e+01 6.4268045090277440e+01 -6.9044993853420806e+01 6.7137142497484604e+01 8.0492831904355910e-02 -7.5941764498070032e+00
1.3100000000000001e+00 -1.0954317167880923e-02 -1.0788132110571782e+01 -6.9050858104656669e+01 7.2602885597370701e+01 -6.7981160803672452e+01 4.1213389016417374e+01 7.8172190148860496e-02 -7.6809312664463274e+00
1.3200000000000001e+00 -1.6828622918452166e-02 -1.0885189258491591e+01 -7.7152988848383870e+01 5.5363186939259428e+01 -7.0104056109375222e+01 6.2604942956090618e+01 8.1292549176033679e-02 -7.7253926476760935e+00
1.3300000000000001e+00 1.9990240668281939e-03 -1.1013648327711781e+01 -7.1077444273347936e+01 3.7406945993272956e+01 -7.4182154511919833e+01 2.6761011038670581e+01 8.1339554910088235e-02 -7.7200403607783912e+00
1.3400000000000001e+00 1.8019802821192133e-03 -1.1262368777516638e+01 -7.5301679422560937e+01 2.3869642550887143e+01 -7.0842704411458953e+01 7.6390535429863576e+01 9.0614910908569726e-02 -7.7946964399733618e+00
1.3500000000000001e+00 -1.2169768488683589e-02 -1.1180603610434245e+01 -7.2177668483124279e+01 8.4057391418528269e+01 -6.8570996235831771e+01 8.5117475472676205e+01 8.0396233986117283e-02 -7.9449061468358657e+00
1.3600000000000001e+00 -1.1222443285150758e-02 -1.1275093272528709e+01 -7.3674192921088519e+01 2.5022645964047818e+01 -7.2740946744259361e+01 8.3866592345405579e+01 7.6062050834122832e-02 -8.0344205884914928e+00
1.3700000000000001e+00 -1.0888526845039458e-02 -1.1364288764605069e+01 -7.4592665685057966e+01 7.5905277409759364e+01 -6.9207566613973142e+01 7.9839605570136712e+01 7.8693248555829404e-02 -8.0845959372843996e+00
1.3799999999999999e+00 -1.2179771507421354e-02 -1.1463168849390689e+01 -7.2191717802396369e+01 5.7952865224068894e+01 -7.2147495242857758e+01 5.0895120820214629e+01 8.0643230484257727e-02 -8.1536761526731265e+00
1.3899999999999999e+00 -1.2701660632989217e-02 -1.1553930543023530e+01 -7.2762465976642986e+01 7.1194015032902030e+01 -7.2870494129549485e+01 9.7585697847609808e+01 8.2977805724886056e-02 -8.2238054562022516e+00
1.3999999999999999e+00 -1.2395204227188171e-02 -1.1649053500182726e+01 -7.0660824127238470e+01 7.1607447228611804e+01 -7.1475853801593786e+01 7.9187234638292594e+01 8.0663784377351500e-02 -8.2884113025710029e+00
1.4099999999999999e+00 -1.2182682715841022e-02 -1.1739155906009710e+01 -6.8468802690674636e+01 7.1512422004379573e+01 -7.4813746552384799e+01 8.7531441761466368e+01 8.0808958488982868e-02 -8.3597171239388945e+00
1.4199999999999999e+00 -1.1807001456094646e-02 -1.1844802442347653e+01 -7.3104054494503444e+01 6.0507534468994159e+01 -6.8417873570290880e+01 6.8978853248124452e+01 8.1707149508734783e-02 -8.4241994764023467e+00
1.4299999999999999e+00 -1.2664565009036507e-02 -1.1935177019843165e+01 -6.9613576198746358e+01 7.1500154421012226e+01 -7.0679914122844082e+01 6.9425582300946232e+01 7.8631391953016272e-02 -8.4956259253511046e+00
1.4399999999999999e+00 -1.2471215511670646e-02 -1.2046560285432307e+01 -6.6105546813401119e+01 5.8967078039216553e+01 -6.8738488649736126e+01 4.4684010642201621e+01 7.9531283803288208e-02 -8.5660652404709854e+00
1.4500000000000000e+00 -1.1828907806711704e-02 -1.2121391295573353e+01 -7.1636772289007112e+01 6.3711319099608275e+01 -6.8548514650788960e+01 7.9961216321901290e+01 7.9396081257305531e-02 -8.6375651295162950e+00
1.4600000000000000e+00 -1.2332849715107539e-02 -1.2217630895067163e+01 -6.6575465529756258e+01 8.4635424637941796e+01 -6.7751173233632883e+01 1.1493962510960293e+02 7.8720489281126349e-02 -8.7138495000195650e+00
1.4700000000000000e+00 -1.1881910780059048e-02 -1.2312855516931998e+01 -7.7496152463901865e+01 1.1514377093342260e+02 -7.1402608433106664e+01 6.8292169157259977e+01 7.8926357228188582e-02 -8.7785586939119415e+00
1.4800000000000000e+00 -1.2337109099934738e-02 -1.2406876641392701e+01 -6.8712501652399268e+01 7.5795134859275038e+01 -7.1984924846267049e+01 8.7599846586196719e+01 7.9035506353035884e-02 -8.8497518626403835e+00
1.4900000000000000e+00 -1.1696606937300520e-02 -1.2498583621589997e+01 -7.0784173574541143e+01 5.9231512111620958e+01 -6.7594079262017161e+01 7.1900359262390396e+01 7.9245125288896129e-02 -8.9127752322621454e+00
1.5000000000000000e+00 -1.2535673593909880e-02 -1.2599545559551348e+01 -6.7982257972748329e+01 7.2661834959291667e+01 -6.6609469548517637e+01 6.7373991973306929e+01 7.7980825652244651e-02 -8.9981392858552294e+00
1.5100000000000000e+00 -1.3523812350968355e-02 -1.2706056652367050e+01 -6.9652825851120440e+01 6.3926799889336060e+01 -7.0901850630690348e+01 9.6135692932445565e+01 7.8707784198407349e-02 -9.0663844744627955e+00
1.5200000000000000e+00 -1.2942019283555706e-02 -1.2805626526064726e+01 -6.8462294732735572e+01 8.2264419900772182e+01 -6.7949896230353360e+01 8.5499994796617386e+01 7.8042010999922862e-02 -9.1400238572998393e+00
1.5300000000000000e+00 -1.2194241779876800e-02 -1.2882998333118008e+01 -6.7022213494489378e+01 5.1742419787890960e+01 -6.7347744053549619e+01 9.1841056606382949e+01 7.8853042710572335e-02 -9.2088225871273668e+00
1.5400000000000000e+00 -1.3025391838473101e-02 -1.2999578714256415e+01 -6.8381702562920765e+01 5.5093349144122762e+01 -6.7954383495238474e+01 6.8874108139481606e+01 7.8231764991818609e-02 -9.2836330004554757e+00
1.5500000000000000e+00 -1.3403013109141600e-02 -1.3088658457679717e+01 -6.7296781562553150e+01 7.1475282414543543e+01 -6.4424517437365338e+01 8.3450682355266125e+01 7.8710272908130929e-02 -9.3523317521104552e+00
1.5600000000000001e+00 -1.2886683526079799e-02 -1.3184892949913053e+01 -6.7079794418603029e+01 8.7497079244044272e+01 -7.4032111364881075e+01 8.0508831297370151e+01 7.8376575703932791e-02 -9.4171826076417062e+00
1.5700000000000001e+00 -1.2551116654762180e-02 -1.3281164221653125e+01 -6.7504617446790121e+01 9.4332342630143771e+01 -6.6616361255029716e+01 9.1931441285068956e+01 8.0125010028441246e-02 -9.4961798019188279e+00
1.5800000000000001e+00 -1.3043836737256108e-02 -1.3382051914563142e+01 -6.8197858542389724e+01 8.1625438350263082e+01 -6.7877692636505330e+01 6.8441051421011537e+01 7.8426113785181994e-02 -9.5708156430074318e+00
1.5900000000000001e+00 -1.3501763907382107e-02 -1.3479711109931706e+01 -6.6939669023467758e+01 8.0851614647457808e+01 -6.8058689200335778e+01 7.8476329713617375e+01 7.7972524155824077e-02 -9.6374589460159346e+00
1.6000000000000001e+00 -1.3752822370533668e-02 -1.3563863305381007e+01 -6.6416640581467433e+01 9.0351939702364646e+01 -6.6862343297929471e+01 7.7802222809057213e+01 7.8637730710894055e-02 -9.7138433971634282e+00
1.6100000000000001e+00 -1.2949277526595207e-02 -1.3676648689487033e+01 -6.5598161377321858e+01 7.9274506508606081e+01 -6.4268007537131197e+01 8.4412927418659294e+01 7.8274749147067668e-02 -9.7895768553696190e+00
1.6200000000000001e+00 -1.3351479229343972e-02 -1.3775673533919894e+01 -6.6157037723590861e+01 8.5830331569335371e+01 -6.4950399742026050e+01 8.1620160701016104e+01 7.8286160990821696e-02 -9.8517212640030358e+00
1.6299999999999999e+00 -1.3358388918464309e-02 -1.3884562815465371e+01 -6.3412079714105303e+01 7.9901376108909858e+01 -6.6599369651524412e+01 9.5146653263034722e+01 7.9080367627269429e-02 -9.9363054315081651e+00
1.6399999999999999e+00 -1.3512030065530482e-02 -1.3982875395538665e+01 -6.5412042161752737e+01 8.3038559132087258e+01 -6.4483817085963210e+01 7.4933747230881593e+01 7.7796263416621464e-02 -1.0011612470784213e+01
1.6499999999999999e+00 -1.3043982693408358e-02 -1.4058542623089092e+01 -6.5362982670898788e+01 6.2853587168096276e+01 -6.3985224807890631e+01 8.5556009406888649e+01 7.8084915645249317e-02 -1.0078356225383061e+01
1.6599999999999999e+00 -1.2856321826058104e-02 -1.4166268005372109e+01 -6.6187089174081081e+01 7.1832762954718262e+01 -6.3895957079591867e+01 8.2832573923079238e+01 7.8459822556239942e-02 -1.0152317244335524e+01
1.6699999999999999e+00 -1.2943279780177775e-02 -1.4259958188492551e+01 -6.5612501815413225e+01 8.6939154428591948e+01 -6.7641999481470691e+01 5.0561756818294022e+01 7.8892272321533452e-02 -1.0226208978008602e+01
1.6799999999999999e+00 -1.3442106438927312e-02 -1.4372350880437024e+01 -6.4196212218885407e+01 8.3416674716165460e+01 -6.8286589066039710e+01 7.9588008011108627e+01 7.8062293336135916e-02 -1.0299467096180216e+01
1.6899999999999999e+00 -1.4515550190416428e-02 -1.4450320092440975e+01 -6.6894320595539952e+01 7.4792790920471404e+01 -6.8778182898501697e+01 8.6304633003641513e+01 7.8437179122942249e-02 -1.0374892190283678e+01
1.7000000000000000e+00 -1.3428810668343843e-02 -1.4568433596844152e+01 -6.2584396558080606e+01 7.5713732948267818e+01 -6.4174606751623713e+01 7.0347396893918116e+01 7.7674179793420450e-02 -1.0449942581355943e+01
1.7100000000000000e+00 -1.3712530220834731e-02 -1.4650775794759975e+01 -6.1609011118141090e+01 8.9371819918165457e+01 -6.3844457125486613e+01 7.3044136263474087e+01 7.8132376414958710e-02 -1.0520905486543104e+01
1.7200000000000000e+00 -1.3892848898843419e-02 -1.4756628194080328e+01 -6.4510589726522085e+01 7.8898867198128258e+01 -6.2630584503759735e+01 9.2516071347875311e+01 7.8314275389979898e-02 -1.0602779733061958e+01
1.7300000000000000e+00 -1.2740857718054534e-02 -1.4855243868078512e+01 -6.6385911673598898e+01 7.8378690220850942e+01 -6.4075168779656352e+01 9.4543979474894869e+01 7.8741873879416918e-02 -1.0668295528404981e+01
1.7400000000000000e+00 -1.3449565781376446e-02 -1.4968119824347223e+01 -6.2854477912199798e+01 9.7766405056393396e+01 -6.2562293819800921e+01 8.9901248874846203e+01 7.8455905597293804e-02 -1.0751742581327470e+01
1.7500000000000000e+00 -1.3811435410881185e-02 -1.5056739291011576e+01 -6.3447615372682399e+01 8.5420956997743360e+01 -6.4139168423024245e+01 8.1272171035057511e+01 7.8953846193457591e-02 -1.0823687912232407e+01
1.7600000000000000e+00 -1.4394265504883236e-02 -1.5160548512817765e+01 -6.3353031583812339e+01 7.1884226892691856e+01 -6.4168362002988218e+01 8.1463623251447473e+01 7.9197261661136553e-02 -1.0894906264283399e+01
1.7700000000000000e+00 -1.4067342371920503e-02 -1.5272777408762341e+01 -6.4414776954529145e+01 8.2589315685230730e+01 -6.1794307064731569e+01 8.7026052685840057e+01 7.8672504520197223e-02 -1.0978643710709587e+01
1.7800000000000000e+00 -1.4142640710124580e-02 -1.5385627796348276e+01 -6.3214978601159729e+01 8.1810610246657603e+01 -6.3594164540930677e+01 8.6329032231436187e+01 7.9118045530782569e-02 -1.1052437785138663e+01
1.7900000000000000e+00 -1.3624830317225219e-02 -1.5461057732245846e+01 -6.2349459812130227e+01 8.1445829626339190e+01 -6.3579198651189998e+01 7.7746007225465178e+01 7.7648070130836327e-02 -1.1133525185802331e+01
1.8000000000000000e+00 -1.3920116803023295e-02 -1.5570072005375048e+01 -6.1718033761379935e+01 8.3439132009603483e+01 -6.2343522942611649e+01 8.1217219455728255e+01 7.8344521568918399e-02 -1.1192353384408257e+01
1.8100000000000001e+00 -1.3992473418965519e-02 -1.5669543257088323e+01 -6.3544980283601859e+01 8.6096813562489189e+01 -5.9170158904637859e+01 7.6398811912609773e+01 7.8120142165292436e-02 -1.1276662049174062e+01
1.8200000000000001e+00 -1.3410439526390963e-02 -1.5781731155175986e+01 -6.2777715290757861e+01 7.1168093277826898e+01 -6.4045327862239503e+01 8.5985383052571692e+01 7.8804708815261595e-02 -1.1352340475215835e+01
1.8300000000000001e+00 -1.4313618200286935e-02 -1.5871306515646983e+01 -6.1108761741589525e+01 8.7132159639147673e+01 -6.3377767054526117e+01 7.7561077206954408e+01 7.8115467672695199e-02 -1.1430014081265071e+01
1.8400000000000001e+00 -1.4075858755352229e-02 -1.5972586376062122e+01 -6.2702652938281147e+01 7.5677336987352547e+01 -6.0095111911801915e+01 8.3679959396723746e+01 7.7066523999964193e-02 -1.1509169939851953e+01
1.8500000000000001e+00 -1.4117106720487351e-02 -1.6077505375675422e+01 -6.1058928111535558e+01 7.4328051145400281e+01 -6.3862223321701350e+01 8.1904378086384824e+01 7.8454824260862227e-02 -1.1587219382390508e+01
1.8600000000000001e+00 -1.3729291309172987e-02 -1.6184296085035598e+01 -6.2202709365601201e+01 7.8995707455833312e+01 -6.1707128708745493e+01 7.7898904604190548e+01 7.7654763242821390e-02 -1.1665569285859641e+01
1.8700000000000001e+00 -1.4284253216404204e-02 -1.6299889550496509e+01 -6.1343787081032318e+01 8.8879164372672207e+01 -5.9883048101602434e+01 8.8529736532395248e+01 7.8294590835399580e-02 -1.1740117922899039e+01
1.8799999999999999e+00 -1.4844584647521163e-02 -1.6400132661553947e+01 -6.0233020944048867e+01 7.2370363426608705e+01 -6.1196790016896742e+01 8.7097693062824277e+01 7.8130493863154737e-02 -1.1826249505414738e+01
1.8899999999999999e+00 -1.3840641203150660e-02 -1.6496422274426724e+01 -6.1808649249744931e+01 7.9393267993571669e+01 -6.2361489040327513e+01 7.3809143356164824e+01 7.7589789123490599e-02 -1.1893541839575519e+01
1.8999999999999999e+00 -1.4219370182548522e-02 -1.6595748815591069e+01 -6.1265626655820284e+01 7.8969640973389232e+01 -6.1580069166950580e+01 7.1191421379348270e+01 7.8281333539396591e-02 -1.1973670876402945e+01
1.9099999999999999e+00 -1.3599157558838802e-02 -1.6700037010017454e+01 -6.0072764684199839e+01 7.7144900423973766e+01 -6.0325232523542780e+01 7.9149309396492072e+01 7.7945046591034850e-02 -1.2048143799243594e+01
1.9199999999999999e+00 -1.5296084604969425e-02 -1.6808138995238345e+01 -5.9073591262255995e+01 8.1019898735900426e+01 -5.9749841539123466e+01 8.7156531534004046e+01 7.7615022138620551e-02 -1.2135536202316638e+01
1.9299999999999999e+00 -1.3147780618852000e-02 -1.6935107388021294e+01 -5.9347107337975686e+01 7.7380038806778430e+01 -5.9002883448662516e+01 7.2044994724815837e+01 7.8736506454821137e-02 -1.2206691724195512e+01
