# MHz S DB R 50
1.0000000000000000e+00 -8.2821318427411649e-03 -7.9549214473171910e+00 -7.3742391217061098e+01 5.7070611231307367e+01 -7.6072790880585416e+01 1.0160713608574621e+02 8.4343564169317486e-02 -5.5810509169364941e+00
1.0100000000000000e+00 -8.2501757025017323e-03 -8.0482585945689724e+00 -7.4170651408018898e+01 5.1278301358211891e+01 -7.7336518903401426e+01 1.3299346235371794e+02 8.3308445824654423e-02 -5.6441405341548911e+00
1.0200000000000000e+00 -7.4665184491737868e-03 -8.1356762480977718e+00 -6.8045042763471329e+01 5.1877081945073691e+01 -7.5888528042530453e+01 6.8137990220826111e+01 8.3388756577818815e-02 -5.7140210637438784e+00
1.0300000000000000e+00 -7.4010115907299900e-03 -8.2278408725996108e+00 -7.2528731356004045e+01 6.5721598130080579e+01 -7.5773756411202314e+01 5.4261906836592132e+01 8.2548463492961147e-02 -5.7767759506134118e+00
1.0400000000000000e+00 -7.6870417845817229e-03 -8.3145321590465624e+00 -7.2027845910844661e+01 8.1306203685259462e+01 -6.9629520552012437e+01 4.9674100888580170e+01 8.2414507946015056e-02 -5.8521934465537360e+00
1.0500000000000000e+00 -8.3201362944156157e-03 -8.4296036471504454e+00 -7.4287723426132715e+01 7.0900007691156830e+01 -7.3986669247332216e+01 5.7009237447013710e+01 8.3410946505212205e-02 -5.9114252352330166e+00
1.0600000000000001e+00 -8.0209611609632688e-03 -8.5055609720058030e+00 -7.2259428742279297e+01 8.9881375479269977e+01 -7.3890862639909756e+01 4.9783930185164081e+01 8.3829500755586678e-02 -5.9740864783274024e+00
1.0700000000000001e+00 -8.8043060472959948e-03 -8.5962938195198184e+00 -8.3253981994170871e+01 2.3403193363710351e+01 -7.3524387804856786e+01 8.7517038085550226e+01 8.2665272365169615e-02 -6.0499188776742558e+00
1.0800000000000001e+00 -8.8394147913776980e-03 -8.6907924943624142e+00 -7.1979663694879747e+01 8.1678416150059775e+01 -7.3952384075776720e+01 2.0316748130195890e+01 8.2801272315401769e-02 -6.1160148523427811e+00
1.0900000000000001e+00 -8.5419958332932575e-03 -8.7882121814000218e+00 -7.1645935820373140e+01 8.4150902035204666e+01 -7.8320388540509441e+01 7.6668321197620244e+01 8.1934196959517355e-02 -6.1808900313803372e+00
1.1000000000000001e+00 -8.7553843186817196e-03 -8.8674943067924872e+00 -7.2462235965420788e+01 1.0378342701586760e+01 -7.0524190839391409e+01 8.7441849084549830e+01 8.2853092618807425e-02 -6.2476436563946116e+00
1.1100000000000001e+00 -9.4508530493823996e-03 -8.9690466290376598e+00 -7.1630253014407458e+01 4.9981099454514137e+01 -6.9233922914916064e+01 3.8271180963181941e+01 8.2095653422820158e-02 -6.3118905742809908e+00
1.1200000000000001e+00 -8.7743345574247782e-03 -9.0594471306676922e+00 -7.6883088663805736e+01 1.4402022626694705e+02 -7.0754172690921337e+01 2.9249231281507754e+01 8.1931143219697439e-02 -6.3789958486923863e+00
1.1299999999999999e+00 -8.8374803378420078e-03 -9.1486251867377852e+00 -7.2078899702197972e+01 6.7166799068168519e+00 -7.1644602083547028e+01 5.5323490612129945e+01 8.2105054980972855e-02 -6.4468948522633651e+00
1.1399999999999999e+00 -9.4941385418589319e-03 -9.2529564611887611e+00 -7.4300861972003688e+01 8.0372749377050326e+01 -6.9812433936322563e+01 8.2693400601209603e+01 8.1395320081406583e-02 -6.5193066463570242e+00
1.1499999999999999e+00 -9.1927069938889886e-03 -9.3462297799093363e+00 -7.6819849041823872e+01 5.5653554255789203e+01 -7.3996927193191198e+01 9.7939866137460498e+01 8.1818292036687723e-02 -6.5869971784227195e+00
1.1599999999999999e+00 -9.7632413231063982e-03 -9.4276282025374467e+00 -7.0250903872855133e+01 4.5513859392615792e+01 -7.3263457989159960e+01 5.1944051690486035e+01 8.1088030329004107e-02 -6.6520018191836341e+00
1.1699999999999999e+00 -9.4174891036186668e-03 -9.5240941352239847e+00 -7.2366477755564460e+01 7.8917642353074854e+01 -7.0571359256463950e+01 2.8924899557923595e+01 8.1288234732441192e-02 -6.7207485486124758e+00
1.1799999999999999e+00 -9.2356660195843168e-03 -9.6073301266112221e+00 -7.4217372545032134e+01 5.5603151612807700e+01 -9.4415991428308445e+01 -7.9721864313461495e+01 8.0633122252226214e-02 -6.7855827695425965e+00
1.1899999999999999e+00 -9.9753527413537057e-03 -9.7090401559015493e+00 -7.1347350742369272e+01 -3.0633778179892175e+01 -6.9318480744300587e+01 7.0779139353356555e+01 8.1482394644332656e-02 -6.8555862470649682e+00
1.2000000000000000e+00 -8.8478979814202753e-03 -9.7875563620533708e+00 -7.4661814358069265e+01 4.5560574125222132e+01 -7.4853857404163179e+01 3.5935137932037257e+01 8.1035948252424050e-02 -6.9277939750462352e+00
1.2100000000000000e+00 -1.0092801105012719e-02 -9.8919032550246246e+00 -7.2285696230864446e+01 5.5222498648219322e+01 -6.9285364621249016e+01 7.3258649680520591e+01 8.0198311079469536e-02 -6.9965813327864206e+00
1.2200000000000000e+00 -1.0181466459464116e-02 -9.9827750392184296e+00 -7.4953273775228723e+01 4.7824761833205059e+01 -7.9680642665058457e+01 1.5688437716203214e+01 7.9921300076865959e-02 -7.0647874765540513e+00
1.2300000000000000e+00 -1.0306505776871564e-02 -1.0077109045381595e+01 -7.2253737083850424e+01 9.1494017518899241e+01 -7.1256622789524030e+01 1.2619320699954800e+01 8.0542333287528800e-02 -7.1320975199804222e+00
1.2400000000000000e+00 -8.6531358772023413e-03 -1.0164879399748614e+01 -7.4401921422407199e+01 4.1179555581378033e+01 -7.2419609378681002e+01 6.3793616259510799e+01 7.9752339517805471e-02 -7.1991985993998329e+00
1.2500000000000000e+00 -8.8646698997663330e-03 -1.0251789004823953e+01 -7.4094476146882641e+01 9.0512260207548522e+01 -7.3447832578829335e+01 5.8253212635732666e+01 8.0158944143463223e-02 -7.2597734128844262e+00
1.2600000000000000e+00 -1.2973850383836425e-02 -1.0344556358310381e+01 -6.7504663866746554e+01 7.3307647952018002e+01 -6.8383561854744841e+01 8.1118642994192584e+01 7.9976185450093565e-02 -7.3375243637333076e+00
1.2700000000000000e+00 -9.7638201067207324e-03 -1.0432291161289038e+01 -6.9647134724190593e+01 7.8973445623611951e+01 -7.0507400653669180e+01 6.8258115394541150e+01 7.9662975564649741e-02 -7.4125482525321429e+00
1.2800000000000000e+00 -1.2556150899487291e-02 -1.0533778549938839e+01 -6.8573400839404002e+01 5.0048605613142080e+01 -7.6520819435632092e+01 8.6500709566696315e+01 7.8217864781902180e-02 -7.4806024201575809e+00
1.2900000000000000e+00 -9.3763028667280483e-03 -1.0639596703865088e+01 -7.3910647663381198e+01 6.6330723085590989e+01 -6.8839664448057718e+01 7.6470329335426214e+01 7.8936384894518985e-02 -7.5316860615800607e+00
1.3000000000000000e+00 -1.1454812286025653e-02 -1.0720708259875655e+01 -6.7758306907303151e+01 6.4272532615405126e+01 -6.8589573595254748e+01 6.5312178500248962e+01 7.8406038297676464e-02 -7.6177919374859391e+00
1.3100000000000001e+00 -1.3928155321134689e-02 -1.0812585446544988e+01 -6.8964335535802292e+01 7.0597247730675676e+01 -6.6840973817531491e+01 4.2559062895299178e+01 7.7912523647194920e-02 -7.6964436043189242e+00
1.3200000000000001e+00 -1.6338124116936560e-02 -1.0904031093695611e+01 -7.5390154176505519e+01 6.4386832741077725e+01 -6.9902787584668843e+01 5.8870665404253600e+01 7.9282017897344514e-02 -7.7422973880257349e+00
1.3300000000000001e+00 -2.0295601270984273e-02 -1.0971359018307272e+01 -7.1236775247725163e+01 4.3011992497481629e+01 -7.3022055433197949e+01 2.4616895440558356e+01 7.4839504919339994e-02 -7.8165788524427686e+00
1.3400000000000001e+00 3.0440842685352364e-03 -1.1272014490112268e+01 -7.5204112033939609e+01 2.8283644250305954e+01 -7.0971194280641384e+01 7.5367905744589464e+01 8.9031712132376123e-02 -7.8091909558919630e+00
1.3500000000000001e+00 -1.1269755588205865e-02 -1.1195279268565054e+01 -7.1674796383285781e+01 8.5291933544942864e+01 -6.8937207210911509e+01 8.7303153622893689e+01 7.9009906856227094e-02 -7.9562769361454793e+00
1.3600000000000001e+00 -1.0021316425086926e-02 -1.1266461402365660e+01 -7.1973081982204945e+01 3.3666491268401543e+01 -7.1174051784717378e+01 8.9705765117025607e+01 7.6259219139136400e-02 -8.0406609175397783e+00
1.3700000000000001e+00 -1.1583035164885581e-02 -1.1379783250199111e+01 -7.3495118929654041e+01 8.3362879672962180e+01 -6.9338970880319494e+01 7.8031675579171605e+01 7.6791052738587273e-02 -8.1081063625821788e+00
1.3799999999999999e+00 -1.1097235361007943e-02 -1.1461540639359875e+01 -7.1761308656671105e+01 5.4016776241038428e+01 -7.1821248399634626e+01 4.8111585146104950e+01 7.8562687630871542e-02 -8.1663683108250069e+00
1.3899999999999999e+00 -1.1384595868736053e-02 -1.1554633180888892e+01 -7.3400059850912044e+01 6.8663069488233063e+01 -7.1910920070748176e+01 1.0626654677825594e+02 8.0396294580865862e-02 -8.2397965020584323e+00
1.3999999999999999e+00 -1.1534708369791391e-02 -1.1661355779572631e+01 -6.9841789758900802e+01 6.9217023453940143e+01 -7.1593582259453598e+01 7.7598115258577650e+01 7.8956177565665059e-02 -8.3077563200625182e+00
1.4099999999999999e+00 -1.1289208204410565e-02 -1.1765644486417576e+01 -6.7949389552496754e+01 7.2357809909073225e+01 -7.4788424306419586e+01 8.2031711640191986e+01 7.8176286103655179e-02 -8.3725692524728945e+00
1.4199999999999999e+00 -1.2172232192105758e-02 -1.1859555189724892e+01 -7.2354183861914677e+01 5.8677541810258838e+01 -6.8984114794318401e+01 7.2481063641462185e+01 7.8682167114338827e-02 -8.4422569286292450e+00
1.4299999999999999e+00 -1.1950948995536819e-02 -1.1961715977891197e+01 -6.9174184547589846e+01 7.4819325072462547e+01 -6.9865893905173138e+01 6.7473272823562581e+01 7.7912625591383636e-02 -8.5147342171468559e+00
1.4399999999999999e+00 -1.2053732657073601e-02 -1.2051729535517911e+01 -6.5976840683794265e+01 6.2492247859420409e+01 -6.8775407252481941e+01 4.9800976583491170e+01 7.8370120210723898e-02 -8.5808951110401228e+00
1.4500000000000000e+00 -1.0919106833038428e-02 -1.2131392099263580e+01 -7.0796056340164881e+01 6.5353427572592892e+01 -6.8249335183551040e+01 8.1317065538907372e+01 7.7491437542746969e-02 -8.6528207732633486e+00
1.4600000000000000e+00 -1.1321954809118120e-02 -1.2234332332662456e+01 -6.6361449372069416e+01 8.2535062299756476e+01 -6.8329775580332395e+01 1.1475893596864633e+02 7.7519769799355390e-02 -8.7271390633032677e+00
1.4700000000000000e+00 -1.1047300269194399e-02 -1.2326915294677688e+01 -7.7832800785920853e+01 1.2199417564115504e+02 -7.0865851356943153e+01 7.1154255847288184e+01 7.7140879228094095e-02 -8.7925398895759681e+00
1.4800000000000000e+00 -1.1249507637500706e-02 -1.2430312139288544e+01 -6.7637830729188821e+01 7.9081258028868149e+01 -7.0639919535290034e+01 8.2535100979490153e+01 7.7548870767510630e-02 -8.8651292417295675e+00
1.4900000000000000e+00 -1.1962944012294462e-02 -1.2530247111591995e+01 -7.0674962642077617e+01 6.1817030118546739e+01 -6.6859590937782073e+01 7.0751849746659630e+01 7.8441764842988204e-02 -8.9334018184321629e+00
1.5000000000000000e+00 -1.1941584091637338e-02 -1.2621231392518199e+01 -6.7143763019734024e+01 6.9496784822513362e+01 -6.6242624209098466e+01 6.9649801443894731e+01 7.6703215906309269e-02 -9.0103255120056449e+00
1.5100000000000000e+00 -1.3223328628587988e-02 -1.2711987959373548e+01 -6.9473372769667321e+01 6.3718319325899870e+01 -7.0305763930131292e+01 9.7978256511172901e+01 7.7272725540851711e-02 -9.0803350100027984e+00
1.5200000000000000e+00 -1.1654766991873865e-02 -1.2813125029813881e+01 -6.7842941364774163e+01 8.3705030257840804e+01 -6.8356745161617013e+01 9.0749203513270373e+01 7.7127063162316795e-02 -9.1506897649633476e+00
1.5300000000000000e+00 -1.1548574583187443e-02 -1.2898993272607719e+01 -6.6919026268757634e+01 5.3658504675287304e+01 -6.7059500831365057e+01 9.7300078543749834e+01 7.7313581026223516e-02 -9.2306005030860216e+00
1.5400000000000000e+00 -1.2382062688827702e-02 -1.3016176670207363e+01 -6.8666842394643510e+01 5.7649033355188017e+01 -6.7546504485981501e+01 6.4458613826683916e+01 7.7024557022345452e-02 -9.2959427681618294e+00
1.5500000000000000e+00 -1.1585359422082220e-02 -1.3105085050763424e+01 -6.7371097907651503e+01 6.9909513957081487e+01 -6.4750705731703505e+01 8.7506113300944747e+01 7.7519221782256523e-02 -9.3669788304234380e+00
1.5600000000000001e+00 -1.2181926824673797e-02 -1.3208575948049585e+01 -6.6219988618969026e+01 8.4962232062936749e+01 -7.3223924055482982e+01 7.7024805456904176e+01 7.6515329588327893e-02 -9.4378311669082393e+00
1.5700000000000001e+00 -1.2196748036436913e-02 -1.3307083397849171e+01 -6.7530101575866865e+01 9.3366373263123023e+01 -6.6244430138647260e+01 8.7069910660332496e+01 7.7502012278273497e-02 -9.5091257228849617e+00
1.5800000000000001e+00 -1.1817909009319760e-02 -1.3405328246744919e+01 -6.8323556702208407e+01 8.0046105906325181e+01 -6.7806453099629863e+01 6.6400605455577519e+01 7.7228814317339953e-02 -9.5856323303051383e+00
1.5900000000000001e+00 -1.2124121746390961e-02 -1.3504590682061478e+01 -6.5990584657195100e+01 8.0203391765547451e+01 -6.6613216425361131e+01 7.6494580290960315e+01 7.6460471399790050e-02 -9.6598387355003421e+00
1.6000000000000001e+00 -1.3424172783364340e-02 -1.3601988038585134e+01 -6.5661987681202874e+01 8.4568825830513887e+01 -6.6208675586395472e+01 8.0401227081140547e+01 7.7363808508183626e-02 -9.7294327665493778e+00
1.6100000000000001e+00 -1.2720174742916186e-02 -1.3703301447796649e+01 -6.4589409982568469e+01 8.1038192298971609e+01 -6.4064508965018135e+01 8.5932559562849875e+01 7.6533261081799767e-02 -9.8012974762235938e+00
1.6200000000000001e+00 -1.2971090084436428e-02 -1.3793617277698885e+01 -6.5698894283863723e+01 9.1984371099912920e+01 -6.4405486343493166e+01 8.1526534936124790e+01 7.6571535473472507e-02 -9.8724436087405945e+00
1.6299999999999999e+00 -1.2590766292616110e-02 -1.3895820249612493e+01 -6.3215806290866922e+01 8.2193991846837136e+01 -6.5477096092624677e+01 9.2014464491600535e+01 7.8239551502667107e-02 -9.9500840831124524e+00
1.6399999999999999e+00 -1.3037273473162379e-02 -1.3985760755395546e+01 -6.4683054173809751e+01 8.6012506359251333e+01 -6.4126903581080427e+01 7.2828501536943250e+01 7.6664905238917877e-02 -1.0019306404210257e+01
1.6499999999999999e+00 -1.2146929834728332e-02 -1.4081035505177869e+01 -6.4862630483233062e+01 6.5986436952153412e+01 -6.3370825668945095e+01 8.7677039643757382e+01 7.6969941550059207e-02 -1.0098238842276588e+01
1.6599999999999999e+00 -1.2627234920799313e-02 -1.4178972576435255e+01 -6.5356915175048442e+01 7.1449350778191331e+01 -6.3478293121918497e+01 8.4131079276791525e+01 7.6391480800788988e-02 -1.0171243730659913e+01
1.6699999999999999e+00 -1.2052163760721692e-02 -1.4287890726808330e+01 -6.5268214623345600e+01 8.5807331043341478e+01 -6.6726628863877337e+01 5.4776930208189889e+01 7.6291474743376470e-02 -1.0245912582029426e+01
1.6799999999999999e+00 -1.2937829349667572e-02 -1.4392804826629819e+01 -6.3657281561336923e+01 8.1618903416437718e+01 -6.6752872266251941e+01 7.8837120902885900e+01 7.6461608842999185e-02 -1.0315884594296657e+01
1.6899999999999999e+00 -1.2892615098796798e-02 -1.4476704837598335e+01 -6.6120724014672035e+01 7.4580641256609098e+01 -6.8585916708284472e+01 8.9224547811162111e+01 7.6441719362341759e-02 -1.0397947406265919e+01
1.7000000000000000e+00 -1.2469558112462427e-02 -1.4598250583790067e+01 -6.2602896550868579e+01 7.6728502440814410e+01 -6.3072919578071208e+01 7.3614781631497138e+01 7.6271898458770290e-02 -1.0468554785897380e+01
1.7100000000000000e+00 -1.2748989245945086e-02 -1.4686764140124343e+01 -6.1500507252333030e+01 9.0572310101250309e+01 -6.3162815307013233e+01 7.4549829431990858e+01 7.6328768677015102e-02 -1.0537221216435679e+01
1.7200000000000000e+00 -1.3763911221944411e-02 -1.4784374473582854e+01 -6.3749014196940195e+01 8.0452143659434213e+01 -6.2400025242538426e+01 9.2040181945854258e+01 7.7382120620351560e-02 -1.0619963354735305e+01
1.7300000000000000e+00 -1.1601371726083108e-02 -1.4892516103787267e+01 -6.5071228213022096e+01 7.9441913079742591e+01 -6.3422026377297158e+01 9.2321361355680068e+01 7.6782497046683482e-02 -1.0688895502391274e+01
1.7400000000000000e+00 -1.2838429293182782e-02 -1.4990649629925121e+01 -6.2775313921556794e+01 9.5989344428935468e+01 -6.2137323177482159e+01 8.8279306908294600e+01 7.7403798876718319e-02 -1.0762226134966157e+01
1.7500000000000000e+00 -1.3018546313845554e-02 -1.5091867584927675e+01 -6.3359138393872357e+01 8.6590650300201489e+01 -6.3719227632003879e+01 8.3167073890697509e+01 7.7622691019429840e-02 -1.0844238578489955e+01
1.7600000000000000e+00 -1.2641286546467664e-02 -1.5190253301984063e+01 -6.2989306538549094e+01 7.2597538237753639e+01 -6.3783735543072979e+01 7.9294660280691929e+01 7.6842416749114031e-02 -1.0915413286026713e+01
1.7700000000000000e+00 -1.2275709821792538e-02 -1.5302487909423144e+01 -6.3619617822256828e+01 8.1652315070051230e+01 -6.1313638132300142e+01 8.6104161116734375e+01 7.7880677722212299e-02 -1.0986827473355872e+01
1.7800000000000000e+00 -1.3536613468781650e-02 -1.5398307736442604e+01 -6.2645081481746239e+01 8.2913787944624900e+01 -6.2729622497815484e+01 8.5696558349752536e+01 7.7048307029411539e-02 -1.1072269889201921e+01
1.7900000000000000e+00 -1.3195766897828635e-02 -1.5485749951828392e+01 -6.2231147526513709e+01 7.9312902934044018e+01 -6.3792777972838337e+01 7.7048512601360599e+01 7.7214235278722759e-02 -1.1141737123070106e+01
1.8000000000000000e+00 -1.2169508741945922e-02 -1.5612828984086212e+01 -6.1400628842156905e+01 8.2928419991788260e+01 -6.2366489647510221e+01 8.0725035700577862e+01 7.6882295949847398e-02 -1.1220950273623910e+01
1.8100000000000001e+00 -1.3311619514472486e-02 -1.5713393332241111e+01 -6.2777727779008394e+01 8.5239505991314815e+01 -5.9015130945337162e+01 7.6811224647828780e+01 7.7660034359703811e-02 -1.1297626301470283e+01
1.8200000000000001e+00 -1.3914834416561210e-02 -1.5799249207891393e+01 -6.2350497922353469e+01 7.1118645288957183e+01 -6.3539622954812202e+01 8.4233361544636210e+01 7.6935149427343280e-02 -1.1369216936592764e+01
1.8300000000000001e+00 -1.3273434220367355e-02 -1.5911078113952188e+01 -6.0803475354576733e+01 8.7017771071591767e+01 -6.2547628170953217e+01 7.8839951505147440e+01 7.6725985767611526e-02 -1.1449221196631322e+01
1.8400000000000001e+00 -1.2936831320124102e-02 -1.6001888948093946e+01 -6.2495114567145023e+01 7.4633902462674186e+01 -5.9663946835591474e+01 8.2477413772455705e+01 7.6328833718322900e-02 -1.1523486703509279e+01
1.8500000000000001e+00 -1.4201949834053724e-02 -1.6105059517237393e+01 -6.0389635491487581e+01 7.5631250472336660e+01 -6.3150655883722848e+01 8.5074949952570918e+01 7.6897223049061630e-02 -1.1603317123852646e+01
1.8600000000000001e+00 -1.3605608533868479e-02 -1.6215732357637826e+01 -6.2009424357750902e+01 7.7908894580041135e+01 -6.0869189638961828e+01 7.8542967051655779e+01 7.6697582670660375e-02 -1.1677740150048690e+01
1.8700000000000001e+00 -1.3207842320793776e-02 -1.6336780806399588e+01 -6.0836289452804102e+01 9.0848296327698279e+01 -5.9576866585096901e+01 8.7550101002410059e+01 7.6717386661196027e-02 -1.1758171338090714e+01
1.8799999999999999e+00 -1.3586309272571656e-02 -1.6416674143494699e+01 -6.0082014653261865e+01 7.3865243896695972e+01 -6.1061313375417228e+01 8.8312672570654868e+01 7.6725716321246362e-02 -1.1835527730006358e+01
1.8899999999999999e+00 -1.3523457863340381e-02 -1.6522340963094464e+01 -6.0907164289305527e+01 7.9971534430452465e+01 -6.1908144960523110e+01 7.3135736226988115e+01 7.6916812983529134e-02 -1.1911028170364562e+01
1.8999999999999999e+00 -1.3248869007631420e-02 -1.6625563230380934e+01 -6.1364886586202104e+01 7.4273801197838807e+01 -6.0983414308048410e+01 7.1499038322058681e+01 7.6808283479933015e-02 -1.1990054367423488e+01
1.9099999999999999e+00 -1.2800939044431846e-02 -1.6742719483977229e+01 -5.9776179099802661e+01 7.3767002395314776e+01 -6.0277746591181128e+01 7.9052552545050190e+01 7.6481307223299475e-02 -1.2066916841437518e+01
1.9199999999999999e+00 -1.4720846064419084e-02 -1.6836050574819250e+01 -5.8992680584556808e+01 7.8305200348911242e+01 -5.9451222120350792e+01 8.5354863272751331e+01 7.6426491455741430e-02 -1.2143824375761433e+01
1.9299999999999999e+00 -1.3149706633123301e-02 -1.6947018917882357e+01 -5.9166369105426291e+01 7.7779008836988410e+01 -5.9013693788913315e+01 7.2678816781415790e+01 7.6631818134640955e-02 -1.2214134189594693e+01
