# MHz S DB R 50
1.0000000000000000e+00 -7.9905705295478593e-03 -8.2778202095037638e+00 -7.3781573195818851e+01 5.7644319545993028e+01 -7.6083399413896245e+01 9.9491136173823335e+01 6.2669685297018607e-02 -6.1622695880443148e+00
1.0100000000000000e+00 -8.2733673938787926e-03 -8.3696350063872043e+00 -7.7696939941171252e+01 5.1965701026334912e+01 -7.5874144577857010e+01 1.3550115844465637e+02 6.2348897864035399e-02 -6.2251807272980360e+00
1.0200000000000000e+00 -6.4342533451433558e-03 -8.4571684578631743e+00 -6.8709435657642445e+01 5.0345425124377485e+01 -7.6172961882048938e+01 6.5281941099785143e+01 6.2022770579717626e-02 -6.2932863591350721e+00
1.0300000000000000e+00 -6.9359870101478732e-03 -8.5439171256190036e+00 -7.2951368024205806e+01 6.2491470392254364e+01 -7.5829478432949813e+01 4.4826166847320387e+01 6.1888194892029708e-02 -6.3581688492238628e+00
1.0400000000000000e+00 -5.9585327704074331e-03 -8.6206566404851390e+00 -7.2487317868123412e+01 8.3411915257222788e+01 -6.9879332092887068e+01 5.0327981948370628e+01 6.0835326502394309e-02 -6.4261915537498178e+00
1.0500000000000000e+00 -7.9706675038233015e-03 -8.7446875856798556e+00 -7.5459367686181807e+01 6.7224602111593754e+01 -7.4410502847560210e+01 5.5033320952998835e+01 6.2145369438364108e-02 -6.4918165641502839e+00
1.0600000000000001e+00 -7.2193468845191365e-03 -8.8221813309588644e+00 -7.3013268641799044e+01 8.2456359982877416e+01 -7.4511039081022489e+01 4.9336079562027749e+01 6.1449507115522273e-02 -6.5558174635880633e+00
1.0700000000000001e+00 -7.8883294775167652e-03 -8.9174831886659351e+00 -8.2704695398342778e+01 7.1246922333415439e+00 -7.4285748121314953e+01 8.5939233074940518e+01 6.1183073965647178e-02 -6.6279600360325279e+00
1.0800000000000001e+00 -6.9679325757665712e-03 -8.9938240612139442e+00 -7.2933234787998529e+01 9.2945202501789055e+01 -7.3720368541862854e+01 2.1424220717502010e+01 6.1032459241475545e-02 -6.6933339117312274e+00
1.0900000000000001e+00 -8.3479898213132727e-03 -9.1039397109980875e+00 -7.2317181910884131e+01 8.4212608882091033e+01 -7.9504116261524217e+01 9.5375847446638943e+01 6.0106512527469028e-02 -6.7619864621155719e+00
1.1000000000000001e+00 -8.0276696508865680e-03 -9.1804588161945766e+00 -7.1127216605776141e+01 5.5999656733955900e+00 -7.1296696940666862e+01 8.6949151451076119e+01 6.0904041389510027e-02 -6.8252112566173020e+00
1.1100000000000001e+00 -7.7688568573693658e-03 -9.2858265533495015e+00 -7.3448805163705316e+01 4.6425207325068051e+01 -6.9413200522523894e+01 3.6540579920233959e+01 6.1086512189849410e-02 -6.8926019330351123e+00
1.1200000000000001e+00 -7.6762019305894923e-03 -9.3753729899530320e+00 -7.6164979279561621e+01 1.4315613682703969e+02 -7.1112435434094905e+01 3.0202778289657381e+01 6.0840888530206708e-02 -6.9636423932784552e+00
1.1299999999999999e+00 -7.7486937191886349e-03 -9.4633819850253253e+00 -7.2480436936647138e+01 4.2176551803677418e+00 -7.1897770802678920e+01 5.6919868420600906e+01 6.0298618098425211e-02 -7.0292955354686457e+00
1.1399999999999999e+00 -8.7585705444245768e-03 -9.5651192077698077e+00 -7.6231519025170059e+01 9.2822924251343125e+01 -7.0290995668864525e+01 8.1211422414929956e+01 5.9479333879537452e-02 -7.0982606999986988e+00
1.1499999999999999e+00 -9.0150942167704640e-03 -9.6550115953695848e+00 -7.9151695550543693e+01 5.2639616393463733e+01 -7.4638353115735526e+01 1.0282976396161868e+02 5.9512196740872367e-02 -7.1616594799951399e+00
1.1599999999999999e+00 -8.4408462328870327e-03 -9.7428572779473708e+00 -6.9934555520538410e+01 4.6745456208583107e+01 -7.3442424835471996e+01 5.2195166807376957e+01 5.9541482319989722e-02 -7.2290057407820774e+00
1.1699999999999999e+00 -8.4433150575493159e-03 -9.8431227414608067e+00 -7.1326641712513066e+01 7.4950307098624506e+01 -7.2332804451440538e+01 2.8599479677775957e+01 5.9448315110593515e-02 -7.3016131407276790e+00
1.1799999999999999e+00 -8.4828323842829258e-03 -9.9236979597208119e+00 -7.5316463890198918e+01 6.8400675271270629e+01 -8.5706496803531721e+01 -3.2949101130282138e+01 5.8957763012461195e-02 -7.3665177461622990e+00
1.1899999999999999e+00 -8.7209120476795209e-03 -1.0016247314580884e+01 -7.0820070350341680e+01 -2.6724313825546229e+01 -6.9239691326667824e+01 7.2531175631561922e+01 5.8453007651361300e-02 -7.4319735967402156e+00
1.2000000000000000e+00 -8.0881813450691033e-03 -1.0112532759030257e+01 -7.3431277358611311e+01 4.6609646804407632e+01 -7.4017122454836198e+01 3.7123974389870199e+01 5.9270770753170998e-02 -7.5066987063683488e+00
1.2100000000000000e+00 -9.6233753923795819e-03 -1.0208336548024315e+01 -7.3120967012778110e+01 4.8709221442857476e+01 -6.9499514023686956e+01 7.5820151906294925e+01 5.8751099021486189e-02 -7.5757143662642425e+00
1.2200000000000000e+00 -8.8969307877829421e-03 -1.0300342771708108e+01 -7.6699589232246055e+01 5.2602839271823782e+01 -7.9508638560860902e+01 -1.4407017602779824e+00 5.9318121921428435e-02 -7.6464672665035609e+00
1.2300000000000000e+00 -9.6268413173721951e-03 -1.0389139313776001e+01 -7.3360812190154604e+01 9.1745463504561357e+01 -7.1146030215369208e+01 1.1739973570555806e+01 5.8697704014840507e-02 -7.7123306670341458e+00
1.2400000000000000e+00 -7.8687905451288332e-03 -1.0467323981388315e+01 -7.5957107443470193e+01 3.5916099405239926e+01 -7.3601434876195654e+01 5.7347991958820415e+01 5.8315132308945139e-02 -7.7812461560174659e+00
1.2500000000000000e+00 -8.4752205927045229e-03 -1.0559051889948893e+01 -7.4774993507945112e+01 7.6840568675208232e+01 -7.3143752712940923e+01 5.3814488879584999e+01 5.7564402360099139e-02 -7.8451889398025765e+00
1.2600000000000000e+00 -9.7533713480754351e-03 -1.0662326944794769e+01 -6.7673546749392955e+01 7.3383413291952508e+01 -6.9208972916575703e+01 7.6742159365804696e+01 5.7435715077337808e-02 -7.9171054739409925e+00
1.2700000000000000e+00 -1.0044505365935572e-02 -1.0765746210729381e+01 -6.9028757010074742e+01 7.7707770618078982e+01 -7.2642922779008018e+01 6.1773182762111041e+01 5.8284181516663335e-02 -7.9874042924561133e+00
1.2800000000000000e+00 -9.7873891939750258e-03 -1.0847594383960100e+01 -6.9560641288732796e+01 5.2337256026399565e+01 -7.8147631094904909e+01 9.0951053627027207e+01 5.6789992715592846e-02 -8.0505975029025070e+00
1.2900000000000000e+00 -1.4136302097329266e-02 -1.0942138086985517e+01 -7.6161034119287848e+01 6.4956082938125604e+01 -6.9276882569549358e+01 7.1409376517383862e+01 5.8127471726871424e-02 -8.0993362078871947e+00
1.3000000000000000e+00 -9.3351166145811178e-03 -1.1039165363622505e+01 -6.7550185603015066e+01 6.5246425683556978e+01 -6.9559851795160029e+01 6.5323665523062260e+01 5.7376181115013372e-02 -8.1970395330793480e+00
1.3100000000000001e+00 -1.4169472222163254e-02 -1.1123088381755897e+01 -6.9304444941954074e+01 7.0519806260892025e+01 -6.7768461874951058e+01 3.9423906920110731e+01 5.6410169022221929e-02 -8.2798702498642971e+00
1.3200000000000001e+00 -9.0224500050543575e-03 -1.1238923290703989e+01 -7.8343918901004471e+01 5.4122451103805233e+01 -6.9663363918819869e+01 5.7366897473254632e+01 5.5038376397022686e-02 -8.3290979703575285e+00
1.3300000000000001e+00 -8.9872398598351572e-03 -1.1331684683049719e+01 -7.1371991078618123e+01 4.1890725885099961e+01 -7.4760906672327664e+01 6.1946150212778015e+00 6.0938041715718066e-02 -8.3605423498263232e+00
1.3400000000000001e+00 -3.4320256048109038e-02 -1.1656467198652098e+01 -7.5051075602853160e+01 2.1927209068894236e+01 -7.1645553043956042e+01 6.7960725024218789e+01 4.8830393292446830e-02 -8.3748091039781265e+00
1.3500000000000001e+00 -1.1012343348643771e-02 -1.1517478506231361e+01 -7.2561610479674229e+01 8.5515178436329691e+01 -6.9654344185371045e+01 8.2158882777471604e+01 5.6763719566982333e-02 -8.5391156222453617e+00
1.3600000000000001e+00 -1.2162831863174852e-02 -1.1563917629319528e+01 -7.2675367092013573e+01 3.1451516594401856e+01 -7.3040587352013077e+01 8.5011780614462765e+01 5.4819525327795868e-02 -8.6216993252353795e+00
1.3700000000000001e+00 -1.0761057065288997e-02 -1.1697311051890509e+01 -7.4155146455572392e+01 8.1133452641483032e+01 -6.9344871031992014e+01 7.5375675133355315e+01 5.5663179293060493e-02 -8.6888147860804317e+00
1.3799999999999999e+00 -9.6736809935826593e-03 -1.1801553893038136e+01 -7.1671576714056343e+01 6.0478261333719956e+01 -7.2508351133400893e+01 4.9218137725323885e+01 5.6398823024106370e-02 -8.7451522681328768e+00
1.3899999999999999e+00 -1.0443733528108632e-02 -1.1877678675959155e+01 -7.4089300025106752e+01 7.2722533825459323e+01 -7.2357411066231933e+01 1.0021968818906787e+02 5.8738644798223126e-02 -8.8209610846103157e+00
1.3999999999999999e+00 -1.0562810939721798e-02 -1.1981895193699991e+01 -7.0886443149790097e+01 6.7110998939724311e+01 -7.2349382992626673e+01 8.6464312908581832e+01 5.6938322385526041e-02 -8.8912258625601499e+00
1.4099999999999999e+00 -1.0992223446543711e-02 -1.2085443544418311e+01 -6.8255655156009652e+01 7.2441428029268224e+01 -7.4970047339387690e+01 8.9490064672797828e+01 5.6844214404639548e-02 -8.9500427369157780e+00
1.4199999999999999e+00 -9.5822554840725421e-03 -1.2174987403033205e+01 -7.3617461113582834e+01 5.6261071490688281e+01 -6.9199272928098864e+01 7.0014265264950907e+01 5.7151243924749025e-02 -9.0273314027233909e+00
1.4299999999999999e+00 -1.0825273956294939e-02 -1.2276669430891770e+01 -7.0248934603879320e+01 7.1048465859297181e+01 -7.1027533358573990e+01 6.7346075744889703e+01 5.5837359612189434e-02 -9.0942783877945175e+00
1.4399999999999999e+00 -1.0625235606851094e-02 -1.2372713818888961e+01 -6.6292138723428081e+01 5.7405128937311794e+01 -6.8380455726000292e+01 4.7910052039855785e+01 5.5532575655820121e-02 -9.1668132169102421e+00
1.4500000000000000e+00 -1.0652099336512504e-02 -1.2462393397231965e+01 -7.1799295237343372e+01 6.3025620374785120e+01 -6.8728630999989889e+01 7.7477319697624480e+01 5.5162853776952236e-02 -9.2369539222447408e+00
1.4600000000000000e+00 -1.0598535175661960e-02 -1.2555706597864997e+01 -6.6929204027898678e+01 8.4656217390244777e+01 -6.8004546144275920e+01 1.1611418913355509e+02 5.4888973969105123e-02 -9.3089972990758234e+00
1.4700000000000000e+00 -1.0039544216977442e-02 -1.2636806347933989e+01 -7.6794415293979398e+01 1.2492066371055409e+02 -7.2572395661782792e+01 7.3773361083835638e+01 5.5473880798417599e-02 -9.3806060461741883e+00
1.4800000000000000e+00 -1.0590175892190473e-02 -1.2753597384544934e+01 -6.9627518507926013e+01 7.5489775744389803e+01 -7.2372879971511821e+01 8.9240867146138186e+01 5.5332412133458034e-02 -9.4517885943568984e+00
1.4900000000000000e+00 -1.1228612619332636e-02 -1.2839328662306691e+01 -7.2115485280143574e+01 6.2581484219137373e+01 -6.8480758176083071e+01 7.0808786488910584e+01 5.5895536994678141e-02 -9.5167990395205617e+00
1.5000000000000000e+00 -1.0906288197319191e-02 -1.2932454446320529e+01 -6.7904588629063454e+01 7.3627475268333910e+01 -6.6886022133551151e+01 7.0756016901759253e+01 5.4688410480402641e-02 -9.5907628674885324e+00
1.5100000000000000e+00 -1.1921146414124744e-02 -1.3035648602854735e+01 -6.9689261558045757e+01 6.3765815027605846e+01 -7.1052945802353591e+01 9.4508796245228481e+01 5.5551626385830194e-02 -9.6654151581468817e+00
1.5200000000000000e+00 -1.1337448849671805e-02 -1.3136362632799186e+01 -6.7991400678229340e+01 8.3992194527681860e+01 -6.8379271303328736e+01 8.8903305913083173e+01 5.4797379794248605e-02 -9.7378611823777632e+00
1.5300000000000000e+00 -1.1045199832157222e-02 -1.3224763605155264e+01 -6.7141087491782173e+01 4.9932830875714394e+01 -6.7591421300613177e+01 9.7013787514900244e+01 5.5360427081547953e-02 -9.8107780906579389e+00
1.5400000000000000e+00 -1.2140218381732225e-02 -1.3334639583563426e+01 -6.8740041822908253e+01 5.2442245533018287e+01 -6.8323119929246332e+01 6.1283418559866774e+01 5.5455844436748530e-02 -9.8792956291283307e+00
1.5500000000000000e+00 -1.1860291642349717e-02 -1.3433159204655119e+01 -6.8982079340717220e+01 7.1933068443355793e+01 -6.4674588826599788e+01 8.2129186155155253e+01 5.5383912884138645e-02 -9.9493209068506321e+00
1.5600000000000001e+00 -1.1628360509343195e-02 -1.3523263207051174e+01 -6.6746009048887714e+01 8.4045742610088453e+01 -7.4250399513746785e+01 6.9311504258674731e+01 5.5086471552386829e-02 -1.0015260302234267e+01
1.5700000000000001e+00 -1.2160553538347538e-02 -1.3618762600623139e+01 -6.8815375269380155e+01 9.2757088138771252e+01 -6.6283799129624697e+01 8.6469493462123168e+01 5.5244535439176283e-02 -1.0093678245324506e+01
1.5800000000000001e+00 -1.1551520421704205e-02 -1.3711377340544058e+01 -6.8251517655380468e+01 8.1176761633011068e+01 -6.8118969229237877e+01 6.3283857307006123e+01 5.4781805526366065e-02 -1.0163237283232981e+01
1.5900000000000001e+00 -1.1832314378160005e-02 -1.3819232660764840e+01 -6.7524807462500519e+01 7.7715907396281494e+01 -6.7889331688275718e+01 7.3008935652074214e+01 5.4944665580145990e-02 -1.0238683392089387e+01
1.6000000000000001e+00 -1.1878378009093117e-02 -1.3929287579020103e+01 -6.6293455403461778e+01 9.0908954230957391e+01 -6.7333288696036547e+01 7.5060413442377239e+01 5.4845252318394162e-02 -1.0309470455440858e+01
1.6100000000000001e+00 -1.2188555022431068e-02 -1.4010145643794340e+01 -6.5202458843405850e+01 8.3021938170627962e+01 -6.4525422222269455e+01 8.5299983836443104e+01 5.4481353445710493e-02 -1.0384783138711001e+01
1.6200000000000001e+00 -1.2154274564103906e-02 -1.4114404741650583e+01 -6.6327872725041587e+01 8.8876567878556870e+01 -6.4718440598048701e+01 8.1298963111322237e+01 5.3958716646000646e-02 -1.0454334308723338e+01
1.6299999999999999e+00 -1.2054550659016592e-02 -1.4218128112649580e+01 -6.3841696722216561e+01 8.3805953591468025e+01 -6.7309073766889597e+01 8.8582900480969244e+01 5.5455567927678709e-02 -1.0532046394739206e+01
1.6399999999999999e+00 -1.1821420000051425e-02 -1.4315714812781675e+01 -6.5158845357088936e+01 8.4384566586442887e+01 -6.4059719565026796e+01 7.4968435293917636e+01 5.4924410359522904e-02 -1.0607796696570324e+01
1.6499999999999999e+00 -1.1469577866632913e-02 -1.4420542655973541e+01 -6.5203486026170751e+01 6.2455568372636932e+01 -6.4119279032732763e+01 8.7123615123814204e+01 5.5103914194110586e-02 -1.0676177591092362e+01
1.6599999999999999e+00 -1.1753242672503272e-02 -1.4505674953756294e+01 -6.6108320963245447e+01 7.2316261567205586e+01 -6.3563816747984099e+01 8.3971478075153058e+01 5.3559817021301123e-02 -1.0751246717602362e+01
1.6699999999999999e+00 -1.1284364879548614e-02 -1.4613111599601771e+01 -6.6119421305870574e+01 8.7018490391946713e+01 -6.7571008842776109e+01 5.3038663078050362e+01 5.5253269641045683e-02 -1.0828740119973590e+01
1.6799999999999999e+00 -1.2728170977729096e-02 -1.4720221002197313e+01 -6.4290948872568990e+01 8.1950994798615909e+01 -6.7707557218077156e+01 7.9986619345103577e+01 5.4665263403927883e-02 -1.0897310936836654e+01
1.6899999999999999e+00 -1.2118305098486801e-02 -1.4818195586231697e+01 -6.7532412601791250e+01 7.7358727890389986e+01 -6.9533915573706594e+01 8.4082551335686020e+01 5.4739212820408237e-02 -1.0972627082323275e+01
1.7000000000000000e+00 -1.2376494942831912e-02 -1.4910909902309147e+01 -6.2979110074526375e+01 7.5927501868525312e+01 -6.3706071720963600e+01 7.1302732784313577e+01 5.3957413091479216e-02 -1.1046568028916015e+01
1.7100000000000000e+00 -1.2205003874790524e-02 -1.5002511844082232e+01 -6.1700270362433855e+01 8.8865469272372735e+01 -6.4063035196542216e+01 7.1373305736828641e+01 5.4571500881631249e-02 -1.1111829640666848e+01
1.7200000000000000e+00 -1.3291913350546716e-02 -1.5105892791861830e+01 -6.4038430700337926e+01 7.8875473587562425e+01 -6.2849975685220073e+01 9.2941129453966468e+01 5.4387680074337579e-02 -1.1196686203565010e+01
1.7300000000000000e+00 -1.1644961602521686e-02 -1.5196200681102944e+01 -6.6139975241358883e+01 7.8220990417441286e+01 -6.4220876087471652e+01 9.4000228061795909e+01 5.3914625119980408e-02 -1.1268843416606396e+01
1.7400000000000000e+00 -1.2424853766727514e-02 -1.5308827213371979e+01 -6.3398658952667461e+01 9.6610827782121689e+01 -6.2416515296171795e+01 8.8969664755986486e+01 5.4507306492986810e-02 -1.1344818732273412e+01
1.7500000000000000e+00 -1.2325205721613617e-02 -1.5406523343317788e+01 -6.3722177221311114e+01 8.6343532446665179e+01 -6.4403331421169085e+01 8.4209213647051527e+01 5.4566729456637722e-02 -1.1420705107711990e+01
1.7600000000000000e+00 -1.2661920625128572e-02 -1.5509267228695821e+01 -6.3517974781426759e+01 7.0913038560484722e+01 -6.4083637641071633e+01 8.0860902722519270e+01 5.4831091655878759e-02 -1.1495531547043919e+01
1.7700000000000000e+00 -1.2407778091225357e-02 -1.5614436995180052e+01 -6.4499592617251295e+01 8.3208206358059300e+01 -6.1875086954056968e+01 8.5595118156029827e+01 5.3916209894697385e-02 -1.1576272644550693e+01
1.7800000000000000e+00 -1.3628595792065323e-02 -1.5721345243293301e+01 -6.3116071904715042e+01 8.4379206046987974e+01 -6.3264494090080049e+01 8.7620814336374423e+01 5.5292337844043415e-02 -1.1651044043787429e+01
1.7900000000000000e+00 -1.2404480029974331e-02 -1.5818665143708857e+01 -6.2605982110399403e+01 8.2987480989596577e+01 -6.3916179832816397e+01 7.5317285898426718e+01 5.4190918917135435e-02 -1.1731694124005209e+01
1.8000000000000000e+00 -1.3173160911059630e-02 -1.5915231109299620e+01 -6.1948729842289183e+01 8.1801926793352806e+01 -6.2719374032261015e+01 7.8833236609031616e+01 5.4439952223763952e-02 -1.1794427223440570e+01
1.8100000000000001e+00 -1.2840218854894680e-02 -1.6025412401402942e+01 -6.3446515329098489e+01 8.4037675128285542e+01 -5.9519372874192776e+01 7.6681743171160591e+01 5.4295215084252016e-02 -1.1871388144517791e+01
1.8200000000000001e+00 -1.2616065556764873e-02 -1.6114608716422019e+01 -6.2716478817045129e+01 7.2824465096379413e+01 -6.4155091296563143e+01 8.4229208280910555e+01 5.4401993903746962e-02 -1.1952097369068843e+01
1.8300000000000001e+00 -1.3186374620884317e-02 -1.6223095988670689e+01 -6.1130654767447510e+01 8.4926807192738011e+01 -6.3250866753413071e+01 7.4831020277225718e+01 5.4580431353644265e-02 -1.2032317061158640e+01
1.8400000000000001e+00 -1.3038553373195644e-02 -1.6321855477855291e+01 -6.3196837680789464e+01 7.2317435942766920e+01 -6.0257123263970627e+01 8.3604191233382195e+01 5.4132696166516801e-02 -1.2100055031655609e+01
1.8500000000000001e+00 -1.3566452740748036e-02 -1.6429486389544934e+01 -6.1400145337911042e+01 7.2534004086442707e+01 -6.3936823996604623e+01 8.4111267864169804e+01 5.4450543264998305e-02 -1.2183028749838423e+01
1.8600000000000001e+00 -1.3722908639696859e-02 -1.6533152856876331e+01 -6.2077769386367748e+01 7.7900080858596226e+01 -6.1949122457785208e+01 7.7033701246145753e+01 5.3879405708602481e-02 -1.2265153776692491e+01
1.8700000000000001e+00 -1.3338719484637971e-02 -1.6642888691606679e+01 -6.1479990773174713e+01 9.0851378029072066e+01 -6.0071922837849428e+01 8.6147745274573126e+01 5.4036667755003820e-02 -1.2337440507904246e+01
1.8799999999999999e+00 -1.2543569863731861e-02 -1.6755259435684497e+01 -6.0795422685963743e+01 7.3687748326237170e+01 -6.1754423044316795e+01 8.4704734596983656e+01 5.3871109018489842e-02 -1.2415177910033171e+01
1.8899999999999999e+00 -1.3297538624229346e-02 -1.6844685340673038e+01 -6.1500808180169734e+01 8.0220028287250813e+01 -6.2511700142555128e+01 6.9862985132662672e+01 5.4374897341776321e-02 -1.2490906126437686e+01
1.8999999999999999e+00 -1.3589418043478149e-02 -1.6944078145086017e+01 -6.2030093286011827e+01 8.1320382474201338e+01 -6.3157948606657641e+01 7.6492812426274838e+01 5.4590235160193457e-02 -1.2564972240016054e+01
1.9099999999999999e+00 -1.3177937188720918e-02 -1.7069163370268914e+01 -6.0041655244000331e+01 7.3982792372746630e+01 -6.0584985864800380e+01 7.6406490291494038e+01 5.3794236260739640e-02 -1.2644657073873118e+01
1.9199999999999999e+00 -1.3753816637665063e-02 -1.7153876123638028e+01 -5.9391131146552297e+01 8.0131854907087884e+01 -5.9625104709399878e+01 8.6962190986498754e+01 5.3765161054608566e-02 -1.2725656267203682e+01
1.9299999999999999e+00 -1.3032963598965124e-02 -1.7265887936935318e+01 -5.9905030277253431e+01 8.2207530972033155e+01 -6.0391134193027646e+01 7.2797336691020675e+01 5.4412490585282615e-02 -1.2795324013041014e+01
