# MHz S DB R 50
1.0000000000000000e+00 -8.7086946092268351e-03 -7.9656425656017724e+00 -7.2533108105293621e+01 5.5099750822940749e+01 -7.5125790364762040e+01 1.1291221910772387e+02 7.6842329051493602e-02 -5.7641696297873146e+00
1.0100000000000000e+00 -9.2522900259658127e-03 -8.0587103308600483e+00 -7.7760882391785159e+01 4.7384140371361106e+01 -7.9020816620958229e+01 1.3977368717750650e+02 7.5807946858293312e-02 -5.8295702609319067e+00
1.0200000000000000e+00 -7.2582451285257144e-03 -8.1439459300260335e+00 -6.8843950576541815e+01 5.0263319592224590e+01 -7.6795218443493155e+01 6.0113374519187410e+01 7.5648745879516505e-02 -5.8970542515789086e+00
1.0300000000000000e+00 -8.2286076954784914e-03 -8.2356299562963056e+00 -7.2633877277389615e+01 5.3785590159319000e+01 -7.5416434226605972e+01 4.6057139504987319e+01 7.5441921966712386e-02 -5.9621232593914364e+00
1.0400000000000000e+00 -7.7461059819268936e-03 -8.3277930438016146e+00 -7.2352170712510372e+01 8.2900629131671664e+01 -6.9719739928256615e+01 5.4397326674758730e+01 7.4879480705834958e-02 -6.0401397859343415e+00
1.0500000000000000e+00 -8.9464414406049998e-03 -8.4333273035934422e+00 -7.4330963886644582e+01 7.3734430870563685e+01 -7.4348126533651978e+01 5.5228441068118507e+01 7.5341751299988657e-02 -6.0983404003753199e+00
1.0600000000000001e+00 -8.6120035668432859e-03 -8.5218307686543735e+00 -7.2800611548940282e+01 9.3538967776071658e+01 -7.4713054769768476e+01 5.2426919232328345e+01 7.5545986628275066e-02 -6.1604944314084022e+00
1.0700000000000001e+00 -9.4179284686715208e-03 -8.6072390225175308e+00 -8.5260080823612583e+01 1.6622771425239041e+01 -7.4014645842871928e+01 9.2709586233264019e+01 7.4881093499617232e-02 -6.2266528286894074e+00
1.0800000000000001e+00 -9.5208172504558757e-03 -8.7073320306768878e+00 -7.3045830960818876e+01 8.7717212578136852e+01 -7.4468802234443260e+01 2.4085446262822767e+01 7.4392028543494249e-02 -6.3001982255746114e+00
1.0900000000000001e+00 -8.7018692813438814e-03 -8.7885431417007531e+00 -7.3656447629679008e+01 8.7816713646026145e+01 -8.1072781337709188e+01 7.4511275969395314e+01 7.4138426234416938e-02 -6.3609251699002112e+00
1.1000000000000001e+00 -9.2031888770872910e-03 -8.8822960915871629e+00 -7.1445257576903984e+01 7.8501973640845204e+00 -7.0881156492217386e+01 8.6904073542471053e+01 7.4275284903515509e-02 -6.4281674337328099e+00
1.1100000000000001e+00 -1.0000791662230423e-02 -8.9741817464517002e+00 -7.3078860627505293e+01 5.0863123180259784e+01 -6.9398647919480979e+01 3.7211422135630201e+01 7.4181558675366022e-02 -6.4934860137705481e+00
1.1200000000000001e+00 -9.1167741232335148e-03 -9.0620146010714375e+00 -7.6769068603688382e+01 1.5665726106415721e+02 -7.1318987325801814e+01 2.7577495427337428e+01 7.3804807940637457e-02 -6.5637596925302661e+00
1.1299999999999999e+00 -9.1154144027483543e-03 -9.1657989201638088e+00 -7.1948281474274083e+01 4.4900919646636179e+00 -7.1525672890582086e+01 5.7912987035915833e+01 7.4694475159191281e-02 -6.6319941746122453e+00
1.1399999999999999e+00 -1.0197091444270759e-02 -9.2587622033723243e+00 -7.5854617520864124e+01 8.7872297980870442e+01 -6.9971032100881899e+01 8.2053644227489613e+01 7.3882800334335544e-02 -6.6964430092496618e+00
1.1499999999999999e+00 -1.0574616590856137e-02 -9.3467707278657599e+00 -7.9480390095861267e+01 5.4833696251735290e+01 -7.4597758239341161e+01 1.0536525607790894e+02 7.3695516707861897e-02 -6.7690512499655942e+00
1.1599999999999999e+00 -1.0821284942131332e-02 -9.4361202319503334e+00 -7.0391349940315507e+01 5.0695748401452825e+01 -7.2308193405680043e+01 5.5302513451259259e+01 7.3389022213714725e-02 -6.8323102151641546e+00
1.1699999999999999e+00 -1.0155806664742667e-02 -9.5264209122303409e+00 -7.2415813637423852e+01 7.1334995807001391e+01 -7.2857680454146859e+01 2.7897827986389583e+01 7.2819144754236328e-02 -6.8985200990164053e+00
1.1799999999999999e+00 -1.0134946089175822e-02 -9.6172063360452764e+00 -7.3835893808142345e+01 6.0117267997200329e+01 -8.5787390705806644e+01 -1.5591946311068144e+01 7.3963492237751630e-02 -6.9681674594969900e+00
1.1899999999999999e+00 -1.2130324976726187e-02 -9.7204702017613460e+00 -7.3744683143172779e+01 -2.0415285406289016e+01 -6.9775978636867094e+01 6.6306744312282078e+01 7.2811774427111814e-02 -7.0326026361958771e+00
1.2000000000000000e+00 -9.6547558469454436e-03 -9.8105322944048066e+00 -7.4176032711608400e+01 4.4195154097629313e+01 -7.5076898483719702e+01 3.3796853972296127e+01 7.3085855586937171e-02 -7.1073313143480448e+00
1.2100000000000000e+00 -1.1208171468701802e-02 -9.8984060005909154e+00 -7.4212315033040440e+01 4.7983931712449511e+01 -6.9176431879656690e+01 7.6121033606354715e+01 7.3076177173049178e-02 -7.1722472164946787e+00
1.2200000000000000e+00 -1.1186225712639566e-02 -9.9994396903735048e+00 -7.4851958043119453e+01 3.9277915766284003e+01 -7.9669156891648029e+01 1.8911336049415347e+01 7.3359560250475825e-02 -7.2412615974097196e+00
1.2300000000000000e+00 -1.0723417355193944e-02 -1.0081742508219174e+01 -7.3334007313616198e+01 8.8108689818519039e+01 -7.1830753349729591e+01 1.7952104982501268e+01 7.2809310460795820e-02 -7.3128362434357612e+00
1.2400000000000000e+00 -1.0319281984333087e-02 -1.0172681245152305e+01 -7.5180732613393431e+01 4.2742310622713404e+01 -7.3884477729460855e+01 5.2240352019384446e+01 7.1926979053136941e-02 -7.3726438015295939e+00
1.2500000000000000e+00 -9.9076470490194538e-03 -1.0263183819582187e+01 -7.3777822756040621e+01 8.4942359977009360e+01 -7.3279503835368573e+01 5.9900820669868700e+01 7.2012789524465604e-02 -7.4451905434271231e+00
1.2600000000000000e+00 -1.2420410250432211e-02 -1.0353648064866139e+01 -6.7749807754143831e+01 7.5440976049679875e+01 -6.9120932155017698e+01 7.8998721263841148e+01 7.1642040993423639e-02 -7.5161091281603296e+00
1.2700000000000000e+00 -1.1391027805726721e-02 -1.0463252150883221e+01 -7.0216718232837238e+01 7.5391145707095802e+01 -7.1855742161903279e+01 6.2287416824710007e+01 7.1766261800837811e-02 -7.5913984090573221e+00
1.2800000000000000e+00 -1.3188611509513160e-02 -1.0553897854248710e+01 -6.9215587642918194e+01 5.1544694310983012e+01 -7.7630439388700708e+01 8.7173232090547131e+01 7.1055655306102042e-02 -7.6585332422228207e+00
1.2900000000000000e+00 -1.1954740338058274e-02 -1.0616462091758748e+01 -7.6201532371004717e+01 7.3693802361607922e+01 -6.8923633868956074e+01 7.3036517915783833e+01 7.2010483819676230e-02 -7.7130587406707463e+00
1.3000000000000000e+00 -1.0746760257123289e-02 -1.0744322165357135e+01 -6.7728635747153604e+01 6.5850517363257850e+01 -6.8714320310011502e+01 6.6312435885535834e+01 7.1027214316343540e-02 -7.7927074582830551e+00
1.3100000000000001e+00 -1.3291153247659723e-02 -1.0811479727628010e+01 -6.8806348807592428e+01 7.2395875158653126e+01 -6.7420781643528045e+01 3.9684459402525967e+01 6.9402957277109642e-02 -7.8815100400700651e+00
1.3200000000000001e+00 -1.5843226196512641e-02 -1.0904843008489253e+01 -7.6703384777208896e+01 6.3767244667337678e+01 -7.0582477081763642e+01 5.9361560531405750e+01 7.1373662398074508e-02 -7.9246497445453592e+00
1.3300000000000001e+00 -6.7956982207846798e-03 -1.0969977726456589e+01 -7.1391683870658511e+01 3.9579310464690074e+01 -7.3974478565323153e+01 1.7568269647842570e+01 6.6089037674393350e-02 -7.9561586010278935e+00
1.3400000000000001e+00 -3.2835488170901844e-02 -1.0956810797409235e+01 -7.6026517593594932e+01 2.7770480521774893e+01 -7.1224281527408579e+01 8.2985608346311096e+01 6.6331402485313967e-02 -7.8529277326486362e+00
1.3500000000000001e+00 -1.2364844168002469e-02 -1.1196656380439199e+01 -7.3164463411526228e+01 9.1095328265834922e+01 -6.9543483753629488e+01 8.2339306127292346e+01 7.0391875583002986e-02 -8.1425557918426996e+00
1.3600000000000001e+00 -1.3938918183881710e-02 -1.1261022682650955e+01 -7.2093676093064275e+01 2.2292052289884428e+01 -7.3620447163407604e+01 8.6950846913370270e+01 6.8548360211782594e-02 -8.2228216297621710e+00
1.3700000000000001e+00 -1.1877407854059064e-02 -1.1378791133422508e+01 -7.5516239623968659e+01 8.8883932888122089e+01 -6.9730178667399869e+01 7.7318162579041513e+01 7.0064321022568238e-02 -8.2939507088242355e+00
1.3799999999999999e+00 -1.1944202393541841e-02 -1.1487104476931968e+01 -7.2212536433998352e+01 5.8333220706226889e+01 -7.2392936573884242e+01 4.6253686349850462e+01 7.1027346809587028e-02 -8.3489125655325456e+00
1.3899999999999999e+00 -1.3007493869650090e-02 -1.1577239138696063e+01 -7.2526922176115221e+01 7.4079282016646872e+01 -7.2850341442890425e+01 9.7722075180810123e+01 7.1079506348932286e-02 -8.4122429292857657e+00
1.3999999999999999e+00 -1.2487336470082412e-02 -1.1683514604811956e+01 -7.0327726473213204e+01 7.2589966041515524e+01 -7.2728873650564438e+01 8.0769593815648591e+01 7.0751507969685448e-02 -8.4858581370329027e+00
1.4099999999999999e+00 -1.2059344113127528e-02 -1.1772887051387055e+01 -6.8052648034706749e+01 7.5547517767168316e+01 -7.5214628306004030e+01 8.9154930133927436e+01 6.9807424351528452e-02 -8.5547156618939582e+00
1.4199999999999999e+00 -1.2082834033158575e-02 -1.1871537900863791e+01 -7.4021896889838132e+01 5.2964015824232412e+01 -6.9227020617935125e+01 6.6907600589033862e+01 7.1156273149810254e-02 -8.6283755032395746e+00
1.4299999999999999e+00 -1.2580245910940344e-02 -1.1970070841147507e+01 -6.9376444322421449e+01 7.0670614429573163e+01 -7.0490134062240571e+01 7.0058715429874582e+01 6.9726873805301876e-02 -8.6943187532521371e+00
1.4399999999999999e+00 -1.2857044996685508e-02 -1.2063023392891283e+01 -6.6256980259190811e+01 6.2203247470153862e+01 -6.8526901760706380e+01 5.3574589074849911e+01 6.9246814610437052e-02 -8.7599257546986795e+00
1.4500000000000000e+00 -1.2550630967744517e-02 -1.2153941698764266e+01 -7.1415344644092528e+01 6.6537566951856334e+01 -6.9650866951591098e+01 7.9671434059224254e+01 6.9127330860958930e-02 -8.8328957052188706e+00
1.4600000000000000e+00 -1.2181288672171563e-02 -1.2253404644720909e+01 -6.6639597553385457e+01 8.4355149525998570e+01 -6.7736893129162198e+01 1.1431078565814639e+02 6.9136464182562848e-02 -8.9070944285823082e+00
1.4700000000000000e+00 -1.1805382026257714e-02 -1.2343420764424218e+01 -7.8184988766883123e+01 1.2844735989646301e+02 -7.0887510565495717e+01 7.3426217356434819e+01 6.8930758926250682e-02 -8.9739190365987334e+00
1.4800000000000000e+00 -1.2930143801946070e-02 -1.2452037140929246e+01 -6.9131739039856356e+01 7.0956586487848796e+01 -7.2330238442189028e+01 8.7087238525015493e+01 6.9873490895517185e-02 -9.0481532512143605e+00
1.4900000000000000e+00 -1.1652663247693370e-02 -1.2543611716133645e+01 -7.0785895307902109e+01 6.0515752507354392e+01 -6.8005214072074637e+01 7.3911549755001786e+01 6.9686341888989617e-02 -9.1133038730414793e+00
1.5000000000000000e+00 -1.1776078325412793e-02 -1.2633408247333110e+01 -6.8130278977691617e+01 6.8701363480298554e+01 -6.6814458494901189e+01 7.6091934031286300e+01 6.8547615592773142e-02 -9.1936720679634831e+00
1.5100000000000000e+00 -1.3598466442636167e-02 -1.2734949169469377e+01 -6.9937033330378284e+01 6.4142374532445857e+01 -7.0532371019855887e+01 1.0549560391008309e+02 6.9383705123336525e-02 -9.2629742270806705e+00
1.5200000000000000e+00 -1.2755078311687561e-02 -1.2841436275328984e+01 -6.7914193938137458e+01 8.8165594877214048e+01 -6.8817170092958861e+01 9.0519118578292677e+01 6.8110002888282131e-02 -9.3354010928445668e+00
1.5300000000000000e+00 -1.2618161126974507e-02 -1.2921864812448698e+01 -6.6915939129959256e+01 5.3134523795300318e+01 -6.7131034890508928e+01 9.7225224223618639e+01 6.9068572481335175e-02 -9.4049508748513411e+00
1.5400000000000000e+00 -1.3261904531850461e-02 -1.3029972544073289e+01 -6.9252555581555086e+01 5.6984196032453362e+01 -6.7967600402663891e+01 6.3412139319362701e+01 6.8499851589258212e-02 -9.4820020864810264e+00
1.5500000000000000e+00 -1.2322626595054079e-02 -1.3124351299833791e+01 -6.8096990203995674e+01 6.9965118034773212e+01 -6.4858298789252046e+01 8.3508038860382015e+01 6.9375262523539399e-02 -9.5468416306714676e+00
1.5600000000000001e+00 -1.3363888155254928e-02 -1.3209080073125968e+01 -6.7063466732282620e+01 8.4893789659639154e+01 -7.5374811205066109e+01 6.5305633550696257e+01 6.8888503633119630e-02 -9.6157466234318054e+00
1.5700000000000001e+00 -1.3832163459584353e-02 -1.3307017413838397e+01 -6.8360899535643483e+01 9.1648870542678367e+01 -6.6563370462846919e+01 8.9242706456290463e+01 6.9223919538492107e-02 -9.6936068645231295e+00
1.5800000000000001e+00 -1.3606408601797041e-02 -1.3414084635391298e+01 -6.8640650283621312e+01 8.3891943578421561e+01 -6.8399624812947124e+01 6.9418931661185923e+01 6.8557158023286185e-02 -9.7665949679957080e+00
1.5900000000000001e+00 -1.3587061589171702e-02 -1.3509507150793219e+01 -6.6961476405254174e+01 7.6215919843531424e+01 -6.7612010671523720e+01 7.6314945044417527e+01 6.8683892785480760e-02 -9.8391878549605671e+00
1.6000000000000001e+00 -1.3528787754550374e-02 -1.3623085952290884e+01 -6.6212109856066292e+01 9.3521929123972782e+01 -6.7003669671879933e+01 8.1818989768727263e+01 6.8843775200273669e-02 -9.9050494257078494e+00
1.6100000000000001e+00 -1.3109641743233400e-02 -1.3715158194824468e+01 -6.5475642994285593e+01 8.2469994516526782e+01 -6.4344616759061367e+01 8.5497367373061408e+01 6.8766663558881141e-02 -9.9847514279086909e+00
1.6200000000000001e+00 -1.3414982630345917e-02 -1.3815600248896232e+01 -6.6557007826127403e+01 8.9830210388115617e+01 -6.5396463101826285e+01 8.2401431708043120e+01 6.8417221820619142e-02 -1.0049935263353117e+01
1.6299999999999999e+00 -1.2987273485682262e-02 -1.3919737123236928e+01 -6.3830225428269003e+01 8.0917195682848359e+01 -6.7101578019734731e+01 8.9987377517801733e+01 6.8929408028315917e-02 -1.0132709353627448e+01
1.6399999999999999e+00 -1.3131418621614955e-02 -1.4004617598534368e+01 -6.5307171155067095e+01 8.3596927778862238e+01 -6.4139139161148350e+01 7.5827282242346683e+01 6.8323959271079357e-02 -1.0207359225409537e+01
1.6499999999999999e+00 -1.2833431042797650e-02 -1.4099133916165224e+01 -6.5176603621134902e+01 6.7371964049814821e+01 -6.3990921622309102e+01 8.7084163594642916e+01 6.8483003332644177e-02 -1.0279303387423885e+01
1.6599999999999999e+00 -1.3510731613032206e-02 -1.4194038924689291e+01 -6.6137741703134125e+01 7.6440291089377823e+01 -6.4164801612241689e+01 8.1264921295047628e+01 6.8567304340241997e-02 -1.0353798116236446e+01
1.6699999999999999e+00 -1.2831956815313199e-02 -1.4307850642858423e+01 -6.5288248832550167e+01 8.8729497061217685e+01 -6.7781625568287339e+01 5.2322226665384385e+01 6.8447620480015320e-02 -1.0428542423725821e+01
1.6799999999999999e+00 -1.3867675037684815e-02 -1.4399330625856374e+01 -6.4143064705782109e+01 8.2177192879385615e+01 -6.7404345032253332e+01 8.2803528336453283e+01 6.9001511044957692e-02 -1.0498263557319994e+01
1.6899999999999999e+00 -1.3413082221182140e-02 -1.4503826130401594e+01 -6.7361833718315992e+01 7.4831920804243296e+01 -6.9470886391996970e+01 9.0372377686797023e+01 6.8443837373211594e-02 -1.0575212285117406e+01
1.7000000000000000e+00 -1.3664428119717475e-02 -1.4608331679305641e+01 -6.2906522193019974e+01 7.8534669509200526e+01 -6.3716836633903554e+01 7.1006457341586483e+01 6.9011017369850755e-02 -1.0651861207178550e+01
1.7100000000000000e+00 -1.3257836789180848e-02 -1.4712606227799418e+01 -6.1853836635008307e+01 9.1417569321547674e+01 -6.3849928075907833e+01 7.5779852809668981e+01 6.8789806020070843e-02 -1.0717764541039763e+01
1.7200000000000000e+00 -1.3508835772128190e-02 -1.4796809463220223e+01 -6.4186754697724808e+01 7.8283432944509002e+01 -6.2841046592988675e+01 9.1735333453170639e+01 6.8385352599827295e-02 -1.0795073931640243e+01
1.7300000000000000e+00 -1.2721534385125927e-02 -1.4902399024036457e+01 -6.6219563762797932e+01 8.2736739247029064e+01 -6.4338877401178138e+01 9.1729966427720939e+01 6.7685085118161945e-02 -1.0866673615244485e+01
1.7400000000000000e+00 -1.3837988079424098e-02 -1.4992229230209423e+01 -6.2826687496100959e+01 9.8252549861466150e+01 -6.2517103003532412e+01 9.1787425948766568e+01 6.9371268434601369e-02 -1.0939117741674846e+01
1.7500000000000000e+00 -1.2940332197977165e-02 -1.5106088607155547e+01 -6.3675808150434882e+01 8.5284353707194455e+01 -6.4362896049026716e+01 8.1569344323866446e+01 6.9374303349171870e-02 -1.1017615752515985e+01
1.7600000000000000e+00 -1.3847800508282274e-02 -1.5206097454415309e+01 -6.3196471504149429e+01 7.1897795789609361e+01 -6.4237376376703025e+01 7.7775744367257758e+01 6.9146091574506824e-02 -1.1097127536698341e+01
1.7700000000000000e+00 -1.4189222607221793e-02 -1.5313843058872298e+01 -6.4367405826538032e+01 8.5814105733842169e+01 -6.1727386341679917e+01 8.4890564277255379e+01 6.9520418500943357e-02 -1.1172862718339779e+01
1.7800000000000000e+00 -1.4252658325656937e-02 -1.5420255074070647e+01 -6.3688236951061903e+01 8.5871140690068444e+01 -6.3598740931475398e+01 8.8123201643498547e+01 6.8641682114194386e-02 -1.1252052128774590e+01
1.7900000000000000e+00 -1.3342684315182280e-02 -1.5519491227975731e+01 -6.2628736610526836e+01 8.1733360364732491e+01 -6.3978133676524145e+01 7.7090093034982004e+01 6.8224965087956335e-02 -1.1325444938501960e+01
1.8000000000000000e+00 -1.4822533915979718e-02 -1.5620558817642037e+01 -6.1858080055802247e+01 8.2077261365531626e+01 -6.2907669432219564e+01 7.9953282634221424e+01 6.8859365462023828e-02 -1.1396456520293068e+01
1.8100000000000001e+00 -1.3278604845460663e-02 -1.5716347079384880e+01 -6.3353255865094454e+01 8.5598996472850885e+01 -5.9182179851117610e+01 7.6619901438135969e+01 6.8172612254392126e-02 -1.1472545952715732e+01
1.8200000000000001e+00 -1.4350101821092320e-02 -1.5822041574565215e+01 -6.2648380916425985e+01 7.3332943435414933e+01 -6.4151249285421486e+01 8.3735817613959597e+01 6.9069240567483800e-02 -1.1552109910530030e+01
1.8300000000000001e+00 -1.3882386300752989e-02 -1.5911030034019293e+01 -6.1079350663355221e+01 8.6359440008642892e+01 -6.3264176512340391e+01 7.6967112489103712e+01 6.8488692032624907e-02 -1.1628565215907134e+01
1.8400000000000001e+00 -1.3915099232196259e-02 -1.6016960213722474e+01 -6.3014280171381422e+01 7.5851972038528004e+01 -6.0181739385675435e+01 8.2984485957458546e+01 6.8383525886847804e-02 -1.1704623893009565e+01
1.8500000000000001e+00 -1.3798036289676383e-02 -1.6126176378851078e+01 -6.0950656576994774e+01 7.4159034231184009e+01 -6.3571227969832677e+01 8.3584884034989230e+01 6.7747281373592996e-02 -1.1782471804188139e+01
1.8600000000000001e+00 -1.3549044746670427e-02 -1.6235421666560043e+01 -6.2277279248125403e+01 7.8704392149622990e+01 -6.1185197803431564e+01 7.7544409458129962e+01 6.8610723928180309e-02 -1.1861518986228617e+01
1.8700000000000001e+00 -1.4867588440850715e-02 -1.6344603207830794e+01 -6.1286550261080365e+01 9.0494280536323345e+01 -5.9863456975808916e+01 8.8875551302889164e+01 6.7473820678960919e-02 -1.1936093227400935e+01
1.8799999999999999e+00 -1.4284976431378936e-02 -1.6431679177487649e+01 -6.0729303669331792e+01 7.4506388274268133e+01 -6.1430451997829763e+01 8.5684050743811497e+01 6.8290847482466194e-02 -1.2010787126085303e+01
1.8899999999999999e+00 -1.4618746910708635e-02 -1.6530212569162686e+01 -6.1734091347008331e+01 7.9597926781789340e+01 -6.2530291679548512e+01 7.1604969311343126e+01 6.8031451860964098e-02 -1.2087995038410543e+01
1.8999999999999999e+00 -1.4232878978539240e-02 -1.6640813945519202e+01 -6.2244565411354628e+01 8.0663511427819429e+01 -6.2688633015202754e+01 7.3991369799934148e+01 6.8171017662421604e-02 -1.2164149816763839e+01
1.9099999999999999e+00 -1.4055497680253637e-02 -1.6754513366215669e+01 -6.0368090527222911e+01 7.5289365830466167e+01 -6.0687455410324588e+01 7.7276699893021842e+01 6.8460790510201180e-02 -1.2239811851854975e+01
1.9199999999999999e+00 -1.5183529075116489e-02 -1.6862881035516690e+01 -5.9045804264993265e+01 8.0291459787553691e+01 -5.9918984045187671e+01 8.8917825809407177e+01 6.8422907318001644e-02 -1.2328180599378081e+01
1.9299999999999999e+00 -1.4004651913567413e-02 -1.6957208522213406e+01 -5.9922550639151133e+01 7.8835928313987694e+01 -5.9781080951305874e+01 7.2857144864680961e+01 6.8077167018723697e-02 -1.2399779600429905e+01
