# MHz S DB R 50
1.0000000000000000e+00 -8.8170876043504667e-03 -7.9463790450266281e+00 -7.2823672693134725e+01 4.8914092114013762e+01 -7.6188189737062601e+01 1.0073092383620698e+02 8.3748269120258206e-02 -5.6100766077991668e+00
1.0100000000000000e+00 -9.1128115915436458e-03 -8.0362399415860661e+00 -7.7660547449746559e+01 4.9783246055409677e+01 -7.7961763648705215e+01 1.3436242563820625e+02 8.2827293938158075e-02 -5.6686178306521331e+00
1.0200000000000000e+00 -7.6530618182344048e-03 -8.1238936301365978e+00 -6.8321653179777456e+01 4.9067035739259275e+01 -7.5499650857876773e+01 6.8577077001428890e+01 8.2440427895306714e-02 -5.7343462737390922e+00
1.0300000000000000e+00 -8.3594749386000367e-03 -8.2193412724525512e+00 -7.3063867510891086e+01 6.8271936356129899e+01 -7.5361822064824196e+01 4.1170857462353077e+01 8.2204097453379407e-02 -5.8026338887351478e+00
1.0400000000000000e+00 -7.6243610094727521e-03 -8.3002530529762932e+00 -7.1845909920898748e+01 8.4446215647037150e+01 -6.9261289215517820e+01 5.6299091863205369e+01 8.0878117300609953e-02 -5.8704017674685103e+00
1.0500000000000000e+00 -8.7870937083594659e-03 -8.4126855321423371e+00 -7.4873872703508908e+01 5.9905461823931397e+01 -7.2747093452672530e+01 5.9551425357513736e+01 8.2490471068398380e-02 -5.9335218583400069e+00
1.0600000000000001e+00 -9.2690508753340960e-03 -8.5019634747937793e+00 -7.2662850594555010e+01 8.0310797648843874e+01 -7.3543395238182129e+01 5.0280851958433956e+01 8.2427454814376272e-02 -5.9998654820411161e+00
1.0700000000000001e+00 -9.2451095559002924e-03 -8.5851769377273950e+00 -8.3075388265600921e+01 3.5861372808138285e+01 -7.2878823937667661e+01 8.6198976487810938e+01 8.2135212849172426e-02 -6.0667613278184014e+00
1.0800000000000001e+00 -8.6083688153057048e-03 -8.6743543466501301e+00 -7.1825752141626793e+01 8.6968896203316135e+01 -7.4078308554731805e+01 2.2691401750494737e+01 8.2037202878650711e-02 -6.1368203999640460e+00
1.0900000000000001e+00 -8.3092753595055656e-03 -8.7811584253936470e+00 -7.1435624884721406e+01 9.0144464384499770e+01 -7.7030834197942653e+01 7.7008249853876265e+01 8.1007443748998945e-02 -6.2035471620275278e+00
1.1000000000000001e+00 -9.2415172593847787e-03 -8.8615188960462934e+00 -7.1862393601774031e+01 1.2152425938978004e+01 -7.0209718318965528e+01 8.6771330684081221e+01 8.1912438498209492e-02 -6.2682389828604190e+00
1.1100000000000001e+00 -9.9147815276207397e-03 -8.9560745101768049e+00 -7.2862070658524630e+01 4.9414418924264083e+01 -6.9130467711644542e+01 3.7282338922995358e+01 8.1579003863125416e-02 -6.3333677797145995e+00
1.1200000000000001e+00 -8.7183685267576139e-03 -9.0446937126333218e+00 -7.7741969623845094e+01 1.3716283004971316e+02 -7.0659068603030320e+01 3.3860636453104853e+01 8.1779234040358653e-02 -6.4064290574360090e+00
1.1299999999999999e+00 -9.1209470691309240e-03 -9.1375170184213719e+00 -7.1715005075580308e+01 1.4890244698967962e+01 -7.1259880109045895e+01 5.8226303397370856e+01 8.1770829423675556e-02 -6.4716745568732765e+00
1.1399999999999999e+00 -9.8002626984088851e-03 -9.2359343178565343e+00 -7.5825188502443041e+01 8.4261282163323173e+01 -6.8901148037537723e+01 8.2993533841055921e+01 8.0904412059369726e-02 -6.5458015315339919e+00
1.1499999999999999e+00 -9.6888693177347683e-03 -9.3207383502801768e+00 -7.7949866873820042e+01 4.8006702885436923e+01 -7.3891480556839738e+01 1.0547228122808760e+02 8.1229636956693399e-02 -6.6064118276524875e+00
1.1599999999999999e+00 -1.0686748695077918e-02 -9.4135197998347682e+00 -6.9899913742247776e+01 4.2305425684109004e+01 -7.1898814527978615e+01 5.9527137822199393e+01 8.0918741675155434e-02 -6.6753098823629529e+00
1.1699999999999999e+00 -1.0227262959133680e-02 -9.5207192255583823e+00 -7.1883243671380512e+01 7.2773980961178324e+01 -7.2039298380170337e+01 3.0068211710029438e+01 8.0508212163428572e-02 -6.7411680346452991e+00
1.1799999999999999e+00 -1.0599692526258484e-02 -9.6067138045376979e+00 -7.3444979816542428e+01 6.7210348005350454e+01 -8.7171422047658325e+01 -2.6408023352283390e+01 8.0428080163611165e-02 -6.8147076936984172e+00
1.1899999999999999e+00 -9.9616439828233826e-03 -9.6993814571047814e+00 -7.0676826413373973e+01 1.1882313564910212e+00 -7.0232901322950624e+01 6.3303955462158982e+01 8.0500008967983858e-02 -6.8816172827933464e+00
1.2000000000000000e+00 -9.3914317529835145e-03 -9.7807690893608594e+00 -7.3293306191646394e+01 4.5303494796697649e+01 -7.3948177936153925e+01 4.5583226660169281e+01 8.0272121578305752e-02 -6.9528296515135093e+00
1.2100000000000000e+00 -1.0187917538641848e-02 -9.8835474986801017e+00 -7.2556488979855104e+01 5.2491737178442115e+01 -6.8731827619184742e+01 7.5705916033983286e+01 8.0477699145373519e-02 -7.0199305156626917e+00
1.2200000000000000e+00 -1.0601027438702454e-02 -9.9750969381330066e+00 -7.6060988259689751e+01 4.8159478115721882e+01 -7.7958719206074662e+01 2.1081654343468355e+01 8.0120259281728168e-02 -7.0862393422673531e+00
1.2300000000000000e+00 -1.1569781192880397e-02 -1.0070401127216813e+01 -7.3234132467072840e+01 9.1557923376635600e+01 -7.1591014911948079e+01 1.4691087762353703e+01 8.0440268462341633e-02 -7.1481201060437298e+00
1.2400000000000000e+00 -8.9125650359343240e-03 -1.0139316832530215e+01 -7.3970086933147101e+01 3.7076031889074351e+01 -7.3398534164649419e+01 5.9654356496874350e+01 7.9468485958274562e-02 -7.2208915899056798e+00
1.2500000000000000e+00 -1.0160875206634418e-02 -1.0249925627430075e+01 -7.6105960714350857e+01 7.6479692366173424e+01 -7.2462193762306939e+01 5.7281998717125383e+01 7.9638763476877886e-02 -7.2881743868560394e+00
1.2600000000000000e+00 -9.6653913904333165e-03 -1.0317425430261563e+01 -6.6973407027935309e+01 7.1922566439153655e+01 -6.8791575414592032e+01 8.1988622167603765e+01 7.9655069291271488e-02 -7.3589514479802505e+00
1.2700000000000000e+00 -1.0261221574288680e-02 -1.0428867555693316e+01 -7.0037193327830607e+01 7.4081617329074177e+01 -7.0672407875152260e+01 6.6048013923256022e+01 7.9231879934718877e-02 -7.4297249310637019e+00
1.2800000000000000e+00 -1.1830717302238808e-02 -1.0533303219339698e+01 -6.8626721626674595e+01 5.2530380100542658e+01 -7.6658178135873641e+01 1.0401375244793661e+02 7.8426028880698773e-02 -7.4959215751244521e+00
1.2900000000000000e+00 -1.0035840587797726e-02 -1.0623616495828765e+01 -7.5296705304741465e+01 7.8662050324259056e+01 -6.9297853774587978e+01 7.3809495287245198e+01 7.9178726415268033e-02 -7.5573839397645202e+00
1.3000000000000000e+00 -1.0193357288468445e-02 -1.0720168282596021e+01 -6.7186867007709608e+01 6.5810386662454945e+01 -6.8468265040319935e+01 6.4627445127034790e+01 7.8493683303805073e-02 -7.6328396577297202e+00
1.3100000000000001e+00 -1.7441498696897550e-02 -1.0814632122003573e+01 -6.8937244974988786e+01 7.1716117656540348e+01 -6.7036819459801251e+01 4.1921642377509791e+01 7.6141309281313088e-02 -7.6980262387172020e+00
1.3200000000000001e+00 -1.3476341093596335e-02 -1.0915955036499673e+01 -7.6152785922246622e+01 5.4307354842679985e+01 -6.9185184086225746e+01 6.1951396595074826e+01 7.7204429478878789e-02 -7.7571852325925379e+00
1.3300000000000001e+00 -9.0453843040879667e-03 -1.0957766613393440e+01 -7.1708378683444579e+01 4.3512360859342365e+01 -7.3099431241753109e+01 2.3039572038534224e+01 7.6378991130163096e-02 -7.7852739954488017e+00
1.3400000000000001e+00 -4.7977232861569546e-02 -1.0962915295795758e+01 -7.5766285983472471e+01 2.2478803345996127e+01 -7.2865331212681326e+01 7.6820655861738729e+01 7.5693944196181404e-02 -7.6964992742015186e+00
1.3500000000000001e+00 -1.2010417276588428e-02 -1.1187304989042545e+01 -7.1385609414169778e+01 8.2827391786118227e+01 -6.9221012987559902e+01 8.6410472122080179e+01 7.8224386891400099e-02 -7.9909878300767545e+00
1.3600000000000001e+00 -1.3223898412412428e-02 -1.1248429827138361e+01 -7.2920618638045681e+01 3.5123152945257949e+01 -7.1428819274920329e+01 7.8457961111218481e+01 7.6176888016454988e-02 -8.0610314652403137e+00
1.3700000000000001e+00 -1.2132766466107817e-02 -1.1370245280481594e+01 -7.4812428575437124e+01 7.8229808747910909e+01 -6.8777692049641971e+01 7.7638075253917194e+01 7.6831801129363844e-02 -8.1346021176984689e+00
1.3799999999999999e+00 -1.1064245621921497e-02 -1.1468199065375440e+01 -7.1271774046024035e+01 6.3141651944122017e+01 -7.0975813018361990e+01 5.0505906374183589e+01 7.8497795299117323e-02 -8.1951017389246221e+00
1.3899999999999999e+00 -1.2646980350793095e-02 -1.1558952838555726e+01 -7.2615828570309702e+01 7.0946858613672902e+01 -7.2209088513123262e+01 1.0166066322013126e+02 8.0312329767509918e-02 -8.2652514279383080e+00
1.3999999999999999e+00 -1.2047696384397354e-02 -1.1657167277516500e+01 -7.0480277181620338e+01 7.1510099630920237e+01 -7.1670762840273937e+01 8.0345571181899928e+01 7.8698297296261960e-02 -8.3280023064835511e+00
1.4099999999999999e+00 -1.1551010723925245e-02 -1.1767592770299826e+01 -6.7772271219171841e+01 7.2283531733583814e+01 -7.3869927849968178e+01 8.3040251742158517e+01 7.7869186906604812e-02 -8.3951769950350705e+00
1.4199999999999999e+00 -1.1164305927490979e-02 -1.1845509405086547e+01 -7.2131250262750200e+01 6.1388350195705904e+01 -6.8505221009573788e+01 7.1162931538432062e+01 7.8242591191404531e-02 -8.4715034099634092e+00
1.4299999999999999e+00 -1.2392155157419711e-02 -1.1949843947289988e+01 -6.9577822986010986e+01 7.2072711289119624e+01 -7.0505149479797751e+01 6.8041529073658324e+01 7.6842263797924443e-02 -8.5328761478831048e+00
1.4399999999999999e+00 -1.2193514992797324e-02 -1.2040325200274422e+01 -6.5692261835577327e+01 6.0550190685671090e+01 -6.7729757599622019e+01 4.6860765809446114e+01 7.7015609769207571e-02 -8.6007383800065984e+00
1.4500000000000000e+00 -1.2001014948170345e-02 -1.2130406575770946e+01 -7.1030433244573246e+01 6.5129454876562889e+01 -6.8187740958099724e+01 8.1950485247887457e+01 7.6601844509763872e-02 -8.6763841656344276e+00
1.4600000000000000e+00 -1.2034139617939178e-02 -1.2224297997517560e+01 -6.5905719515954459e+01 8.3859390377160210e+01 -6.7716762509776231e+01 1.0828764691271596e+02 7.6970072381402466e-02 -8.7477444480597750e+00
1.4700000000000000e+00 -1.0349273033437710e-02 -1.2325356918692556e+01 -7.7157037984386193e+01 1.1813034559980659e+02 -7.1324639750742932e+01 7.2610411132926188e+01 7.7035390876056792e-02 -8.8154217981548886e+00
1.4800000000000000e+00 -1.2286534012150347e-02 -1.2424203976831796e+01 -6.7974944917937520e+01 7.8677237027537089e+01 -7.1050789186013986e+01 8.5565107818285526e+01 7.6884958653191005e-02 -8.8915087540430697e+00
1.4900000000000000e+00 -1.1036516551057283e-02 -1.2519740837510971e+01 -7.0704310335309941e+01 6.0147675121174828e+01 -6.7664379466124871e+01 7.3907536347052869e+01 7.6783663553386450e-02 -8.9542323651096947e+00
1.5000000000000000e+00 -1.2074790671085260e-02 -1.2611396695702334e+01 -6.7859494922102485e+01 7.1296928017298640e+01 -6.6448472903731243e+01 7.3888448088143420e+01 7.5592445126494878e-02 -9.0345250045396455e+00
1.5100000000000000e+00 -1.2744909623268696e-02 -1.2705379143690385e+01 -6.9453954326134934e+01 6.6885056896704910e+01 -6.9995665690835395e+01 9.9550898407843150e+01 7.6983748392720652e-02 -9.1089109871200922e+00
1.5200000000000000e+00 -1.2574061392090160e-02 -1.2811877442949291e+01 -6.7124941455849410e+01 8.6221607004783436e+01 -6.8215624514453040e+01 9.2193027890268908e+01 7.6309427710680153e-02 -9.1708950297267631e+00
1.5300000000000000e+00 -1.1671479374416524e-02 -1.2905227573839165e+01 -6.7207114844007037e+01 5.4529124006837414e+01 -6.7209447608042879e+01 1.0036968651934055e+02 7.6043663213682111e-02 -9.2523688696752906e+00
1.5400000000000000e+00 -1.3389385717847025e-02 -1.2998845924527741e+01 -6.7736670904155545e+01 5.6809317104793635e+01 -6.7914633574544624e+01 6.4412882241911277e+01 7.6128149742712162e-02 -9.3234587960154531e+00
1.5500000000000000e+00 -1.1643421858192355e-02 -1.3099761502285618e+01 -6.7454989536068879e+01 7.1141415120606055e+01 -6.4253684043448104e+01 8.4338460262040755e+01 7.7290935725570109e-02 -9.3994859971615501e+00
1.5600000000000001e+00 -1.2375314784883660e-02 -1.3198479375305206e+01 -6.5771881590451798e+01 8.4629495753367536e+01 -7.2834465743171961e+01 7.7055264825477238e+01 7.6297753009711547e-02 -9.4648411523127365e+00
1.5700000000000001e+00 -1.2310187270346757e-02 -1.3296315402358363e+01 -6.7460079650918047e+01 9.4317089293642965e+01 -6.6383482322588122e+01 8.6441481193290613e+01 7.6968377606614347e-02 -9.5355139163310394e+00
1.5800000000000001e+00 -1.2356950973804844e-02 -1.3392690660679266e+01 -6.7592971870887794e+01 7.9721472832345029e+01 -6.7788190281681011e+01 7.1452806671377928e+01 7.6013435680506225e-02 -9.6065738756947585e+00
1.5900000000000001e+00 -1.2437995596275366e-02 -1.3496735583220991e+01 -6.6227572890106188e+01 7.8957520913619973e+01 -6.6886152421871984e+01 7.5584345381323530e+01 7.6607399190335448e-02 -9.6852685607396953e+00
1.6000000000000001e+00 -1.2433213759933210e-02 -1.3585539311887514e+01 -6.6200881278425513e+01 8.8299192443202514e+01 -6.6477926816612552e+01 8.4446297802545345e+01 7.6569979265526694e-02 -9.7523912671953052e+00
1.6100000000000001e+00 -1.3104004740325951e-02 -1.3678362882441455e+01 -6.5387009224315491e+01 8.2002522474594684e+01 -6.3517543560559332e+01 8.4605669403216581e+01 7.5924858491111080e-02 -9.8241172185776620e+00
1.6200000000000001e+00 -1.3099813859268086e-02 -1.3787809804033392e+01 -6.5886395693327771e+01 8.7976676460579341e+01 -6.4590525321199138e+01 8.3369793152176371e+01 7.5703784924132406e-02 -9.8988353480519251e+00
1.6299999999999999e+00 -1.2186668759350592e-02 -1.3891080692087126e+01 -6.3286414589280895e+01 8.0111363211248076e+01 -6.5978177029348061e+01 8.9370761799646772e+01 7.5806506128028195e-02 -9.9817698493074882e+00
1.6399999999999999e+00 -1.2445622308635976e-02 -1.3980358898749234e+01 -6.5251080726151059e+01 8.0599949995008771e+01 -6.3603095653990884e+01 7.3237969623779350e+01 7.6678994926049321e-02 -1.0048612381600803e+01
1.6499999999999999e+00 -1.2353396147611061e-02 -1.4075844055640506e+01 -6.4692847484739730e+01 6.5674654687960270e+01 -6.3483963124767406e+01 8.5736459048851231e+01 7.6044545300064159e-02 -1.0119759449268683e+01
1.6599999999999999e+00 -1.3509306373483194e-02 -1.4163847089801891e+01 -6.5406259285478882e+01 7.3143666187333650e+01 -6.3346112772922403e+01 8.5511475265995813e+01 7.5606450979877921e-02 -1.0192660395331623e+01
1.6699999999999999e+00 -1.2667957121916259e-02 -1.4269563872489689e+01 -6.5174364515506184e+01 8.5803726031776534e+01 -6.7201791961185037e+01 5.6426623211529204e+01 7.5736165862162252e-02 -1.0271867751355401e+01
1.6799999999999999e+00 -1.3397718104719784e-02 -1.4376235616352036e+01 -6.4164791755793161e+01 8.0443085325971353e+01 -6.6575112668045861e+01 8.1956732732696580e+01 7.6151536281866147e-02 -1.0339961365324271e+01
1.6899999999999999e+00 -1.2697456638186512e-02 -1.4474817257605139e+01 -6.6182359521470673e+01 7.2863917267443270e+01 -6.9220707804154031e+01 8.7967555166659665e+01 7.5485701235365771e-02 -1.0418256542856287e+01
1.7000000000000000e+00 -1.3105530006026473e-02 -1.4583213325994944e+01 -6.2456030749629321e+01 7.6454048939343608e+01 -6.3276569112014400e+01 7.3596990561819325e+01 7.5759835927928440e-02 -1.0491396640455315e+01
1.7100000000000000e+00 -1.2888629928908782e-02 -1.4676530912055487e+01 -6.1529737667101912e+01 8.7799123836907953e+01 -6.3066722152616464e+01 7.2937652364690607e+01 7.6375070196505829e-02 -1.0561816680185530e+01
1.7200000000000000e+00 -1.3436393544975042e-02 -1.4775587969965905e+01 -6.3836811182995241e+01 7.8125953926346114e+01 -6.2081668705584114e+01 9.1593250326451056e+01 7.5938890426833258e-02 -1.0642564221719637e+01
1.7300000000000000e+00 -1.2354345840527633e-02 -1.4866653422281665e+01 -6.5564160552225729e+01 7.8574263350310119e+01 -6.3658074746701359e+01 9.3924456467637981e+01 7.5412539765087369e-02 -1.0714603001012541e+01
1.7400000000000000e+00 -1.3050782103730649e-02 -1.4964429450278370e+01 -6.2529265732512314e+01 9.4803999019380257e+01 -6.2040373587966911e+01 9.1216040946461774e+01 7.6429572058916512e-02 -1.0790284803372444e+01
1.7500000000000000e+00 -1.2233274402323118e-02 -1.5085278329848128e+01 -6.3084990892720924e+01 8.6414429232521087e+01 -6.3753768558909215e+01 8.2384773262226076e+01 7.6540278073276624e-02 -1.0866936765456931e+01
1.7600000000000000e+00 -1.2804671238864408e-02 -1.5179099571394959e+01 -6.2728189164624631e+01 7.2687546629226659e+01 -6.3642805068750647e+01 8.2446928911648683e+01 7.6467035457573621e-02 -1.0936154844563362e+01
1.7700000000000000e+00 -1.3889242534041901e-02 -1.5283716851655042e+01 -6.3995436191450075e+01 8.1968489968775302e+01 -6.1508091118753050e+01 8.5704972433313415e+01 7.6377109646979705e-02 -1.1020765512990788e+01
1.7800000000000000e+00 -1.3335041754789209e-02 -1.5399665509765970e+01 -6.2854212751888490e+01 8.4285968104655822e+01 -6.2872770643017653e+01 9.0493751531143602e+01 7.6500598456013508e-02 -1.1094849161482383e+01
1.7900000000000000e+00 -1.3079674729476057e-02 -1.5484303437705048e+01 -6.1938224763705023e+01 8.3253114229572688e+01 -6.3523741655295602e+01 7.6202125141988361e+01 7.5934558981058053e-02 -1.1165616375811943e+01
1.8000000000000000e+00 -1.2490699532233328e-02 -1.5593647351224117e+01 -6.1126127186152956e+01 8.2945820879716251e+01 -6.1783389164660534e+01 8.0812743412527865e+01 7.6633071872058894e-02 -1.1239749279945116e+01
1.8100000000000001e+00 -1.3942282664227427e-02 -1.5711497081607556e+01 -6.2919082204574011e+01 8.5348182218134070e+01 -5.9092166236165212e+01 7.6882469692314558e+01 7.6088606844474951e-02 -1.1321622731797254e+01
1.8200000000000001e+00 -1.3460908557139779e-02 -1.5793434823783720e+01 -6.1984134973413845e+01 7.4146684196032496e+01 -6.3893962835072912e+01 8.4301386703248781e+01 7.6340868594733810e-02 -1.1394244015477195e+01
1.8300000000000001e+00 -1.3195859004034392e-02 -1.5902894666912960e+01 -6.0812545200515373e+01 8.6048859118885716e+01 -6.2665144787028737e+01 7.7478494749326600e+01 7.5809899097950328e-02 -1.1468430503163162e+01
1.8400000000000001e+00 -1.2510124421343579e-02 -1.5999756154381465e+01 -6.2285451082878957e+01 7.3479422492088887e+01 -5.9645275654969012e+01 8.3621977120972048e+01 7.5606736911169398e-02 -1.1550201836036900e+01
1.8500000000000001e+00 -1.3630506147382529e-02 -1.6092466685622519e+01 -6.0510671992899915e+01 7.5330241477951461e+01 -6.3168901690700508e+01 8.1677847704989574e+01 7.6585993637529479e-02 -1.1627296763403951e+01
1.8600000000000001e+00 -1.3327132765308093e-02 -1.6212723246696420e+01 -6.1862731677467046e+01 8.0548474452114377e+01 -6.1208400259465527e+01 7.6464388889502160e+01 7.6364461753792107e-02 -1.1707767194946658e+01
1.8700000000000001e+00 -1.3806240778073117e-02 -1.6316998834691052e+01 -6.0859296714312038e+01 9.0503070255119113e+01 -5.9593783255474328e+01 8.7431615320693282e+01 7.6482039386225859e-02 -1.1774024709286035e+01
1.8799999999999999e+00 -1.3684374776707118e-02 -1.6417894048612649e+01 -5.9633846858973520e+01 7.0957963403532858e+01 -6.0608845876213749e+01 8.0735502789615310e+01 7.6147301471088460e-02 -1.1858847277922708e+01
1.8899999999999999e+00 -1.3527298663219080e-02 -1.6507828853634980e+01 -6.0471645536984411e+01 7.6945424216028812e+01 -6.1001955074143268e+01 6.8351067019991575e+01 7.5418354627943301e-02 -1.1938646891980932e+01
1.8999999999999999e+00 -1.3653438376404653e-02 -1.6611926544286948e+01 -6.1030061807520475e+01 7.6146033875018887e+01 -6.1481359797432532e+01 7.1185182484240102e+01 7.6400748909196931e-02 -1.2011261247216080e+01
1.9099999999999999e+00 -1.3908369156411693e-02 -1.6733305046570205e+01 -5.9890320239294226e+01 7.4874145678946931e+01 -6.0268032211438587e+01 7.6936198815692791e+01 7.5862131194629326e-02 -1.2092707023924497e+01
1.9199999999999999e+00 -1.4584049161708797e-02 -1.6839742101244294e+01 -5.8511726392645464e+01 7.9610938678395371e+01 -5.9029348702744791e+01 8.8408968152001748e+01 7.5251071244016712e-02 -1.2175274288228223e+01
1.9299999999999999e+00 -1.4150392013324862e-02 -1.6935866875874176e+01 -5.9155236905431593e+01 7.7482562943706014e+01 -5.9093266432690939e+01 7.0968429643382422e+01 7.6483044754455082e-02 -1.2236276921939398e+01
