# MHz S DB R 50
1.0000000000000000e+00 -7.5538975669749509e-03 -7.9445863928474436e+00 -7.4909655882316940e+01 5.9261578800262328e+01 -7.8212210722500870e+01 1.2654893405463366e+02 8.2824464065852296e-02 -5.6213607702746025e+00
1.0100000000000000e+00 -8.0425373463245842e-03 -8.0374955349894321e+00 -8.0486134045775970e+01 7.0611080948415108e+01 -7.6158669855830823e+01 1.6165155131215442e+02 8.1625514261682505e-02 -5.6843440823611147e+00
1.0200000000000000e+00 -6.5338188131830273e-03 -8.1288035893470703e+00 -6.9680346192033156e+01 4.7924483571333305e+01 -7.8228351733759695e+01 8.2904732556044365e+01 8.2098187701327957e-02 -5.7484313347573277e+00
1.0300000000000000e+00 -7.1020425515099699e-03 -8.2123000323115605e+00 -7.5158781410058083e+01 5.3836731920143258e+01 -7.9000208685861338e+01 2.4254001433407641e+01 8.1236219559252323e-02 -5.8184620037994756e+00
1.0400000000000000e+00 -6.1937506614366741e-03 -8.2916702610012933e+00 -7.4949924477971621e+01 9.0566054554152274e+01 -7.1170764730531104e+01 5.0959697852671319e+01 8.0169462557600712e-02 -5.8824674846075844e+00
1.0500000000000000e+00 -7.7587598735264799e-03 -8.4137066699038101e+00 -7.5993087098830387e+01 7.1361265090812211e+01 -7.7134360364258640e+01 4.5584104913289359e+01 8.1381623070353293e-02 -5.9496988392000043e+00
1.0600000000000001e+00 -7.1141036764571976e-03 -8.4870839059681398e+00 -7.5285943731657824e+01 1.0224326983527791e+02 -7.6719878496164895e+01 5.7145734130505680e+01 8.2195405223037199e-02 -6.0120424591843626e+00
1.0700000000000001e+00 -7.4765432699848006e-03 -8.5828506845348258e+00 -8.8868046072943145e+01 -1.0812215152340160e+02 -7.6963040495088165e+01 1.0684708532071222e+02 8.0513141050548742e-02 -6.0835986535367041e+00
1.0800000000000001e+00 -7.3202263330485896e-03 -8.6758506671106552e+00 -7.3568152262371285e+01 8.9471416010072474e+01 -7.6993696695574570e+01 8.0718419426597361e+00 8.0889538045180190e-02 -6.1545182978153337e+00
1.0900000000000001e+00 -7.6460212690531004e-03 -8.7641049523983678e+00 -7.4136536228182280e+01 9.8118049869538183e+01 -8.7841244467114166e+01 6.4262510096500478e+01 7.9715981664488483e-02 -6.2175816263309951e+00
1.1000000000000001e+00 -7.6913468758527635e-03 -8.8540624558793990e+00 -7.3128710776819474e+01 -6.0272714627655279e+00 -7.2138619049277068e+01 9.9274086496239107e+01 8.0852792219335057e-02 -6.2813329512665135e+00
1.1100000000000001e+00 -7.9968789367406336e-03 -8.9581671586919445e+00 -7.5181962814981958e+01 4.4911069062198337e+01 -7.0603997148649171e+01 3.3834433104593082e+01 8.0259251664658193e-02 -6.3479161937010256e+00
1.1200000000000001e+00 -6.3929767561374043e-03 -9.0346831110302137e+00 -7.3832463442314506e+01 1.6923189585342851e+02 -7.3394517222090840e+01 2.2823656655710842e+01 8.0243558848445348e-02 -6.4163192729549747e+00
1.1299999999999999e+00 -7.2303461052729582e-03 -9.1239601663848688e+00 -7.3871929081044371e+01 -8.1624747253911050e+00 -7.3779433840100495e+01 6.3417163621134115e+01 7.9999118313207135e-02 -6.4841844264474959e+00
1.1399999999999999e+00 -8.4470862321339105e-03 -9.2141195897879573e+00 -7.8433701077589490e+01 1.0718557819275622e+02 -7.0760417392182347e+01 9.3966057344458264e+01 8.0454370037198741e-02 -6.5560292760790633e+00
1.1499999999999999e+00 -8.4621692770209238e-03 -9.3099081145651663e+00 -8.8732096700413265e+01 5.4606952367107986e+01 -7.5704818470564035e+01 1.2085610920895840e+02 8.0201053253703067e-02 -6.6214092685738084e+00
1.1599999999999999e+00 -8.1987679649367009e-03 -9.4048955338786051e+00 -7.2433065306403662e+01 4.8798103047798833e+01 -7.6313406208312244e+01 4.3201794691383398e+01 7.9505510284745437e-02 -6.6831274317588818e+00
1.1699999999999999e+00 -7.3721705307299148e-03 -9.4886310146378712e+00 -7.4875561629608555e+01 8.5720638934103462e+01 -7.5879772036212927e+01 1.3816822607462951e+01 7.9410405511801396e-02 -6.7572718011601598e+00
1.1799999999999999e+00 -7.8770741173705416e-03 -9.5739943554080469e+00 -7.6936037094756742e+01 6.6164286600004360e+01 -8.3866164657970913e+01 -1.2266652658417274e+02 7.9671917985664920e-02 -6.8226326224277782e+00
1.1899999999999999e+00 -8.2647335147967554e-03 -9.6748275088429452e+00 -7.4154691533470967e+01 -1.9202787934877097e+01 -7.2758180961726254e+01 6.1508189009156723e+01 7.8115261556470167e-02 -6.8932876140502577e+00
1.2000000000000000e+00 -7.8962557393371623e-03 -9.7570925572214531e+00 -7.6199084004251446e+01 3.5652836941902173e+01 -7.6181809257108227e+01 3.5443548392071790e+01 7.9227945861143095e-02 -6.9601282698232838e+00
1.2100000000000000e+00 -8.8020564934831701e-03 -9.8609910821863416e+00 -7.6387911630411665e+01 5.9279385705274933e+01 -7.0860967134172611e+01 8.3050497310869687e+01 7.8712120563407664e-02 -7.0270172727117828e+00
1.2200000000000000e+00 -7.9058684872720456e-03 -9.9486886993011829e+00 -8.0489030345234127e+01 3.7892079663012559e+01 -8.1175722725297760e+01 -1.0347710827024109e+01 7.8681839317981186e-02 -7.0978433547536657e+00
1.2300000000000000e+00 -9.0505842232265956e-03 -1.0028609553461633e+01 -7.4981609137613006e+01 1.0626073130092347e+02 -7.2974901701161741e+01 1.1799422715497203e+01 7.8376487406851283e-02 -7.1679903914882104e+00
1.2400000000000000e+00 -7.1393389219730216e-03 -1.0112711789899183e+01 -7.7416644923703060e+01 3.1367413069765703e+01 -7.5974068359552632e+01 6.0835637683205064e+01 7.8075177197546544e-02 -7.2306810975807574e+00
1.2500000000000000e+00 -7.9396057348433951e-03 -1.0220869950578415e+01 -7.7476029853228439e+01 9.8981105406733434e+01 -7.5486137041917345e+01 4.9699727668028544e+01 7.7423320577612850e-02 -7.2963138694392597e+00
1.2600000000000000e+00 -8.9083084081757191e-03 -1.0299356826952792e+01 -6.8702286210614204e+01 7.7060183486834333e+01 -7.0654641459793936e+01 8.1314301308243344e+01 7.8299538192598120e-02 -7.3699273593798669e+00
1.2700000000000000e+00 -9.4775572060072644e-03 -1.0398478464109147e+01 -7.0945440683433148e+01 7.9991276954414275e+01 -7.4937493053424447e+01 6.7904991465062977e+01 7.8293476890226726e-02 -7.4410943420161377e+00
1.2800000000000000e+00 -8.8599747123603786e-03 -1.0488875024576336e+01 -7.0783474249531665e+01 4.8977168069729849e+01 -8.0564959417548451e+01 1.1868493634902642e+02 7.6367262162685495e-02 -7.5043069843258525e+00
1.2900000000000000e+00 -1.0539370418226592e-02 -1.0577154243659582e+01 -7.8788193698616652e+01 7.3783607003367891e+01 -7.0646825539682609e+01 8.2048052187529080e+01 7.7749361375384130e-02 -7.5626051831151910e+00
1.3000000000000000e+00 -8.7732103449325635e-03 -1.0685845401292966e+01 -6.9098493921242564e+01 6.8903900731532985e+01 -7.0350971486523775e+01 6.2420582199357682e+01 7.7059371883778288e-02 -7.6420532101682745e+00
1.3100000000000001e+00 -7.3104463928316023e-03 -1.0777359868927084e+01 -7.1832700307601513e+01 6.4385919371325684e+01 -6.9760169807695561e+01 3.3077480850322928e+01 7.4692184827761812e-02 -7.7213075629811057e+00
1.3200000000000001e+00 -7.9482271000458245e-03 -1.0872450790169859e+01 -7.9690005438462293e+01 4.9066383176236151e+01 -7.0967287693074638e+01 6.0118521853513933e+01 7.4439104969881306e-02 -7.7846205493764122e+00
1.3300000000000001e+00 -3.8593567041252256e-03 -1.0916768345786412e+01 -7.2269827256994319e+01 2.9200893832020846e+01 -7.6274887470911409e+01 1.3593303201219660e+01 7.1906606898815645e-02 -7.8039035746119572e+00
1.3400000000000001e+00 -4.6973877315015088e-02 -1.0920126939036928e+01 -7.5636284872505385e+01 6.7114090962316597e-01 -7.5395657626607189e+01 8.2492375584078673e+01 7.3637597545401251e-02 -7.7082478978909608e+00
1.3500000000000001e+00 -8.5697635258686934e-03 -1.1155623741350377e+01 -7.5403115859491564e+01 8.8081966146913246e+01 -7.0187047188395795e+01 8.5371092503882409e+01 7.6141686843463258e-02 -7.9897813034728875e+00
1.3600000000000001e+00 -1.0360407298009506e-02 -1.1236542914005337e+01 -7.4946544965838527e+01 1.5539165486764590e+01 -7.5080798544967720e+01 9.3079467994088503e+01 7.1495400693129540e-02 -8.0683423480737044e+00
1.3700000000000001e+00 -1.1264811626807595e-02 -1.1335597068009285e+01 -7.8599778869119774e+01 8.8821839758268908e+01 -7.0644689584263887e+01 7.2233355760042087e+01 7.7263535149958290e-02 -8.1348877312395658e+00
1.3799999999999999e+00 -1.0026383264041910e-02 -1.1402351476121716e+01 -7.4863713943902127e+01 5.2508622622168339e+01 -7.4421192850750572e+01 3.6709572211684673e+01 7.6257584822918043e-02 -8.2021145601575149e+00
1.3899999999999999e+00 -1.0137526364300896e-02 -1.1501159765820821e+01 -7.6745384985583598e+01 6.4530641852075519e+01 -7.5479510325247588e+01 1.0710224051014632e+02 7.7330266052090729e-02 -8.2635865103467570e+00
1.3999999999999999e+00 -9.6305395918366479e-03 -1.1605032597253404e+01 -7.3393502831405343e+01 7.0156414949839359e+01 -7.6711463374999099e+01 8.6729406676466539e+01 7.7728015355746069e-02 -8.3382980679509533e+00
1.4099999999999999e+00 -1.0096709861102194e-02 -1.1701853046002689e+01 -6.9824205506804191e+01 6.4098963862564844e+01 -7.8267016513487761e+01 8.9869475645704100e+01 7.6204685504429437e-02 -8.4101072961255312e+00
1.4199999999999999e+00 -9.0346784277876811e-03 -1.1768601408366690e+01 -7.5952855855046010e+01 3.7834377310876683e+01 -7.1657778473494233e+01 6.8091509459646517e+01 7.7412746440068320e-02 -8.4756477304212918e+00
1.4299999999999999e+00 -9.8472038618088870e-03 -1.1872293877702660e+01 -7.2019266139764696e+01 7.1271448658364591e+01 -7.3090468678596807e+01 6.1652878745846721e+01 7.5514307396537472e-02 -8.5389281614438612e+00
1.4399999999999999e+00 -1.0758475677463429e-02 -1.1975930689499615e+01 -6.7632977509542940e+01 5.0602633558770322e+01 -6.9955027517257847e+01 3.5645661183118555e+01 7.6454421588247237e-02 -8.6120619685176347e+00
1.4500000000000000e+00 -1.0143736808930564e-02 -1.2071580129101365e+01 -7.4548719066951193e+01 5.0277593998934620e+01 -7.1998299117834691e+01 7.7404769117433247e+01 7.5813482336322416e-02 -8.6856467721628920e+00
1.4600000000000000e+00 -9.7610993630506994e-03 -1.2172371261626672e+01 -6.8645072405440686e+01 8.1132462406991266e+01 -6.9955192297322512e+01 1.1586148474447565e+02 7.5293844748731784e-02 -8.7544555193729678e+00
1.4700000000000000e+00 -9.9353257612493761e-03 -1.2254340204806933e+01 -8.7731044372285851e+01 -1.6917500802901787e+02 -7.4363840990532665e+01 5.6656577452685973e+01 7.5145641435388655e-02 -8.8257912201640814e+00
1.4800000000000000e+00 -9.9161492993906763e-03 -1.2342878048237225e+01 -7.1822859507307243e+01 6.6944923337915725e+01 -7.5338301206843582e+01 8.0965159779307172e+01 7.6165250076665081e-02 -8.8981496320412887e+00
1.4900000000000000e+00 -1.0567421756827448e-02 -1.2443366041404916e+01 -7.4034649061408501e+01 4.9529348409636633e+01 -7.0466831972198477e+01 5.9440205757500721e+01 7.5329330815786730e-02 -8.9683541784016949e+00
1.5000000000000000e+00 -9.5846923820906878e-03 -1.2534749673275865e+01 -7.0785409114548742e+01 5.6381320988820150e+01 -6.8414983284551255e+01 6.6089003567639750e+01 7.4866801032638999e-02 -9.0400060761249748e+00
1.5100000000000000e+00 -1.1358545251422256e-02 -1.2630540782109332e+01 -7.3996401876440757e+01 5.4011022364987305e+01 -7.5837999862523560e+01 9.2871034121203607e+01 7.5300524447816847e-02 -9.1133566817491669e+00
1.5200000000000000e+00 -9.9868840996406288e-03 -1.2725975568303046e+01 -7.0908496321835941e+01 7.8758214845426735e+01 -7.1394575836519337e+01 8.5449832078379572e+01 7.5072368849461238e-02 -9.1846117502912588e+00
1.5300000000000000e+00 -1.0138450353594753e-02 -1.2820968181153129e+01 -6.9290240441595756e+01 4.5120734717391898e+01 -7.0625085795787726e+01 1.0299213745364975e+02 7.5172501231670102e-02 -9.2542467059309121e+00
1.5400000000000000e+00 -1.2382008802766933e-02 -1.2915383857902675e+01 -7.2055631646164386e+01 3.8041633363327286e+01 -7.0375233212499595e+01 5.1471689426415701e+01 7.4432847896989687e-02 -9.3277877623782128e+00
1.5500000000000000e+00 -1.0695195297457624e-02 -1.3008545456988092e+01 -7.0330827428751320e+01 5.7818549112838284e+01 -6.7406993921667151e+01 8.0684488171940657e+01 7.5140996460786494e-02 -9.3991386508537484e+00
1.5600000000000001e+00 -1.0872105600857050e-02 -1.3090901540520996e+01 -6.9985862443410497e+01 8.5945462064458667e+01 -8.2354715276531522e+01 4.2432568267413636e+01 7.4663689313338735e-02 -9.4697916416767232e+00
1.5700000000000001e+00 -1.1078979053501439e-02 -1.3183456783528470e+01 -7.2399851103134580e+01 9.6943878207708636e+01 -7.0118851325512438e+01 8.8214464067268182e+01 7.5478276867427752e-02 -9.5379458801941652e+00
1.5800000000000001e+00 -1.1823589203274738e-02 -1.3288373032742415e+01 -7.2270259813909618e+01 7.0701249109096381e+01 -7.2798149410045610e+01 4.7987604969637779e+01 7.4346397424049859e-02 -9.6167050342564977e+00
1.5900000000000001e+00 -1.2154839728925294e-02 -1.3396814329268873e+01 -7.1007398611849680e+01 7.5898876059044142e+01 -7.1495165823266149e+01 6.2134982135439536e+01 7.5181494845575819e-02 -9.6954548106585428e+00
1.6000000000000001e+00 -1.1747185508691665e-02 -1.3485675356099319e+01 -7.0261918762368580e+01 8.3929872247550264e+01 -7.0867460421140578e+01 7.3989136382630036e+01 7.5068045143829421e-02 -9.7554683975777223e+00
1.6100000000000001e+00 -1.1133815053216917e-02 -1.3577754177346852e+01 -6.7648126685660074e+01 7.5298526974553525e+01 -6.7545344351567110e+01 8.0681846829997710e+01 7.3958207917711655e-02 -9.8283143915685791e+00
1.6200000000000001e+00 -1.1961632351734610e-02 -1.3667900693515101e+01 -7.0545471477097294e+01 9.1072771351717421e+01 -6.7921509416524202e+01 8.1374640928530681e+01 7.4482527881370400e-02 -9.9018134438112995e+00
1.6299999999999999e+00 -1.1986521588177841e-02 -1.3768200063745892e+01 -6.5944686850485837e+01 7.7451340174130905e+01 -7.1629155206988614e+01 8.9659817747411424e+01 7.5914625609925762e-02 -9.9835756478254449e+00
1.6399999999999999e+00 -1.2243444954237372e-02 -1.3868500686517478e+01 -6.8818226315024361e+01 8.2274818022778220e+01 -6.6882918846111451e+01 6.5074056956553306e+01 7.4377129575454740e-02 -1.0045276477481082e+01
1.6499999999999999e+00 -1.1510761858594603e-02 -1.3948243579687292e+01 -6.8144940400153288e+01 5.2812392173238145e+01 -6.6368063616840061e+01 8.4645155865554713e+01 7.4443166884614526e-02 -1.0120802353970909e+01
1.6599999999999999e+00 -1.2688333918792144e-02 -1.4050713602687487e+01 -6.9652935874433496e+01 6.7738228294662505e+01 -6.6296220434275085e+01 7.8604458714507459e+01 7.4445466044126163e-02 -1.0198957060304375e+01
1.6699999999999999e+00 -1.2434736006298549e-02 -1.4144091707681428e+01 -6.9340828677011800e+01 8.5536984335891347e+01 -7.1133599886627337e+01 2.2204936942086146e+01 7.4786348094196348e-02 -1.0273010173536052e+01
1.6799999999999999e+00 -1.3031018680296259e-02 -1.4243959813785354e+01 -6.7459473507067344e+01 7.9039878575844440e+01 -7.3468967084513480e+01 7.1331489780361622e+01 7.4553212102099850e-02 -1.0339601301906866e+01
1.6899999999999999e+00 -1.2336098905528517e-02 -1.4342914214748438e+01 -7.2365138711997005e+01 6.4345237947896678e+01 -7.7042839786641196e+01 8.2253080328785359e+01 7.5391386156542770e-02 -1.0412193738411423e+01
1.7000000000000000e+00 -1.2519953105409301e-02 -1.4440245496759964e+01 -6.5930242828762033e+01 7.2890240643160013e+01 -6.7311724145884341e+01 6.2156269836761588e+01 7.4658554161351587e-02 -1.0494424583622864e+01
1.7100000000000000e+00 -1.2339713228350216e-02 -1.4527885994883231e+01 -6.4469528371647641e+01 9.1909463287940326e+01 -6.6974696921503423e+01 6.6226007678339755e+01 7.4831031870802214e-02 -1.0567302224986996e+01
1.7200000000000000e+00 -1.3670357568552581e-02 -1.4627303756818350e+01 -6.8112095859692502e+01 7.8340164522830420e+01 -6.5944240084752593e+01 9.5717482915722456e+01 7.4332938039859256e-02 -1.0641543508848658e+01
1.7300000000000000e+00 -1.1817979961643835e-02 -1.4719846793596400e+01 -7.1657478725005447e+01 7.1581068748693284e+01 -6.8720194341359090e+01 9.4296231356097451e+01 7.3904504690190484e-02 -1.0711019499023287e+01
1.7400000000000000e+00 -1.3294159705397759e-02 -1.4817831318493246e+01 -6.6281101797270196e+01 1.0471750606244792e+02 -6.5897831636920216e+01 8.9100886391739735e+01 7.4840569521697042e-02 -1.0790252246555411e+01
1.7500000000000000e+00 -1.2467631825797482e-02 -1.4914482565343246e+01 -6.6913329764016794e+01 8.6488586776858043e+01 -6.9252985503068800e+01 7.7985662460334453e+01 7.4838132632869550e-02 -1.0859085140987242e+01
1.7600000000000000e+00 -1.3411472045833171e-02 -1.5016928525316624e+01 -6.6387278966359091e+01 6.6624410118995982e+01 -6.9450481942730249e+01 7.7649118377721265e+01 7.4728514507026486e-02 -1.0942432500246365e+01
1.7700000000000000e+00 -1.3320184400159063e-02 -1.5122746675926415e+01 -6.8655882687919075e+01 8.6625953490400789e+01 -6.5228198238184859e+01 8.6825444146323420e+01 7.5241952435935899e-02 -1.1015256616160976e+01
1.7800000000000000e+00 -1.3650960962146420e-02 -1.5214781465807722e+01 -6.7225281247516136e+01 8.2722787037901426e+01 -6.7741102307269813e+01 8.3769345282307697e+01 7.5150486414922418e-02 -1.1096608370185161e+01
1.7900000000000000e+00 -1.4247689085482542e-02 -1.5307420883182434e+01 -6.6390264492658105e+01 7.9260727293073032e+01 -6.7885732466110966e+01 6.9446384120119376e+01 7.4023766371877839e-02 -1.1171656484082085e+01
1.8000000000000000e+00 -1.4747743923951727e-02 -1.5406601638684871e+01 -6.5131433041695345e+01 8.4042309678605406e+01 -6.7065151908246349e+01 7.8721585061175887e+01 7.4674819481501870e-02 -1.1235003670508037e+01
1.8100000000000001e+00 -1.3299750111459858e-02 -1.5505135893131630e+01 -6.7084072113539378e+01 8.7615821371007797e+01 -6.1903050314473127e+01 7.3973053865989158e+01 7.4382476060110822e-02 -1.1320392736719278e+01
1.8200000000000001e+00 -1.3124447168945123e-02 -1.5610672397267017e+01 -6.6482098571990434e+01 6.8996769244126213e+01 -7.0141044146196975e+01 8.3055461691611967e+01 7.4739386115815709e-02 -1.1391783776738047e+01
1.8300000000000001e+00 -1.3295992720752815e-02 -1.5711050371596944e+01 -6.4953820051827520e+01 8.7748611691193659e+01 -6.8052565075600469e+01 7.4128797846463627e+01 7.4349282006061043e-02 -1.1466941771410296e+01
1.8400000000000001e+00 -1.3444004956340979e-02 -1.5800118284423055e+01 -6.7458864823928451e+01 6.7693852163032190e+01 -6.3425336341549752e+01 8.3274553632282107e+01 7.3617677766348019e-02 -1.1553788737972898e+01
1.8500000000000001e+00 -1.4144900696274536e-02 -1.5886158258123778e+01 -6.4452174284709130e+01 7.0637632293028943e+01 -6.8596532391299164e+01 8.7149161299598134e+01 7.3992307567323903e-02 -1.1628662594238218e+01
1.8600000000000001e+00 -1.4275964256923535e-02 -1.5998835623947397e+01 -6.6332960430469129e+01 7.5791156620038009e+01 -6.5429951633554154e+01 7.5252368051652510e+01 7.4555014066464045e-02 -1.1705782599594889e+01
1.8700000000000001e+00 -1.4813498929189605e-02 -1.6086503613427741e+01 -6.4794977036177556e+01 9.4966422113140695e+01 -6.3188450114376678e+01 8.7994973648776806e+01 7.3927681538646844e-02 -1.1768950562730117e+01
1.8799999999999999e+00 -1.4891216692025779e-02 -1.6190632882394926e+01 -6.4155383644541317e+01 6.8880244396987393e+01 -6.5770095250538134e+01 8.8540012237839818e+01 7.4563077545540965e-02 -1.1853423894777045e+01
1.8899999999999999e+00 -1.4492544738969741e-02 -1.6300362551438248e+01 -6.6085363702803889e+01 7.8846904105367372e+01 -6.6847621861867339e+01 6.3897904434562932e+01 7.4488170439302281e-02 -1.1934761361436161e+01
1.8999999999999999e+00 -1.3937660948641420e-02 -1.6389985144362573e+01 -6.6153758171130704e+01 7.6218619979970157e+01 -6.7618483512103055e+01 7.2735864254438795e+01 7.4390898996993637e-02 -1.2007815107226227e+01
1.9099999999999999e+00 -1.3767255924548550e-02 -1.6493183762006559e+01 -6.4504599172999221e+01 7.8172470730717066e+01 -6.4809273493471721e+01 7.9275014964242644e+01 7.3104938173114808e-02 -1.2080902079375454e+01
1.9199999999999999e+00 -1.4461415084155736e-02 -1.6595124225806714e+01 -6.2726689602669204e+01 8.5362657756073432e+01 -6.3445197392753123e+01 9.7421032762013084e+01 7.3237539690056336e-02 -1.2167865378594906e+01
1.9299999999999999e+00 -1.4072143400560124e-02 -1.6691235804542508e+01 -6.3438848806796457e+01 8.1324561485358231e+01 -6.3912932288384418e+01 7.0378414608618201e+01 7.4053899318057365e-02 -1.2233953774403821e+01
