# MHz S DB R 50
1.0000000000000000e+00 -2.6281892374812793e-02 -9.5520460821637911e+00 -7.8053854620229231e+01 4.6319726660273410e+01 -7.5898034735711860e+01 7.6588748783120497e+00 -1.0699663368561667e-01 -7.2831866438851351e+00
1.0100000000000000e+00 -2.6808370737160393e-02 -9.6509963559968881e+00 -7.6626780618615783e+01 7.5533018486029391e+01 -6.9257580371935262e+01 7.3559187516909446e+01 -1.0646510055261842e-01 -7.3575220263298542e+00
1.0200000000000000e+00 -2.7298197999031711e-02 -9.7463558066430824e+00 -7.4263278101522445e+01 8.6917483673920657e+01 -7.2912381411490685e+01 9.6166833459314489e+01 -1.0713095098502021e-01 -7.4219092109282361e+00
1.0300000000000000e+00 -2.6250515326943707e-02 -9.8299800484320006e+00 -7.5907346584289911e+01 3.3149376376331297e+01 -7.0458163848976938e+01 5.0804357917747289e+01 -1.0801796484693045e-01 -7.5001403431376907e+00
1.0400000000000000e+00 -2.5921848053201881e-02 -9.9332662428061447e+00 -7.4433738763015185e+01 8.6188401699803890e+01 -7.2160511777294431e+01 5.1188180344155136e+01 -1.0604782121657622e-01 -7.5648246797220855e+00
1.0500000000000000e+00 -2.7445093574173903e-02 -1.0027706130556044e+01 -7.3507213177084310e+01 6.3604087681162106e+01 -7.8538240049708833e+01 9.7294331005875904e+01 -1.0726441081775577e-01 -7.6372250940317086e+00
1.0600000000000001e+00 -2.8658546539321209e-02 -1.0116669151066768e+01 -7.4616993252993439e+01 6.0186558761880576e+01 -7.1991347307267887e+01 8.4913185644621421e+01 -1.0790724047361783e-01 -7.6995051345077687e+00
1.0700000000000001e+00 -2.7918058249813867e-02 -1.0203555304220668e+01 -7.1157610204700475e+01 4.0161390283802369e+01 -6.9488814058882326e+01 5.9103563002973125e+01 -1.0784708762165153e-01 -7.7737260702792481e+00
1.0800000000000001e+00 -2.8483453111974033e-02 -1.0302078448670192e+01 -7.8974495670202657e+01 7.1908148256359894e+01 -7.0507696229284932e+01 4.6859345308467219e+01 -1.0760604891917822e-01 -7.8461260921500600e+00
1.0900000000000001e+00 -2.7938784906872842e-02 -1.0401091327187272e+01 -7.6179958715161220e+01 6.9746658976714031e+01 -7.0017712207589256e+01 7.7346885194869145e+01 -1.0784274133805434e-01 -7.9163167127660072e+00
1.1000000000000001e+00 -2.8219568707916157e-02 -1.0481808839451091e+01 -7.0343594719271010e+01 7.3770724625177436e+01 -8.3499401822155917e+01 1.0449673193871907e+02 -1.0742519968310280e-01 -7.9811989599973714e+00
1.1100000000000001e+00 -2.8070206947378089e-02 -1.0573861913640028e+01 -6.8947259803906576e+01 5.5855030702128452e+01 -7.6736571672078810e+01 9.2485993642750969e+01 -1.0814397954178484e-01 -8.0472051988693636e+00
1.1200000000000001e+00 -2.9135896363916385e-02 -1.0682332278730609e+01 -7.3070175177169915e+01 5.7118733142459874e+01 -7.0931984304264731e+01 6.9065129024001891e+01 -1.0811582537367206e-01 -8.1194013601573811e+00
1.1299999999999999e+00 -2.8791482227715721e-02 -1.0770768887624351e+01 -7.2729937971943770e+01 8.7234999030963976e+01 -6.8051341001828803e+01 4.3441696921620952e+01 -1.0723701802352509e-01 -8.1950710149835437e+00
1.1399999999999999e+00 -2.9261945478893919e-02 -1.0856474284917217e+01 -7.0136915368467669e+01 8.5281650880476207e+01 -6.9742281415913922e+01 5.8281673356968525e+01 -1.0882942745463602e-01 -8.2615389965152115e+00
1.1499999999999999e+00 -2.8931920717675252e-02 -1.0960919672130986e+01 -6.9832656731492705e+01 4.8227012535234302e+01 -7.2810361978613173e+01 3.2468211984601218e+01 -1.0867695090813850e-01 -8.3343717993508939e+00
1.1599999999999999e+00 -3.0018435299346505e-02 -1.1054753489853383e+01 -7.7141986582010531e+01 5.2888055239994003e+01 -6.8788678148590307e+01 8.1760400600298723e+01 -1.0804713356634910e-01 -8.4013360825306016e+00
1.1699999999999999e+00 -2.9653941480320842e-02 -1.1152545359251688e+01 -7.2608372903893766e+01 4.8648059872909705e+01 -6.8316568424576730e+01 6.5335919768151754e+01 -1.0842451295376350e-01 -8.4709075434417009e+00
1.1799999999999999e+00 -2.9548861726497989e-02 -1.1236671198489351e+01 -7.0986496467141905e+01 4.6616813286164017e+01 -7.3655818103256564e+01 6.0607902669058298e+01 -1.0861500731000213e-01 -8.5460104987969920e+00
1.1899999999999999e+00 -3.0357860426490826e-02 -1.1336871666958166e+01 -7.0618560879679904e+01 1.0545127955665328e+02 -7.3781581711200431e+01 8.6691019196017024e+01 -1.0776690586926387e-01 -8.6107783089475145e+00
1.2000000000000000e+00 -3.0806448931578335e-02 -1.1435777113009079e+01 -6.9263276222160755e+01 6.3031269904570280e+01 -7.2042218592736845e+01 6.6018220136476231e+01 -1.0859400810404830e-01 -8.6771495447845570e+00
1.2100000000000000e+00 -2.9959941885371079e-02 -1.1528569019724968e+01 -7.0912953504184912e+01 4.7380125375038567e+01 -6.8964758056557017e+01 6.8828765118218541e+01 -1.0862229151934875e-01 -8.7478189278296181e+00
1.2200000000000000e+00 -3.1121412382922705e-02 -1.1619607434567103e+01 -6.8730769218206305e+01 5.3863395777210819e+01 -6.7687617068681220e+01 6.7077916824600337e+01 -1.0853230281571832e-01 -8.8152504372287268e+00
1.2300000000000000e+00 -3.0812929742563847e-02 -1.1717029346035289e+01 -6.9091697405793099e+01 6.8611008013982484e+01 -7.0209645162311588e+01 8.0683638844653316e+01 -1.0991576739647191e-01 -8.8921380551003022e+00
1.2400000000000000e+00 -3.0775363705414109e-02 -1.1810235518712803e+01 -6.9753185860296000e+01 5.3109576937017636e+01 -6.9580525605105322e+01 7.7148502908421008e+01 -1.0939992370348629e-01 -8.9542123098203383e+00
1.2500000000000000e+00 -3.1803301064826539e-02 -1.1912894860112582e+01 -6.7589496780418003e+01 5.2819021004015376e+01 -7.1730030883019637e+01 6.3989478341578263e+01 -1.0979964576428203e-01 -9.0351957536556107e+00
1.2600000000000000e+00 -3.2785483438683018e-02 -1.2001386808271201e+01 -7.0346204709804113e+01 5.9615742945583413e+01 -7.2167752818398355e+01 7.4032694391301632e+01 -1.0892171741420337e-01 -9.1024657482333655e+00
1.2700000000000000e+00 -3.2144178675267428e-02 -1.2086058310068617e+01 -6.8864489036093104e+01 6.0429385391639983e+01 -6.8462883042199735e+01 7.8478525018978985e+01 -1.0776872882934134e-01 -9.1674629733817401e+00
1.2800000000000000e+00 -3.3255827645416562e-02 -1.2185743288124311e+01 -7.0962010485956966e+01 8.4665079942547862e+01 -7.1859945010903246e+01 7.1237313317943119e+01 -1.0734728687903969e-01 -9.2344107748231643e+00
1.2900000000000000e+00 -3.0891051926699664e-02 -1.2296202731788823e+01 -6.8180044617747882e+01 5.7275624234452394e+01 -7.0011597092664999e+01 6.2418229772836227e+01 -1.1024546161208043e-01 -9.3170332922902013e+00
1.3000000000000000e+00 -3.1015700987614490e-02 -1.2365610915163961e+01 -7.3376178758243697e+01 8.9445196781919250e+01 -6.9586190857213680e+01 5.3954694100290617e+01 -1.0848253777427150e-01 -9.3820621699793119e+00
1.3100000000000001e+00 -3.2813240983705208e-02 -1.2453326371602383e+01 -7.1334021770287308e+01 7.1888023890581067e+01 -6.7808763223038852e+01 7.4471559653323496e+01 -1.0783399079898665e-01 -9.4604137688080243e+00
1.3200000000000001e+00 -3.8919870943769488e-02 -1.2607770651747042e+01 -6.9428558357864418e+01 1.0101576586904295e+02 -7.0624487665861167e+01 6.5654237436201697e+01 -1.1048164448484410e-01 -9.4814880494078864e+00
1.3300000000000001e+00 -3.1110357199233919e-02 -1.2682860052656995e+01 -6.7236926948830259e+01 7.0937572459097893e+01 -6.7865325797802612e+01 7.6405763222211959e+01 -1.0137077060209497e-01 -9.6190427023088425e+00
1.3400000000000001e+00 -8.3118122106236342e-02 -1.2876188681444425e+01 -6.9088636735404876e+01 6.4839884338800005e+01 -7.1486155173235460e+01 7.7240571451202769e+01 -9.9971390704774676e-02 -9.6225951938659424e+00
1.3500000000000001e+00 -3.3461354883979950e-02 -1.2864720533677396e+01 -6.9328217750446726e+01 6.3017537751130980e+01 -7.0638792551050216e+01 6.7000941969963449e+01 -1.0851535839782098e-01 -9.7456997449243179e+00
1.3600000000000001e+00 -3.1715128804790806e-02 -1.2990937089264488e+01 -6.7482693915201310e+01 8.0237949742482485e+01 -6.7734154753458583e+01 6.9930404306341742e+01 -1.0998214200022137e-01 -9.8177345395480717e+00
1.3700000000000001e+00 -3.3342614957367039e-02 -1.3070605699686427e+01 -7.0648641526672534e+01 6.8972005251190808e+01 -7.5719105543553923e+01 4.0277616997941003e+01 -1.1008266951883304e-01 -9.8776598693645248e+00
1.3799999999999999e+00 -3.3432314194953960e-02 -1.3156026793382830e+01 -6.6969030685527315e+01 7.6333294698364952e+01 -6.8009884971262522e+01 7.9568539044905336e+01 -1.0892039225212771e-01 -9.9486656190080112e+00
1.3899999999999999e+00 -3.4133631552763159e-02 -1.3247457379614682e+01 -6.6736232493437171e+01 8.4745419562043452e+01 -6.6917207978988984e+01 6.7299491633793522e+01 -1.0839463549437761e-01 -1.0023510821205111e+01
1.3999999999999999e+00 -3.4243791931990272e-02 -1.3336572822539539e+01 -6.9431995377070834e+01 7.2448513188687031e+01 -6.5405773196646081e+01 6.9902201023600256e+01 -1.0782315607740581e-01 -1.0094268987520072e+01
1.4099999999999999e+00 -3.5141524932246426e-02 -1.3454577646995062e+01 -6.8178683762255275e+01 8.1279337082703208e+01 -6.9577870746217641e+01 7.6076333239885358e+01 -1.0863174728016316e-01 -1.0169919175010165e+01
1.4199999999999999e+00 -3.4768214461016890e-02 -1.3541946229055460e+01 -7.0068340568115715e+01 8.2628012566769641e+01 -6.8364551979627336e+01 7.9055674317088631e+01 -1.0927057180232799e-01 -1.0242759830987680e+01
1.4299999999999999e+00 -3.4389271989858840e-02 -1.3636896491977847e+01 -6.6626124520382575e+01 7.5013586395124946e+01 -6.7046073982490000e+01 8.5675006086087109e+01 -1.0913352355366165e-01 -1.0316223213517562e+01
1.4399999999999999e+00 -3.3370024094035160e-02 -1.3734502942014004e+01 -6.9608957911057530e+01 9.8074445077833872e+01 -6.6793637824328272e+01 8.7375107436067125e+01 -1.0951970942290148e-01 -1.0392828961756122e+01
1.4500000000000000e+00 -3.4880078660560157e-02 -1.3838696630065357e+01 -6.5337936356708639e+01 7.9492726263949123e+01 -6.5230701016061346e+01 6.6714505217496608e+01 -1.0898301963170401e-01 -1.0465093077849458e+01
1.4600000000000000e+00 -3.4554874730166801e-02 -1.3933927135655482e+01 -6.7696495637097073e+01 6.2566232045993893e+01 -6.3629296430192113e+01 8.5154739901153178e+01 -1.0886943611988069e-01 -1.0520377082441444e+01
1.4700000000000000e+00 -3.5267348111954713e-02 -1.4024018395537832e+01 -6.7654137877435417e+01 8.4063244907916328e+01 -6.6033880920896536e+01 8.0975710763880102e+01 -1.0791283405949759e-01 -1.0602723154759936e+01
1.4800000000000000e+00 -3.5827215713678674e-02 -1.4126443437074899e+01 -6.3883862919025979e+01 8.0946094226370576e+01 -6.6147244419993086e+01 8.7815664153292715e+01 -1.1033876915109564e-01 -1.0671496543838089e+01
1.4900000000000000e+00 -3.6086564708535794e-02 -1.4225092366965525e+01 -6.4959919722830747e+01 8.1297687910598142e+01 -6.6015634455478391e+01 7.0473067884468080e+01 -1.0853992732673982e-01 -1.0745822068225941e+01
1.5000000000000000e+00 -3.5103528766605607e-02 -1.4329417998666063e+01 -6.5600627537394914e+01 8.2464565193835966e+01 -6.3835381297403025e+01 8.6744051383011268e+01 -1.1044062524810681e-01 -1.0818664276123311e+01
1.5100000000000000e+00 -3.6301884210881957e-02 -1.4417322860155748e+01 -6.8147283042100753e+01 8.6916104657032591e+01 -6.7422999295810286e+01 7.9594145565560922e+01 -1.0881771984148766e-01 -1.0890993272477372e+01
1.5200000000000000e+00 -3.5826783417960688e-02 -1.4511909081839097e+01 -6.5339454846284227e+01 7.6533085769891940e+01 -6.5407621638201533e+01 6.3952747158078189e+01 -1.0913190154755273e-01 -1.0968436177499271e+01
1.5300000000000000e+00 -3.5224988960963641e-02 -1.4605391501403789e+01 -6.5171770982195284e+01 7.4528284039201665e+01 -6.5178408591560796e+01 9.3189486597121160e+01 -1.0920987425042739e-01 -1.1033153594207814e+01
1.5400000000000000e+00 -3.6318650100729342e-02 -1.4707394825439733e+01 -6.4899799028381594e+01 7.7200728235283194e+01 -6.6018030061774155e+01 8.6052118123010018e+01 -1.0750108074194312e-01 -1.1102032489466103e+01
1.5500000000000000e+00 -3.6559997244081870e-02 -1.4815278579500124e+01 -6.4865294644472755e+01 7.2988954515535497e+01 -6.6028213593604548e+01 8.6858600642787181e+01 -1.0824419215190156e-01 -1.1183225581392906e+01
1.5600000000000001e+00 -3.6429579347312155e-02 -1.4899479056329225e+01 -6.3858520923883916e+01 7.5994544646913695e+01 -6.6977839921769657e+01 9.2070272778298104e+01 -1.0838821116083147e-01 -1.1261446627422993e+01
1.5700000000000001e+00 -3.6789741018369078e-02 -1.5016684054928184e+01 -6.3808347803812325e+01 8.3916423055462900e+01 -6.2417412048452888e+01 9.1109070419964937e+01 -1.0899104205584113e-01 -1.1336364452159714e+01
1.5800000000000001e+00 -3.6946159482457538e-02 -1.5105463342703461e+01 -6.1183416527326997e+01 9.0613562993445356e+01 -6.3352601533668071e+01 8.7640197001424781e+01 -1.0810356472621763e-01 -1.1407891350662897e+01
1.5900000000000001e+00 -3.7909997184064445e-02 -1.5204634216124520e+01 -6.4373753212387470e+01 8.8690587662421478e+01 -6.2795355933075072e+01 8.2897248536726465e+01 -1.0864235442985538e-01 -1.1475261946445860e+01
1.6000000000000001e+00 -3.7260685770678474e-02 -1.5319992129059155e+01 -6.4746912548417001e+01 7.8156503543417401e+01 -6.2621073645065046e+01 7.5660113097685880e+01 -1.0870963092721896e-01 -1.1547383060011963e+01
1.6100000000000001e+00 -3.7445236984141698e-02 -1.5420319384308577e+01 -6.2119427430308498e+01 9.2681974625864228e+01 -6.3777423466039032e+01 6.9144661182254097e+01 -1.0787991974542625e-01 -1.1627291613640708e+01
1.6200000000000001e+00 -3.8359663416064914e-02 -1.5504206030938564e+01 -6.2538076269293832e+01 8.9218551992670029e+01 -6.1763342306093605e+01 8.1989418955114928e+01 -1.0802437525072263e-01 -1.1699942864221818e+01
1.6299999999999999e+00 -3.8449255075659917e-02 -1.5599959748194902e+01 -6.2395566212603043e+01 7.2352801635018778e+01 -6.1968931920895336e+01 9.6547633781385073e+01 -1.0707154935014825e-01 -1.1774425456953313e+01
1.6399999999999999e+00 -3.8869342045373234e-02 -1.5708407763239983e+01 -6.1667948178922799e+01 7.9320844342685291e+01 -6.1981108317197069e+01 8.8359785019669431e+01 -1.0904384991089641e-01 -1.1859804046886952e+01
1.6499999999999999e+00 -3.6533800961848259e-02 -1.5786265336939971e+01 -6.0763596795809079e+01 9.2685703111287580e+01 -6.2403404270825142e+01 9.1470712498464167e+01 -1.0777845925785261e-01 -1.1934099824021626e+01
1.6599999999999999e+00 -3.7472112528900654e-02 -1.5898808246703496e+01 -6.2239826995408222e+01 8.2652399742611721e+01 -6.0661466970505494e+01 6.7271893855701947e+01 -1.0839817161326108e-01 -1.1999085520143622e+01
1.6699999999999999e+00 -3.8147097911172677e-02 -1.5994379955017971e+01 -6.0662683162054037e+01 7.9739547406643354e+01 -6.2066260474404018e+01 7.7057748170752305e+01 -1.0863978337863513e-01 -1.2081464958254152e+01
1.6799999999999999e+00 -3.7656538856728601e-02 -1.6107252838524623e+01 -6.1298154573497541e+01 8.3211577635407735e+01 -6.2124184503230012e+01 8.3498929663347838e+01 -1.0796009189915091e-01 -1.2160427303606147e+01
1.6899999999999999e+00 -3.6855412336230096e-02 -1.6215310862743340e+01 -6.1323934635828302e+01 8.0829289918957002e+01 -6.2339816063218557e+01 7.5383130675050936e+01 -1.0832321458723293e-01 -1.2227375061019323e+01
1.7000000000000000e+00 -3.8574124052508055e-02 -1.6299897214256788e+01 -6.1240506959700369e+01 8.5023979658851189e+01 -5.9787210444077132e+01 7.5123133986665636e+01 -1.0847718039747890e-01 -1.2304701370323466e+01
1.7100000000000000e+00 -3.8648850979856070e-02 -1.6410504894194521e+01 -6.0751363255832871e+01 8.3882343108052922e+01 -6.0082572340102736e+01 8.4588390968323750e+01 -1.0751467932741729e-01 -1.2390482964284791e+01
1.7200000000000000e+00 -3.8411341886690806e-02 -1.6519209684099053e+01 -6.1357071097357839e+01 8.5263052831274649e+01 -5.9810104085995654e+01 7.9991934144348406e+01 -1.0821320838471626e-01 -1.2453678298503270e+01
1.7300000000000000e+00 -3.8484819560244882e-02 -1.6614430109591090e+01 -6.0023851849259870e+01 7.9250498236296025e+01 -5.9544420128788985e+01 8.0880065836894985e+01 -1.0838202434944116e-01 -1.2534440759785612e+01
1.7400000000000000e+00 -3.8210999192969684e-02 -1.6720309833501986e+01 -6.1212069723227359e+01 7.6997955389097228e+01 -6.0308463703592366e+01 7.9862613813771574e+01 -1.0679655682412283e-01 -1.2607280799448041e+01
1.7500000000000000e+00 -3.9838863047830651e-02 -1.6826082270200224e+01 -6.0073196371337957e+01 7.6134722048090723e+01 -5.9232608932535214e+01 7.6923644970683128e+01 -1.0885980289963609e-01 -1.2682355653369113e+01
1.7600000000000000e+00 -3.9785998464674795e-02 -1.6925778474480055e+01 -5.9585681167352632e+01 7.5361091524078844e+01 -5.8575072332643117e+01 8.4177797748155896e+01 -1.0858474353351140e-01 -1.2752882477872909e+01
1.7700000000000000e+00 -3.8650259557068412e-02 -1.7025981689186761e+01 -5.8813582851257635e+01 7.2773715831382560e+01 -6.0494815570108628e+01 8.2373046412835038e+01 -1.0821523412921023e-01 -1.2843768482915902e+01
1.7800000000000000e+00 -3.8375607096865091e-02 -1.7113689523641327e+01 -5.8604135691061849e+01 7.7715357225840492e+01 -5.7514236282408753e+01 7.7765983469902537e+01 -1.0719309428580646e-01 -1.2907849955897102e+01
1.7900000000000000e+00 -3.8632509719636339e-02 -1.7224067273343898e+01 -6.0029879008638183e+01 8.2962612642065324e+01 -5.7963186601463470e+01 7.2961328469839756e+01 -1.0761793389643298e-01 -1.2988180277368713e+01
1.8000000000000000e+00 -3.9705002783650717e-02 -1.7326179146175171e+01 -5.9717634802449886e+01 8.7118985277513076e+01 -6.0000457143798172e+01 8.3588224525202449e+01 -1.0803003582785874e-01 -1.3070808279608912e+01
1.8100000000000001e+00 -3.9181618551070496e-02 -1.7443416618772922e+01 -5.9627316426952426e+01 7.4843787334545709e+01 -5.8688480697398575e+01 6.9539647525418957e+01 -1.0783207299323458e-01 -1.3145626310465765e+01
1.8200000000000001e+00 -4.0225678153042115e-02 -1.7536201987576945e+01 -5.8134622502559751e+01 7.4830415927195332e+01 -5.7705411211571167e+01 7.2559436113138673e+01 -1.0885218966459242e-01 -1.3217000219371416e+01
1.8300000000000001e+00 -3.8608677117875641e-02 -1.7637722939709750e+01 -5.8465264525489793e+01 7.6233919495992794e+01 -5.9938863071931856e+01 8.2603431336192145e+01 -1.0686890617242066e-01 -1.3293600359206145e+01
1.8400000000000001e+00 -4.0240839919768977e-02 -1.7737908778172866e+01 -5.8500491229604954e+01 7.6246331603697627e+01 -5.7481962512320159e+01 7.7970919740753970e+01 -1.0760587335809084e-01 -1.3380547459525205e+01
1.8500000000000001e+00 -4.0098716726556016e-02 -1.7847187383338508e+01 -5.7832747516103296e+01 8.2619573261143444e+01 -5.8329826447629131e+01 7.7223574379034176e+01 -1.0626055156255676e-01 -1.3453272482867822e+01
1.8600000000000001e+00 -4.0576647737029035e-02 -1.7955115774772015e+01 -5.7887691808708610e+01 7.9844884205201538e+01 -5.9100246960956859e+01 8.1387507347608093e+01 -1.0786239556767258e-01 -1.3541434801115972e+01
1.8700000000000001e+00 -3.9910096300895662e-02 -1.8051930284170236e+01 -5.8246718985649267e+01 7.5278645079651454e+01 -5.7134385860721054e+01 6.3875753003418033e+01 -1.0753874304108563e-01 -1.3616280680571046e+01
1.8799999999999999e+00 -4.0558170135625460e-02 -1.8168574533005756e+01 -5.7867881973025099e+01 7.4815406350090697e+01 -5.8142440461393889e+01 8.4054374492059821e+01 -1.0857036624776492e-01 -1.3691655335731673e+01
1.8899999999999999e+00 -4.0415579127546883e-02 -1.8271548080814007e+01 -5.6532732754659506e+01 8.0900573759050559e+01 -5.7065792239173980e+01 6.9882266879050960e+01 -1.0844314525218260e-01 -1.3777804768107114e+01
1.8999999999999999e+00 -4.0477457017338785e-02 -1.8355197838830613e+01 -5.8239124167002707e+01 7.0070925582804023e+01 -5.7362078753295414e+01 8.1924329387027981e+01 -1.0684615351399371e-01 -1.3864157397760920e+01
1.9099999999999999e+00 -4.0811668687772515e-02 -1.8476432170111053e+01 -5.7475325283105356e+01 7.2919772788852413e+01 -5.7298827296462100e+01 7.5307760734780246e+01 -1.0626588477675900e-01 -1.3922614862613003e+01
1.9199999999999999e+00 -4.1174030573089271e-02 -1.8582942141902468e+01 -5.7477682821259521e+01 7.4601161129410244e+01 -5.7686823319234804e+01 7.8620240635395703e+01 -1.0743172136520027e-01 -1.4024265451910955e+01
