# MHz S DB R 50
1.0000000000000000e+00 -1.2098146204622785e-02 -9.4065261897616175e+00 -7.2925694861587189e+01 -1.6732754115686276e+02 -7.8435493603771633e+01 -1.6789167936529884e+02 -5.9314075549379189e-02 -7.3986816261444197e+00
1.0100000000000000e+00 -1.2286293511018901e-02 -9.4977907817970717e+00 -7.9300979472126727e+01 -1.3719204182084638e+02 -7.3928921812319246e+01 -1.7167094084405232e+02 -5.9959675110384629e-02 -7.4711820099772783e+00
1.0200000000000000e+00 -1.2320644774899440e-02 -9.5811527778146388e+00 -7.7735513270679576e+01 -6.8195635814878017e+01 -7.8361717691280390e+01 1.4795258851613420e+02 -5.9886710821484564e-02 -7.5466576901088702e+00
1.0300000000000000e+00 -1.1999970924448440e-02 -9.6738014514914674e+00 -6.9276985724208529e+01 -1.5522337919391126e+02 -8.8582089755778398e+01 6.5756797168595398e+01 -5.9247318898149229e-02 -7.6101775333583399e+00
1.0400000000000000e+00 -1.3127821835400972e-02 -9.7823762065504170e+00 -7.7020008060338640e+01 -1.2583015634450753e+02 -7.2791966972551108e+01 -1.6040366831297729e+02 -5.9638015198890983e-02 -7.6837227201608451e+00
1.0500000000000000e+00 -1.2997382947561177e-02 -9.8689827640481376e+00 -7.4776717309781503e+01 -1.2160558061959951e+02 -7.9064539624843050e+01 -9.5086296894412115e+01 -5.9833837834388635e-02 -7.7551756628824444e+00
1.0600000000000001e+00 -1.3068477721123177e-02 -9.9600564490273431e+00 -7.2799093756323430e+01 -1.1943443801010662e+02 -7.2573592249780390e+01 -9.4018556507260399e+01 -6.0550967034769525e-02 -7.8287698403183725e+00
1.0700000000000001e+00 -1.3463795009979445e-02 -1.0043846702642407e+01 -8.1546666497497085e+01 1.7424312003602481e+02 -7.8991882263839514e+01 -1.2752710805894493e+02 -6.0372454344584651e-02 -7.8930623986266735e+00
1.0800000000000001e+00 -1.4450417626208712e-02 -1.0143515073370891e+01 -8.5326868640186504e+01 2.2513157352601255e+01 -6.9430002909964841e+01 -1.4866263247595978e+02 -6.1020724769096119e-02 -7.9710034525282776e+00
1.0900000000000001e+00 -1.3666553985636709e-02 -1.0233124924807667e+01 -8.8636700227465965e+01 -1.3971071163675305e+02 -8.1688687897507521e+01 3.6113611915005151e+01 -6.0433161561453244e-02 -8.0435104162581101e+00
1.1000000000000001e+00 -1.4964503230157168e-02 -1.0329558163480664e+01 -7.6130701134292906e+01 -1.4332013976607837e+02 -8.0188963239606622e+01 -1.5350605865930808e+02 -6.0042248956080756e-02 -8.1055597978092440e+00
1.1100000000000001e+00 -1.5070627388495367e-02 -1.0425560196556313e+01 -7.9427670062927248e+01 -1.0657816343190160e+02 -7.1855266642112454e+01 1.6872919499503718e+02 -6.1364769347805784e-02 -8.1819509575415417e+00
1.1200000000000001e+00 -1.5118122484293636e-02 -1.0509530754609660e+01 -7.1534432181656726e+01 -1.7659721802845021e+02 -7.5101428804106192e+01 -1.4171476480481789e+02 -6.0921884864259424e-02 -8.2521247316312465e+00
1.1299999999999999e+00 -1.4659121578637056e-02 -1.0597154871249481e+01 -7.3683933017132233e+01 -1.4278568342785314e+02 -7.7695772164516328e+01 8.4754760827263127e+01 -6.1764628208887118e-02 -8.3223041142380509e+00
1.1399999999999999e+00 -1.5514097570714855e-02 -1.0698843744356560e+01 -8.0876502979909503e+01 -1.2910083545491881e+02 -9.1556241593415649e+01 -4.7212157680635869e+01 -6.1285035028696554e-02 -8.3963160349217798e+00
1.1499999999999999e+00 -1.5446833371566063e-02 -1.0786236084964743e+01 -7.0232999215471494e+01 -1.2214884089858089e+02 -7.5510558132405649e+01 -1.3600341667448072e+02 -6.0949809549745819e-02 -8.4641695027400825e+00
1.1599999999999999e+00 -1.6000809790719491e-02 -1.0884251622170066e+01 -7.4989136371838867e+01 -1.1076632737030479e+02 -7.2047019229221419e+01 1.5767375863952736e+02 -6.1495623699017322e-02 -8.5387660095728410e+00
1.1699999999999999e+00 -1.6195174276618238e-02 -1.0974540320961166e+01 -7.5561413780990591e+01 1.7876733790555664e+02 -8.9684199492480616e+01 1.2859590589622482e+02 -6.1692772641873957e-02 -8.6114746733662120e+00
1.1799999999999999e+00 -1.6075422444421821e-02 -1.1070048129038630e+01 -7.3243820993549235e+01 1.6632496814991313e+02 -7.4169275638649594e+01 1.6025016492268765e+02 -6.1238752911390318e-02 -8.6752489776997113e+00
1.1899999999999999e+00 -1.6541250685938182e-02 -1.1165444180163590e+01 -6.8919741524897674e+01 1.1052093346054922e+02 -8.4495673424700058e+01 -1.7866440164092649e+02 -6.2804077678580553e-02 -8.7510508988971107e+00
1.2000000000000000e+00 -1.6438922646074137e-02 -1.1253456316840248e+01 -7.3252033878408511e+01 -1.3355862296204779e+02 -8.3186025439484311e+01 1.2384213205524867e+02 -6.1476919653544036e-02 -8.8259825825194405e+00
1.2100000000000000e+00 -1.6845193962983243e-02 -1.1342846988079190e+01 -7.0924596995801380e+01 -1.7408162746781548e+02 -7.2560370913035513e+01 -1.2263010767700484e+02 -6.2119938973096346e-02 -8.8957614797500373e+00
1.2200000000000000e+00 -1.6922896252071901e-02 -1.1432217066522414e+01 -7.2507180178619819e+01 -1.2754379133970214e+02 -7.7770705117145070e+01 1.4433042998341378e+02 -6.2376351342414579e-02 -8.9733162700699456e+00
1.2300000000000000e+00 -1.7518382385277982e-02 -1.1532681359773028e+01 -7.6675430927043664e+01 -1.5608872901681656e+02 -7.5369542654884654e+01 1.7914317665347372e+02 -6.2104472202872615e-02 -9.0401894031299985e+00
1.2400000000000000e+00 -1.7989207877103671e-02 -1.1621796821697783e+01 -7.2190011885067292e+01 -1.5817750886947931e+02 -8.5476923270417672e+01 -1.0230723494255740e+02 -6.3064768593041234e-02 -9.1137751616882792e+00
1.2500000000000000e+00 -1.7715464556089328e-02 -1.1712539408256106e+01 -7.3836026091021495e+01 -1.4005177207157982e+02 -7.5033024051771719e+01 1.7741334701112831e+02 -6.2605465604767180e-02 -9.1837582445211510e+00
1.2600000000000000e+00 -1.8445298199225628e-02 -1.1816177970933715e+01 -7.4171183075675870e+01 -1.7407957612225394e+02 -7.7070799823841313e+01 -1.5076081433417517e+02 -6.2266411359002710e-02 -9.2649456634326981e+00
1.2700000000000000e+00 -1.7972945685272662e-02 -1.1911962485388564e+01 -7.1223264424852275e+01 -1.6010719007361610e+02 -7.8359732977086850e+01 -1.4412629784049187e+02 -6.3234245740331915e-02 -9.3271845844913450e+00
1.2800000000000000e+00 -2.0051160031386017e-02 -1.2019594862919524e+01 -7.2137523703812036e+01 -1.3565929084529219e+02 -8.0161758630916580e+01 -1.0651975490075077e+02 -6.2640944628411299e-02 -9.4013488900764823e+00
1.2900000000000000e+00 -1.8548330525384998e-02 -1.2099907157926873e+01 -7.0598442062548287e+01 -1.6751368857575002e+02 -7.4687202068025897e+01 -1.5710844112819814e+02 -6.1909164147991830e-02 -9.4875956148541736e+00
1.3000000000000000e+00 -1.8001141688476073e-02 -1.2191769538182280e+01 -6.9724603289047366e+01 -1.6780196322448003e+02 -8.6559964514719354e+01 -1.2850177626726153e+02 -6.3330971170396572e-02 -9.5462146969800799e+00
1.3100000000000001e+00 -2.0272540833960909e-02 -1.2289958189809775e+01 -8.0031471489111766e+01 -9.2255932175373431e+01 -7.8052946564541244e+01 1.3186149452708230e+02 -6.1232100942465423e-02 -9.6295147291500562e+00
1.3200000000000001e+00 -1.6805505428887389e-02 -1.2363905672929612e+01 -7.3624684783803673e+01 1.6838323911075480e+02 -7.2677956757515602e+01 -1.1194280705090142e+02 -6.2832799148633142e-02 -9.6988207816188954e+00
1.3300000000000001e+00 -3.5280949809974586e-02 -1.2507657746841842e+01 -6.9120437698567287e+01 -1.4951233274014032e+02 -7.2474843543399444e+01 -1.0478695562969098e+02 -6.5576026594503109e-02 -9.8388120123855671e+00
1.3400000000000001e+00 4.7006913919696617e-04 -1.2736872779706923e+01 -7.2905415366966110e+01 -1.4544310180054509e+02 -7.6831036259390203e+01 -9.9433306521601594e+01 -3.9404273813227170e-02 -1.0019037910964101e+01
1.3500000000000001e+00 -1.8954730323366469e-02 -1.2662544180239971e+01 -8.3092460236392242e+01 1.4509570486839746e+02 -7.7375910605500962e+01 -1.4387940420492902e+02 -6.4282895116440239e-02 -9.9196780959912303e+00
1.3600000000000001e+00 -1.8425338104475636e-02 -1.2784504396148865e+01 -7.3356655745829102e+01 -1.3448365255659019e+02 -7.1666483029479181e+01 -1.0957870721770823e+02 -6.2863246806456080e-02 -9.9973341729091594e+00
1.3700000000000001e+00 -1.9858619534989030e-02 -1.2857268237024170e+01 -7.3374112110631344e+01 -1.2244725126953418e+02 -7.2838162118755221e+01 -1.3568711541007528e+02 -6.5585854375618022e-02 -1.0070343917728261e+01
1.3799999999999999e+00 -2.1333264856503067e-02 -1.2964669264817353e+01 -7.2922313449137278e+01 -1.4281436164127180e+02 -7.5984880047684200e+01 -1.2772275304367282e+02 -6.4471430503307267e-02 -1.0135605363549148e+01
1.3899999999999999e+00 -1.9870954328812179e-02 -1.3062180574583765e+01 -6.9169098744432148e+01 -1.0902100232108933e+02 -6.9285293190818095e+01 -1.0579439953409334e+02 -6.5477914980642982e-02 -1.0202422126847008e+01
1.3999999999999999e+00 -2.0567531621434022e-02 -1.3157533496168595e+01 -7.0573812347683827e+01 -8.2423556889024184e+01 -6.8714177169823103e+01 -1.3679233364228872e+02 -6.4644865954314124e-02 -1.0282501069158696e+01
1.4099999999999999e+00 -1.9780900341987769e-02 -1.3239521706691988e+01 -7.1877394199618237e+01 -9.5876130575111901e+01 -7.1236822801331940e+01 -1.0412946824360159e+02 -6.3546446613067048e-02 -1.0349867268804825e+01
1.4199999999999999e+00 -2.0387234392572819e-02 -1.3339510684071097e+01 -7.1420450742880902e+01 -1.2795499276464147e+02 -7.0407574304939274e+01 -1.1810821509330356e+02 -6.4131545995831152e-02 -1.0422698666717947e+01
1.4299999999999999e+00 -2.0977681589406712e-02 -1.3437264370468458e+01 -6.9533458092346478e+01 -1.4769453842856103e+02 -7.0799020447808488e+01 -1.2181400641425569e+02 -6.4599628780433252e-02 -1.0505861083497578e+01
1.4399999999999999e+00 -2.1100764522682478e-02 -1.3535554183710238e+01 -6.8056009043625238e+01 -1.2127974837219325e+02 -6.7923602944150787e+01 -1.2771135301516554e+02 -6.5100307359103285e-02 -1.0580217104488892e+01
1.4500000000000000e+00 -2.1324458291870345e-02 -1.3624289863380159e+01 -6.8731697470398103e+01 -1.2030223550748968e+02 -7.5248589548807871e+01 -8.5374871291105848e+01 -6.4629960976164552e-02 -1.0648157586299808e+01
1.4600000000000000e+00 -2.1690308619393382e-02 -1.3728944059289363e+01 -6.9120959416698483e+01 -1.2463162475491295e+02 -6.8816669185321743e+01 -1.2903845368745044e+02 -6.5942362703954580e-02 -1.0723757773232945e+01
1.4700000000000000e+00 -2.2093935249944841e-02 -1.3823824818085630e+01 -7.6295327231146345e+01 -8.6057382628656512e+01 -6.8009358302132796e+01 -1.1168714465723873e+02 -6.5770955525922395e-02 -1.0798945147245067e+01
1.4800000000000000e+00 -2.1909592825003585e-02 -1.3927758784310177e+01 -7.0729839041272058e+01 -1.0815041895096005e+02 -6.9382409759315195e+01 -1.0524928575722004e+02 -6.5047407654210840e-02 -1.0871222661722886e+01
1.4900000000000000e+00 -2.3190053451149925e-02 -1.4012998489393972e+01 -6.8279441465163430e+01 -1.2460466095968701e+02 -6.7008666140394624e+01 -1.0739079578748378e+02 -6.5647146561354050e-02 -1.0944018762585589e+01
1.5000000000000000e+00 -2.2537885933725667e-02 -1.4124640381918249e+01 -7.2452278941477857e+01 -1.3915913197125951e+02 -6.6108825389387547e+01 -1.0284304832788914e+02 -6.4811754560584828e-02 -1.1027175802580613e+01
1.5100000000000000e+00 -2.2986479180661067e-02 -1.4214059064526733e+01 -7.0330549842869615e+01 -1.3795502496601009e+02 -6.5380965828473890e+01 -8.8691677811737478e+01 -6.5347075663433299e-02 -1.1096572513435081e+01
1.5200000000000000e+00 -2.2691892280417084e-02 -1.4315184646534988e+01 -7.0748103675530217e+01 -1.0055245787934120e+02 -7.0850032392510869e+01 -5.7451317597459699e+01 -6.6206358306008822e-02 -1.1174472598970285e+01
1.5300000000000000e+00 -2.2094056406196341e-02 -1.4414669148272377e+01 -7.1165246578706061e+01 -9.3984795282542962e+01 -7.1062622655260498e+01 -1.3779877011878332e+02 -6.5203191988525547e-02 -1.1252128499856791e+01
1.5400000000000000e+00 -2.2779639551441595e-02 -1.4511266831705953e+01 -6.8555448047729243e+01 -1.0156677612643848e+02 -6.8642639811367076e+01 -1.1693185956402191e+02 -6.5570199938288901e-02 -1.1325991305501628e+01
1.5500000000000000e+00 -2.3905187649941522e-02 -1.4612252864788454e+01 -6.5986620009662602e+01 -8.6046361192951991e+01 -6.8453726607035350e+01 -1.2413797093562994e+02 -6.5407047433994545e-02 -1.1398570352473525e+01
1.5600000000000001e+00 -2.3781483168991945e-02 -1.4705860076957810e+01 -6.7307185690089483e+01 -1.0267274818482107e+02 -6.9698787363799951e+01 -1.1799824341831541e+02 -6.6052776893051349e-02 -1.1477570600688734e+01
1.5700000000000001e+00 -2.3597513021641377e-02 -1.4794613644785301e+01 -7.0106021091580558e+01 -1.1596330288802898e+02 -6.5237373014309711e+01 -9.6716592621019686e+01 -6.5824542467122882e-02 -1.1552159591162868e+01
1.5800000000000001e+00 -2.3861791769776243e-02 -1.4897846584804029e+01 -6.4919130202022814e+01 -1.0498397582208695e+02 -6.6880480010084796e+01 -1.1066939180923016e+02 -6.6191836366881016e-02 -1.1627267846584234e+01
1.5900000000000001e+00 -2.3449262114019886e-02 -1.4993305629721904e+01 -6.6517472856948729e+01 -1.0765853156385965e+02 -6.8961264256284679e+01 -1.1253294494446655e+02 -6.5596789334423811e-02 -1.1703660005756250e+01
1.6000000000000001e+00 -2.4580510660696046e-02 -1.5104301420696098e+01 -6.5944082282057693e+01 -1.0111404433250399e+02 -6.4731180170602570e+01 -8.4178818526909012e+01 -6.6027918782061046e-02 -1.1778213188125060e+01
1.6100000000000001e+00 -2.4490658575215367e-02 -1.5193088780793577e+01 -6.7970583268594922e+01 -8.9500133972204168e+01 -6.5564209854750786e+01 -9.8981595252707834e+01 -6.6084051765098711e-02 -1.1856805346390175e+01
1.6200000000000001e+00 -2.4217076131448547e-02 -1.5295887481362419e+01 -6.5555629903026087e+01 -9.3997109770736770e+01 -6.6356546349248674e+01 -1.0879276759850261e+02 -6.6712386998557235e-02 -1.1924010100320382e+01
1.6299999999999999e+00 -2.4270661406799832e-02 -1.5379351184358033e+01 -6.6703563808526297e+01 -1.0311558840149789e+02 -6.3066827408017275e+01 -9.9692113021829272e+01 -6.5263330528447253e-02 -1.2006189338053366e+01
1.6399999999999999e+00 -2.5294780854664613e-02 -1.5496927605607052e+01 -6.4297925347613315e+01 -9.8804017879803823e+01 -6.4753567923011090e+01 -1.0370801878842553e+02 -6.5893196608741308e-02 -1.2083101076828973e+01
1.6499999999999999e+00 -2.4655238076804215e-02 -1.5605515300924131e+01 -6.5072755146692415e+01 -1.1142630287204801e+02 -6.5826521039503604e+01 -9.0349101626436095e+01 -6.5592053272267470e-02 -1.2167766405717304e+01
1.6599999999999999e+00 -2.5275316056712280e-02 -1.5682707262210592e+01 -6.4189598346605919e+01 -8.9854057528630960e+01 -6.6151385597964932e+01 -1.0612030224453542e+02 -6.6154014307958781e-02 -1.2243155414002169e+01
1.6699999999999999e+00 -2.4310811156201994e-02 -1.5795456982471709e+01 -6.4132810885441984e+01 -1.0457950380848779e+02 -6.4585673433518139e+01 -1.0155729973683466e+02 -6.5975197498966701e-02 -1.2317193383261205e+01
1.6799999999999999e+00 -2.4496677373830003e-02 -1.5883413519823080e+01 -6.4652656258457597e+01 -8.6762981656218471e+01 -6.5057224543081105e+01 -1.0023159014798249e+02 -6.5249970582771724e-02 -1.2398214702553634e+01
1.6899999999999999e+00 -2.5327744843634193e-02 -1.6002583061498562e+01 -6.2346706100569136e+01 -9.2524228539009727e+01 -6.1322002718630813e+01 -9.9792918910441358e+01 -6.5330083992746660e-02 -1.2475914807101134e+01
1.7000000000000000e+00 -2.6031432849867774e-02 -1.6096320520831437e+01 -6.3961680561615893e+01 -9.2293573169591525e+01 -6.2957163549001024e+01 -1.0141753433676665e+02 -6.5912442085390988e-02 -1.2555814577360804e+01
1.7100000000000000e+00 -2.5812420545051392e-02 -1.6195616123268969e+01 -6.3773972917753838e+01 -9.7155609093623127e+01 -6.4592852899685326e+01 -1.0731098242914294e+02 -6.5785743936948402e-02 -1.2625886622165538e+01
1.7200000000000000e+00 -2.5857263597959240e-02 -1.6300210195541840e+01 -6.3974553593488594e+01 -9.9167080157510611e+01 -6.3442827375773064e+01 -9.7500551721572577e+01 -6.6045042557994163e-02 -1.2704232385256850e+01
1.7300000000000000e+00 -2.6810621988475551e-02 -1.6393846768872390e+01 -6.3340121434502535e+01 -8.7885761355811837e+01 -6.3336413424653344e+01 -8.8309504698786569e+01 -6.6618931863497377e-02 -1.2795868471376322e+01
1.7400000000000000e+00 -2.6360295837697396e-02 -1.6489799350559384e+01 -6.3373034954302724e+01 -1.0768880009006337e+02 -6.2401368134877941e+01 -1.1087127893527985e+02 -6.6666739873621789e-02 -1.2870595664652258e+01
1.7500000000000000e+00 -2.6073913008819068e-02 -1.6606686553009258e+01 -6.1526828449537341e+01 -9.7678423732042774e+01 -6.3253098447069135e+01 -8.9838817905648824e+01 -6.6557192122883774e-02 -1.2942554200361457e+01
1.7600000000000000e+00 -2.5793193487524815e-02 -1.6701408414346957e+01 -6.1737920806647708e+01 -9.7585162047747545e+01 -6.2508825763090471e+01 -9.6262530607339471e+01 -6.6594111791076896e-02 -1.3022894630621751e+01
1.7700000000000000e+00 -2.6034116506917337e-02 -1.6805407258434105e+01 -6.1758536468191949e+01 -9.9656104462545485e+01 -6.1894722557556975e+01 -9.7550364748514937e+01 -6.6362058064095578e-02 -1.3105037897941424e+01
1.7800000000000000e+00 -2.6413251903919410e-02 -1.6901916872734922e+01 -6.1729738474014098e+01 -1.0314605403780233e+02 -6.2498019622114441e+01 -9.4647447448027634e+01 -6.5641872470162926e-02 -1.3191570320763068e+01
1.7900000000000000e+00 -2.7184212297383312e-02 -1.7012852732275856e+01 -6.1817370316688489e+01 -1.0064774866932919e+02 -6.0683425876072199e+01 -1.0602202899369408e+02 -6.5283865334123919e-02 -1.3260492970773365e+01
1.8000000000000000e+00 -2.6640098296895381e-02 -1.7115259423496777e+01 -6.0279145167050565e+01 -9.3615275823044300e+01 -6.2250025786950012e+01 -9.9305380324911056e+01 -6.6221115357738114e-02 -1.3349499993592604e+01
1.8100000000000001e+00 -2.7689507535451664e-02 -1.7209476354317424e+01 -6.0261103799856031e+01 -9.3182289750766969e+01 -6.0293009572931730e+01 -9.9057267541721728e+01 -6.7384393565910874e-02 -1.3423989970243351e+01
1.8200000000000001e+00 -2.6802925681374667e-02 -1.7307889323479774e+01 -6.0016558844162908e+01 -1.0116153180871271e+02 -5.8201095467362720e+01 -1.0631041420420644e+02 -6.6636942112073716e-02 -1.3499223595550198e+01
1.8300000000000001e+00 -2.6809479093337741e-02 -1.7421523667264360e+01 -5.9970053294851688e+01 -1.1396748164911449e+02 -5.9870183363588637e+01 -1.0117842304752723e+02 -6.5576967083735990e-02 -1.3580682086102460e+01
1.8400000000000001e+00 -2.7818968269075268e-02 -1.7505797011537773e+01 -6.0205100354655158e+01 -1.0661983412950725e+02 -6.0406049080880877e+01 -1.0051138007901129e+02 -6.6700522778851981e-02 -1.3663133685696545e+01
1.8500000000000001e+00 -2.7936092464736422e-02 -1.7621122782807515e+01 -5.9462652785224854e+01 -1.0305495840623780e+02 -5.9316191529346227e+01 -1.0964390357654763e+02 -6.6474696114396395e-02 -1.3746873776116152e+01
1.8600000000000001e+00 -2.7921245648041861e-02 -1.7733429126964754e+01 -5.8443814899559655e+01 -1.0024299033774470e+02 -6.0831643877547549e+01 -1.0363585053795634e+02 -6.6628648890874928e-02 -1.3824597895363963e+01
1.8700000000000001e+00 -2.7886880873763696e-02 -1.7828095183623233e+01 -5.9981231050073404e+01 -1.0322505658767847e+02 -6.0346906979000224e+01 -1.1709915466613040e+02 -6.6124116160348689e-02 -1.3912787520873945e+01
1.8799999999999999e+00 -2.7211584148278518e-02 -1.7935079689321554e+01 -5.8192162600248558e+01 -1.0226106284444269e+02 -5.8569056256361876e+01 -9.9650442348444827e+01 -6.7063151648587033e-02 -1.3981444333871172e+01
1.8899999999999999e+00 -2.8087291756992688e-02 -1.8033529959688579e+01 -5.6863508100461061e+01 -1.0830472557194568e+02 -5.9175670561894648e+01 -1.1353735531338187e+02 -6.6564925338418943e-02 -1.4071435068099905e+01
1.8999999999999999e+00 -2.7583440415163835e-02 -1.8151606513693107e+01 -5.8441592621264029e+01 -1.0859907835872521e+02 -5.8181737468242744e+01 -1.1137359949471259e+02 -6.6310067805959327e-02 -1.4148718506898048e+01
1.9099999999999999e+00 -2.8618824357497019e-02 -1.8257929996303009e+01 -5.7735241293570624e+01 -1.0751477960485036e+02 -5.7220574268580535e+01 -9.9185807582339763e+01 -6.7757174878733936e-02 -1.4230640012531374e+01
1.9199999999999999e+00 -2.8031550585459176e-02 -1.8363153815053572e+01 -5.8978752312867371e+01 -9.9582382206392168e+01 -5.7904654861705097e+01 -1.0793119490534018e+02 -6.7214381396214523e-02 -1.4313107402861968e+01
