# MHz S DB R 50
1.0000000000000000e+00 -1.9571697575745013e-02 -9.2562435918462302e+00 -7.0069596047114217e+01 -1.5990307476999533e+02 -7.3899515793229170e+01 -1.6792184080444375e+02 -6.0695105109627133e-02 -7.2981039407232284e+00
1.0100000000000000e+00 -1.8952123605883341e-02 -9.3649024989638399e+00 -7.3577701256008567e+01 -1.3923359743090464e+02 -7.0665454988751023e+01 -1.6085899452995830e+02 -6.1313605291607468e-02 -7.3644106783196355e+00
1.0200000000000000e+00 -1.9139373532116005e-02 -9.4427630965438638e+00 -7.6282291064482706e+01 -9.5635783103638872e+01 -7.5068500634096281e+01 1.6645732614908343e+02 -6.1342243114967353e-02 -7.4344030710604248e+00
1.0300000000000000e+00 -1.9587943659568358e-02 -9.5368793525373530e+00 -6.6887455355368033e+01 -1.5207249518933023e+02 -8.2606568590921398e+01 -1.7159003294785219e+02 -6.1278059542967243e-02 -7.5053637885214455e+00
1.0400000000000000e+00 -2.0559934475161475e-02 -9.6559944439395373e+00 -7.2863034217347661e+01 -1.3290472263007436e+02 -6.9529403904997992e+01 -1.5992980782598158e+02 -6.1081504094368341e-02 -7.5775999477156510e+00
1.0500000000000000e+00 -1.9780581930400058e-02 -9.7280849137430572e+00 -7.1729550883593930e+01 -1.2835680342904297e+02 -7.4784064895466514e+01 -1.2177589461744445e+02 -6.2564367275972102e-02 -7.6469203705022686e+00
1.0600000000000001e+00 -1.9417824091007434e-02 -9.8080418756329024e+00 -7.0610644520237230e+01 -1.2819271646180795e+02 -7.0654840761316635e+01 -1.1776489158241394e+02 -6.2889255418055678e-02 -7.7221651850550899e+00
1.0700000000000001e+00 -2.0437024883708244e-02 -9.9163901037044990e+00 -7.4793182622455959e+01 -1.5179858172927266e+02 -7.3719792932009312e+01 -1.4029230913130723e+02 -6.2232238599002315e-02 -7.7912130844992467e+00
1.0800000000000001e+00 -2.0543635515083015e-02 -1.0012178186259943e+01 -8.2314928707729280e+01 -1.4030528256408749e+02 -6.6749639017134527e+01 -1.4908355186044179e+02 -6.3511364342546714e-02 -7.8664495299415114e+00
1.0900000000000001e+00 -2.0065488670461380e-02 -1.0091259070953782e+01 -7.6760654243456159e+01 -1.4975098695398501e+02 -8.6165997725956274e+01 1.7782493544965885e+02 -6.2653565475794024e-02 -7.9343205638116023e+00
1.1000000000000001e+00 -2.0615333101940757e-02 -1.0197493704450094e+01 -7.2021975669613596e+01 -1.5092208386000067e+02 -7.4940135896663563e+01 -1.5215148168442448e+02 -6.2779254459976536e-02 -7.9995685403175063e+00
1.1100000000000001e+00 -2.1209606828989452e-02 -1.0286575871047276e+01 -7.2852914968658780e+01 -1.2753606202835061e+02 -6.8754190965753551e+01 -1.7666120749999925e+02 -6.3304790084149049e-02 -8.0759452987164746e+00
1.1200000000000001e+00 -2.1110943595315214e-02 -1.0375073464317596e+01 -6.9425776763634431e+01 -1.7285342442384791e+02 -7.1554545997634747e+01 -1.4012181400543417e+02 -6.3080335361544490e-02 -8.1503797610598347e+00
1.1299999999999999e+00 -2.0350404500028545e-02 -1.0463976814722185e+01 -6.9847730149757467e+01 -1.4527373392441291e+02 -7.7586666507418315e+01 1.5901512668066940e+02 -6.3778309546304923e-02 -8.2179831170101334e+00
1.1399999999999999e+00 -2.1067787888453801e-02 -1.0561896902509323e+01 -7.5919555923154306e+01 -1.3575058727950545e+02 -7.9908034397841661e+01 -1.0692597871177132e+02 -6.3824560625015764e-02 -8.2909432817215922e+00
1.1499999999999999e+00 -2.1206010218662780e-02 -1.0651104566439720e+01 -6.7523969967805243e+01 -1.3019493435395003e+02 -7.0982190186522175e+01 -1.3692309590720046e+02 -6.3741522493423589e-02 -8.3627626692652406e+00
1.1599999999999999e+00 -2.1345356765899416e-02 -1.0746521782992616e+01 -6.9898218116620811e+01 -1.2112397832375873e+02 -6.9497185583889319e+01 1.7844270399211806e+02 -6.3796732597818734e-02 -8.4294098223406504e+00
1.1699999999999999e+00 -2.1501443624346028e-02 -1.0849504718880922e+01 -7.1372124763540725e+01 -1.6900251678609899e+02 -7.9523770214044006e+01 -1.6131228946581300e+02 -6.4466776918691071e-02 -8.5059812475059964e+00
1.1799999999999999e+00 -2.1592378894823655e-02 -1.0934891320884999e+01 -6.9342484459939840e+01 -1.7732588184885745e+02 -7.1517993312333275e+01 -1.7505733470641016e+02 -6.3457609164223175e-02 -8.5752712822629338e+00
1.1899999999999999e+00 -2.1714091814774086e-02 -1.1015225686564179e+01 -7.0491128201769570e+01 1.4338327367958306e+02 -7.5646122966080171e+01 -1.6768374811327595e+02 -6.3634754672430002e-02 -8.6431388040141410e+00
1.2000000000000000e+00 -2.1410653787885793e-02 -1.1129726834547906e+01 -6.8748787720523737e+01 -1.3719558492886631e+02 -7.7617587825681255e+01 -1.5948860346866346e+02 -6.4417861210049013e-02 -8.7229267199192559e+00
1.2100000000000000e+00 -2.2223196460328581e-02 -1.1204213635124802e+01 -6.7723060666625372e+01 -1.6445509580257692e+02 -6.9666008193451219e+01 -1.3061704507599489e+02 -6.4548754626911342e-02 -8.7899720294997383e+00
1.2200000000000000e+00 -2.2587692544389710e-02 -1.1309278298235350e+01 -6.8426593324561523e+01 -1.3198615521459777e+02 -7.4574531006200274e+01 -1.7043280430864547e+02 -6.5395698861427362e-02 -8.8688435281244757e+00
1.2300000000000000e+00 -2.2823388727725484e-02 -1.1396862521416757e+01 -7.1333976963763689e+01 -1.4979457172630003e+02 -7.1607488528108632e+01 -1.5636816320707553e+02 -6.4788062567142937e-02 -8.9372882890482490e+00
1.2400000000000000e+00 -2.2558543581907717e-02 -1.1502897607681716e+01 -6.8564771944893991e+01 -1.4329640785171702e+02 -7.4305857108898209e+01 -1.1926690165832639e+02 -6.5146319095815267e-02 -9.0064884099220048e+00
1.2500000000000000e+00 -2.2911494396235098e-02 -1.1584684206306454e+01 -6.8700871659567923e+01 -1.3525414990820826e+02 -6.9473165076403774e+01 -1.5784998482334618e+02 -6.5179117001661221e-02 -9.0844811756930355e+00
1.2600000000000000e+00 -2.0330476679602361e-02 -1.1697693851798199e+01 -6.8851478140313361e+01 -1.4922931691303845e+02 -7.1076756948208555e+01 -1.3910528095847101e+02 -6.4906950844252201e-02 -9.1593240325774801e+00
1.2700000000000000e+00 -2.3302695440154331e-02 -1.1787856997315695e+01 -6.7297143842242519e+01 -1.5062245146721236e+02 -7.1638571829289234e+01 -1.3293776893327330e+02 -6.5728772839178856e-02 -9.2214427822422582e+00
1.2800000000000000e+00 -2.1763471623654634e-02 -1.1895219352054390e+01 -6.7711914543582068e+01 -1.3018138736175536e+02 -7.1765919700849921e+01 -1.1990326904084054e+02 -6.5006521648178966e-02 -9.3015444528106794e+00
1.2900000000000000e+00 -2.3893425559978424e-02 -1.1983897480648688e+01 -6.7463526816470377e+01 -1.5303556837812300e+02 -6.9743636283973004e+01 -1.4466470187195458e+02 -6.4383215948643976e-02 -9.3812491668182343e+00
1.3000000000000000e+00 -2.3533159901067961e-02 -1.2066660827083743e+01 -6.6802757866015639e+01 -1.5228558725869203e+02 -7.2926229454615765e+01 -1.4952759456911994e+02 -6.5924969551238319e-02 -9.4492371200298990e+00
1.3100000000000001e+00 -2.1191321268241241e-02 -1.2166085296554302e+01 -7.2128285348355391e+01 -1.1085965172963799e+02 -7.5401112726721934e+01 -1.5534163503665553e+02 -6.3258269133558420e-02 -9.5158909838313424e+00
1.3200000000000001e+00 -2.6094843821284148e-02 -1.2282293856369350e+01 -6.9537155811954563e+01 -1.5589805353028004e+02 -6.7971726066537457e+01 -1.2102516077517242e+02 -6.6255305587571353e-02 -9.5684510085382666e+00
1.3300000000000001e+00 -3.6112732267992526e-02 -1.2304182518821710e+01 -6.6878547328751395e+01 -1.4038119499234460e+02 -6.7938784133348719e+01 -1.1553199538153238e+02 -7.4303020432457512e-02 -9.7158868962584624e+00
1.3400000000000001e+00 -6.7763447833952703e-02 -1.2442108675345755e+01 -6.7804966103002201e+01 -1.4982071544846301e+02 -7.0717900185406336e+01 -1.2211353049042229e+02 -5.3834244543271258e-02 -9.8337802689052776e+00
1.3500000000000001e+00 -2.4211697102906431e-02 -1.2557703817025953e+01 -7.4372686750006807e+01 -1.3869622311176005e+02 -7.0582799501558327e+01 -1.2905125641723168e+02 -6.5946525110176110e-02 -9.8141335956460267e+00
1.3600000000000001e+00 -2.1422990906372230e-02 -1.2623272014159097e+01 -6.7803928987362838e+01 -1.2237114752441985e+02 -6.6977804933310182e+01 -1.1128222932035175e+02 -6.3007044799149689e-02 -9.8977628172567371e+00
1.3700000000000001e+00 -2.5053748158386391e-02 -1.2737375914615431e+01 -6.7254036458415825e+01 -1.2521646484081870e+02 -6.8134813000073933e+01 -1.2742571999384107e+02 -6.7537773284380598e-02 -9.9695275295561228e+00
1.3799999999999999e+00 -2.6134382407455647e-02 -1.2838609624063187e+01 -6.7243660241924900e+01 -1.2821551803994828e+02 -6.9466363501464357e+01 -1.1791777878622871e+02 -6.7686366396855296e-02 -1.0039078730855348e+01
1.3899999999999999e+00 -2.3915519706552611e-02 -1.2940843185010337e+01 -6.5385321688559785e+01 -1.1165295525363690e+02 -6.4351627429976290e+01 -1.0961639939860638e+02 -6.7835893827562485e-02 -1.0093767082914649e+01
1.3999999999999999e+00 -2.4743319707851087e-02 -1.3038011700945875e+01 -6.6503817573981522e+01 -9.4377547286828545e+01 -6.5185377298247801e+01 -1.2555929255301703e+02 -6.6295828516063332e-02 -1.0185091555762241e+01
1.4099999999999999e+00 -2.4882806321137561e-02 -1.3132720670152860e+01 -6.6795615415565635e+01 -1.0315283455543715e+02 -6.5620587739472427e+01 -1.0699909695455443e+02 -6.5683409305612422e-02 -1.0255471315540110e+01
1.4199999999999999e+00 -2.5112950667592549e-02 -1.3230994585750524e+01 -6.6448923607858575e+01 -1.2055785014057294e+02 -6.5529886114281339e+01 -1.1192350805687376e+02 -6.6957796800689751e-02 -1.0328053889010455e+01
1.4299999999999999e+00 -2.6158560959596601e-02 -1.3328796483004487e+01 -6.5264804463596732e+01 -1.3383048269430589e+02 -6.5146495985690891e+01 -1.1983654284266063e+02 -6.7012732883596535e-02 -1.0404507828188882e+01
1.4399999999999999e+00 -2.6258060443249367e-02 -1.3430066819984846e+01 -6.4476441712594763e+01 -1.1711146640431031e+02 -6.3663673427585074e+01 -1.1725906749599169e+02 -6.7299252240152554e-02 -1.0474511495580890e+01
1.4500000000000000e+00 -2.6077282590456219e-02 -1.3516589869719407e+01 -6.4043646982980079e+01 -1.1801179544259264e+02 -6.6967085541017710e+01 -9.9329052095869756e+01 -6.6697027171347456e-02 -1.0547991196505132e+01
1.4600000000000000e+00 -2.5503947468633062e-02 -1.3615083941056765e+01 -6.4304195216555954e+01 -1.1229481809669258e+02 -6.3995274767985634e+01 -1.1752693332808633e+02 -6.7656789532520245e-02 -1.0625955269054197e+01
1.4700000000000000e+00 -2.5792753671337307e-02 -1.3729445166613253e+01 -6.7336589267850982e+01 -9.8906914933068052e+01 -6.3450411824833864e+01 -1.0957433869545861e+02 -6.7268293573089388e-02 -1.0699518173238726e+01
1.4800000000000000e+00 -2.5793642350203247e-02 -1.3810985436278761e+01 -6.4521738273579800e+01 -1.0913899045787275e+02 -6.4028895554417289e+01 -1.0617274765097191e+02 -6.7182008842411156e-02 -1.0779300831104001e+01
1.4900000000000000e+00 -2.7281664105659392e-02 -1.3909646184760227e+01 -6.3415388840284059e+01 -1.1697196274551420e+02 -6.2861191728120374e+01 -1.0638978268690860e+02 -6.8540554030240286e-02 -1.0853604929153068e+01
1.5000000000000000e+00 -2.6635218560761391e-02 -1.4014518133462062e+01 -6.4966006281413115e+01 -1.2254887872881069e+02 -6.2015870243114591e+01 -1.0448883193176029e+02 -6.7845389696546368e-02 -1.0932619059914824e+01
1.5100000000000000e+00 -2.6689438609519178e-02 -1.4108849502006303e+01 -6.5250666783047038e+01 -1.1682617233475324e+02 -6.1215139145885232e+01 -9.3673309324073060e+01 -6.8627791806156246e-02 -1.0998665410057754e+01
1.5200000000000000e+00 -2.7156719665275501e-02 -1.4212469883658859e+01 -6.4488143112984233e+01 -1.0410557852061723e+02 -6.4757911176843436e+01 -8.3671717070694825e+01 -6.8223704851633635e-02 -1.1078860318832081e+01
1.5300000000000000e+00 -2.6942793596655842e-02 -1.4308905140398371e+01 -6.4356211461541236e+01 -9.7289838221264958e+01 -6.4657117331487783e+01 -1.1757081579582668e+02 -6.7332938251096430e-02 -1.1157815276705103e+01
1.5400000000000000e+00 -2.7351693310457632e-02 -1.4403407170177742e+01 -6.2683077134298827e+01 -1.0037079169656849e+02 -6.2589369246383356e+01 -1.1059471580254822e+02 -6.7491936758672641e-02 -1.1228036161659070e+01
1.5500000000000000e+00 -2.7734957880329349e-02 -1.4498449568224796e+01 -6.1403304161413061e+01 -9.2691060886692213e+01 -6.2523016446416129e+01 -1.1479261092047219e+02 -6.7653574508246953e-02 -1.1301368344064588e+01
1.5600000000000001e+00 -2.8765974564710185e-02 -1.4609231443894343e+01 -6.1927542561573368e+01 -9.8994121816830642e+01 -6.2949625483737734e+01 -1.1059606384720080e+02 -6.8155475618538575e-02 -1.1387714530722096e+01
1.5700000000000001e+00 -2.7709870456800526e-02 -1.4698157282808889e+01 -6.2907461682829123e+01 -1.0787750966380902e+02 -6.0267182565997558e+01 -9.9613288866550960e+01 -6.8134522262361719e-02 -1.1457941981135344e+01
1.5800000000000001e+00 -2.8220966089973969e-02 -1.4789144561040255e+01 -6.0295158356709386e+01 -1.0421198803884964e+02 -6.1047764708522280e+01 -1.0495789034107678e+02 -6.8572378704611789e-02 -1.1536745186043287e+01
1.5900000000000001e+00 -2.7489232024173766e-02 -1.4893119316637206e+01 -6.0982714142219621e+01 -1.0461260625604406e+02 -6.2194340572038172e+01 -1.0671292225283804e+02 -6.8559378999077450e-02 -1.1612515596557602e+01
1.6000000000000001e+00 -2.8720270949583755e-02 -1.4994214712688761e+01 -6.0616352048604639e+01 -9.9575805086353981e+01 -6.0190244726642710e+01 -9.2996540336028389e+01 -6.7859241936253437e-02 -1.1689388359504658e+01
1.6100000000000001e+00 -2.8704191877275943e-02 -1.5087655047596646e+01 -6.0866738532568270e+01 -9.9085356596069360e+01 -5.9800737847700887e+01 -1.0268909658951415e+02 -6.8786670869831298e-02 -1.1763405810262256e+01
1.6200000000000001e+00 -2.8027143103761098e-02 -1.5186389637374633e+01 -5.9736031858376165e+01 -9.7312305104670614e+01 -5.9722558113126560e+01 -1.0659559266723662e+02 -6.8256387546972788e-02 -1.1832210388992827e+01
1.6299999999999999e+00 -2.8836201988163595e-02 -1.5287535191094516e+01 -5.9915473481623607e+01 -1.0547875125997153e+02 -5.7828435612327567e+01 -1.0271172389709889e+02 -6.7911546189181937e-02 -1.1912266337466104e+01
1.6399999999999999e+00 -2.8800352142907534e-02 -1.5413449503407113e+01 -5.8597346012377407e+01 -9.9915198059350843e+01 -5.9013572677535471e+01 -1.0271917126276109e+02 -6.9176515849521752e-02 -1.1993784085615260e+01
1.6499999999999999e+00 -2.7889493589938530e-02 -1.5491581560501169e+01 -5.9078619402969153e+01 -1.0763444876776383e+02 -5.9371248891304084e+01 -9.9291499616852562e+01 -6.8422725819923105e-02 -1.2076002728455476e+01
1.6599999999999999e+00 -2.9796352100579154e-02 -1.5593568064889176e+01 -5.8383589599708117e+01 -9.8158670983903590e+01 -5.9667982520069067e+01 -1.0895358779476791e+02 -6.8088391578448537e-02 -1.2152569213411494e+01
1.6699999999999999e+00 -2.8906434091101059e-02 -1.5695828500894258e+01 -5.8474646654074206e+01 -1.0459156652956116e+02 -5.8292476076242394e+01 -1.0221539670118190e+02 -6.8684092139429026e-02 -1.2224920439914468e+01
1.6799999999999999e+00 -2.9263614469411607e-02 -1.5793873962936287e+01 -5.8347063701507111e+01 -9.3882605841880675e+01 -5.8401392138943400e+01 -1.0313628860174123e+02 -6.9066648912544826e-02 -1.2307284861082689e+01
1.6899999999999999e+00 -2.9460007552881765e-02 -1.5910578335237599e+01 -5.7224774309105733e+01 -9.8207140473303170e+01 -5.6460819703781333e+01 -9.9790895731589472e+01 -6.8454342431868959e-02 -1.2386404466060810e+01
1.7000000000000000e+00 -3.0302836968919951e-02 -1.6002901930295312e+01 -5.7807725398166284e+01 -1.0012101116789067e+02 -5.7205606434830287e+01 -1.0451888449340439e+02 -6.9164192445106104e-02 -1.2465803466518468e+01
1.7100000000000000e+00 -2.9880043899446537e-02 -1.6092814753383180e+01 -5.7657504052264315e+01 -1.0041833429123395e+02 -5.7865903131417198e+01 -1.0700712287340502e+02 -6.8494981977976765e-02 -1.2537051279594911e+01
1.7200000000000000e+00 -3.0196259983442851e-02 -1.6213614365345844e+01 -5.7666423387883945e+01 -1.0145869506046870e+02 -5.7190261645365169e+01 -1.0131008934060493e+02 -6.9229838747840014e-02 -1.2622498174885108e+01
1.7300000000000000e+00 -2.9719064700318293e-02 -1.6303344685994922e+01 -5.7277424578011555e+01 -9.5744852650954854e+01 -5.7182409297457497e+01 -9.7520221679034989e+01 -6.9534747671135572e-02 -1.2697543264394479e+01
1.7400000000000000e+00 -3.0045258990186039e-02 -1.6391130403361824e+01 -5.7123940630228347e+01 -1.0647133847319161e+02 -5.6544268138349139e+01 -1.0807992940814958e+02 -6.9240720340749740e-02 -1.2776775285946892e+01
1.7500000000000000e+00 -2.9886371538831169e-02 -1.6504203923937844e+01 -5.6060468545904669e+01 -1.0101829657728757e+02 -5.6761134528433217e+01 -9.7344173660050330e+01 -6.9447623746984682e-02 -1.2855279567711484e+01
1.7600000000000000e+00 -2.9813477400451174e-02 -1.6604742745025103e+01 -5.6120366560018589e+01 -9.9678880965795869e+01 -5.6350082691026671e+01 -1.0217025929381221e+02 -6.8989367249114530e-02 -1.2932677891978097e+01
1.7700000000000000e+00 -3.0781305742559391e-02 -1.6713268387080340e+01 -5.5666143566617301e+01 -1.0141238172943402e+02 -5.5871636351732583e+01 -1.0114615425510618e+02 -6.9106136424922360e-02 -1.3007507500501116e+01
1.7800000000000000e+00 -3.0781275577855531e-02 -1.6820037377180494e+01 -5.5708539375956576e+01 -1.0415104759211007e+02 -5.6315333488010602e+01 -1.0139819953507494e+02 -6.9100493013955433e-02 -1.3105045709347822e+01
1.7900000000000000e+00 -3.1386390903657455e-02 -1.6911976169236695e+01 -5.5840072849528951e+01 -1.0268183148947620e+02 -5.5251845661176006e+01 -1.0553507734452754e+02 -6.8595987133334618e-02 -1.3173424981456616e+01
1.8000000000000000e+00 -3.0910674785783319e-02 -1.7024866258323382e+01 -5.4800575914179703e+01 -1.0020333097341626e+02 -5.6010760408003286e+01 -1.0482920156104086e+02 -6.8703700976514986e-02 -1.3257552878104446e+01
1.8100000000000001e+00 -3.1470437458740258e-02 -1.7129383027188908e+01 -5.4931614840079412e+01 -9.9865094680018615e+01 -5.4723748129127749e+01 -1.0338106819770515e+02 -6.9279206009443109e-02 -1.3326857255912184e+01
1.8200000000000001e+00 -3.0920677561884716e-02 -1.7233727964327418e+01 -5.4723952702044507e+01 -1.0152408813918123e+02 -5.3697102452446927e+01 -1.0569022281514611e+02 -6.9598097666462869e-02 -1.3411588758141669e+01
1.8300000000000001e+00 -3.1249952745115179e-02 -1.7340392373670209e+01 -5.4740760911277661e+01 -1.0719213817566281e+02 -5.4311400296925640e+01 -1.0232597885078995e+02 -6.9009181187284191e-02 -1.3492723084692365e+01
1.8400000000000001e+00 -3.1001831468927318e-02 -1.7437242605183819e+01 -5.4578002317171780e+01 -1.0376655838093082e+02 -5.4663913934300126e+01 -1.0245288141914381e+02 -6.9609876081723004e-02 -1.3566860915308510e+01
1.8500000000000001e+00 -3.1947820614104089e-02 -1.7539044819050805e+01 -5.3863237897670082e+01 -1.0365757907566115e+02 -5.4162415316839791e+01 -1.0797747500482380e+02 -6.9531911457856338e-02 -1.3656629297373698e+01
1.8600000000000001e+00 -3.1571940736563622e-02 -1.7641978334292308e+01 -5.3439473137465271e+01 -1.0176075962097126e+02 -5.4794042373832369e+01 -1.0524616563927903e+02 -6.9511585693192074e-02 -1.3742512703111048e+01
1.8700000000000001e+00 -3.1262896774209299e-02 -1.7742740970159836e+01 -5.4424062541249512e+01 -1.0393657756940388e+02 -5.4692586249414845e+01 -1.1037431417400435e+02 -6.9656076520686450e-02 -1.3817823461183700e+01
1.8799999999999999e+00 -3.1391546696976552e-02 -1.7848916546431798e+01 -5.3011976327255617e+01 -1.0244058699520680e+02 -5.3535424228156074e+01 -1.0331472594167185e+02 -6.9735158225316132e-02 -1.3899010560613677e+01
1.8899999999999999e+00 -3.1370336646965744e-02 -1.7966349206936545e+01 -5.2635642064132462e+01 -1.0832181290559578e+02 -5.3721134625946966e+01 -1.0965590723049647e+02 -7.0202298472648639e-02 -1.3980958431133537e+01
1.8999999999999999e+00 -3.2478302632450377e-02 -1.8060103661159108e+01 -5.3264813781824003e+01 -1.0704784072097381e+02 -5.3144265786027518e+01 -1.0827877026946453e+02 -7.0162758447665674e-02 -1.4066231401369659e+01
1.9099999999999999e+00 -3.2051868084764623e-02 -1.8169750479003703e+01 -5.2649532111878614e+01 -1.0579994947750488e+02 -5.2408414143516097e+01 -1.0155812716685129e+02 -7.0106958317327425e-02 -1.4146247370514223e+01
